Time Stamp,ID,Extended,Dir,Bus,LEN,D1,D2,D3,D4,D5,D6,D7,D8
5665610,000000AA,false,Rx,9,2,AA,04,00,00,00,00,00,00,
5670615,00000040,false,Rx,9,3,B0,01,10,00,00,00,00,00,
5671304,00000010,false,Rx,9,3,B0,0B,00,00,00,00,00,00,
5692501,00000010,false,Rx,9,7,B0,01,10,11,10,0D,00,00,
5693088,000000AA,false,Rx,9,2,AA,04,00,00,00,00,00,00,
5693854,00000040,false,Rx,9,3,B0,01,10,00,00,00,00,00,
5694616,00000010,false,Rx,9,3,B0,0B,00,00,00,00,00,00,
5709491,00000010,false,Rx,9,7,B0,01,10,11,10,0D,00,00,
5710072,000000AA,false,Rx,9,2,AA,04,00,00,00,00,00,00,
5710836,00000040,false,Rx,9,3,B0,01,10,00,00,00,00,00,
5711599,00000010,false,Rx,9,3,B0,0B,00,00,00,00,00,00,
5724653,00000010,false,Rx,9,7,B0,01,10,11,10,0D,00,00,
5725522,000000AA,false,Rx,9,2,AA,04,00,00,00,00,00,00,
5735750,00000040,false,Rx,9,3,B0,01,10,00,00,00,00,00,
5735774,00000010,false,Rx,9,3,B0,0B,00,00,00,00,00,00,
5735791,00000010,false,Rx,9,3,B0,0E,00,00,00,00,00,00,
5741036,00000010,false,Rx,9,7,B0,01,10,11,10,0D,00,00,
5745521,000000AA,false,Rx,9,2,AA,04,00,00,00,00,00,00,
5750707,00000040,false,Rx,9,3,B0,01,10,00,00,00,00,00,
5751402,00000010,false,Rx,9,3,B0,0B,00,00,00,00,00,00,
5801129,00000010,false,Rx,9,7,B0,01,10,11,10,0D,00,00,
5801815,000000AA,false,Rx,9,2,AA,04,00,00,00,00,00,00,
5802582,00000040,false,Rx,9,3,B0,01,10,00,00,00,00,00,
5803451,00000010,false,Rx,9,3,B0,0B,00,00,00,00,00,00,
5804532,00000010,false,Rx,9,7,B0,01,10,11,10,0D,00,00,
5805295,000000AA,false,Rx,9,2,AA,04,00,00,00,00,00,00,
5806054,00000040,false,Rx,9,3,B0,01,10,00,00,00,00,00,
5808408,00000010,false,Rx,9,3,B0,0B,00,00,00,00,00,00,
5808427,00000010,false,Rx,9,7,B0,01,10,11,10,0D,00,00,
5808681,000000AA,false,Rx,9,2,AA,04,00,00,00,00,00,00,
5810683,00000040,false,Rx,9,3,B0,01,10,00,00,00,00,00,
5811844,00000040,false,Rx,9,8,23,00,00,08,FC,80,00,00,
5812622,00000010,false,Rx,9,3,B0,0B,00,00,00,00,00,00,
5813171,00000008,false,Rx,9,1,E3,00,00,00,00,00,00,00,
5816054,00000040,false,Rx,9,8,23,00,00,08,FC,80,00,00,
5816817,00000010,false,Rx,9,3,B0,0E,00,00,00,00,00,00,
5817369,00000008,false,Rx,9,1,E3,00,00,00,00,00,00,00,
5828400,00000040,false,Rx,9,8,21,00,00,08,FC,80,00,00,
5828568,00000010,false,Rx,9,7,B0,01,10,11,10,0D,00,00,
5829131,00000008,false,Rx,9,1,E1,00,00,00,00,00,00,00,
5829683,000000AA,false,Rx,9,2,AA,04,00,00,00,00,00,00,
5830871,00000040,false,Rx,9,8,21,00,00,08,FC,80,00,00,
5831634,00000040,false,Rx,9,3,B0,01,10,00,00,00,00,00,
5832184,00000008,false,Rx,9,1,E1,00,00,00,00,00,00,00,
5833375,00000040,false,Rx,9,8,24,00,00,08,FC,40,00,00,
5834031,00000010,false,Rx,9,3,B0,0B,00,00,00,00,00,00,
5834584,00000008,false,Rx,9,1,E4,00,00,00,00,00,00,00,
5835911,00000040,false,Rx,9,7,B0,92,FF,FF,93,E5,00,00,
5837106,00000040,false,Rx,9,8,24,00,00,08,FC,40,00,00,
5837874,00000008,false,Rx,9,1,E4,00,00,00,00,00,00,00,
5852564,00000010,false,Rx,9,7,B0,01,10,11,10,0D,00,00,
5853143,000000AA,false,Rx,9,2,AA,04,00,00,00,00,00,00,
5853805,00000040,false,Rx,9,3,B0,01,10,00,00,00,00,00,
5854568,00000010,false,Rx,9,3,B0,0B,00,00,00,00,00,00,
5869493,00000010,false,Rx,9,7,B0,01,10,11,10,0D,00,00,
5870076,000000AA,false,Rx,9,2,AA,04,00,00,00,00,00,00,
5870841,00000040,false,Rx,9,3,B0,01,10,00,00,00,00,00,
5871604,00000010,false,Rx,9,3,B0,0B,00,00,00,00,00,00,
5884658,00000010,false,Rx,9,7,B0,01,10,11,10,0D,00,00,
5885529,000000AA,false,Rx,9,2,AA,04,00,00,00,00,00,00,
5890608,00000040,false,Rx,9,3,B0,01,10,00,00,00,00,00,
5891303,00000010,false,Rx,9,3,B0,0B,00,00,00,00,00,00,
5895737,00000010,false,Rx,9,3,B0,0E,00,00,00,00,00,00,
5900959,00000010,false,Rx,9,7,B0,01,10,11,10,0D,00,00,
5905536,000000AA,false,Rx,9,2,AA,04,00,00,00,00,00,00,
5910608,00000040,false,Rx,9,3,B0,01,10,00,00,00,00,00,
5911300,00000010,false,Rx,9,3,B0,0B,00,00,00,00,00,00,
5920963,00000010,false,Rx,9,7,B0,01,10,11,10,0D,00,00,
5925541,000000AA,false,Rx,9,2,AA,04,00,00,00,00,00,00,
5930619,00000040,false,Rx,9,3,B0,01,10,00,00,00,00,00,
5931341,00000010,false,Rx,9,3,B0,0B,00,00,00,00,00,00,
5949537,00000010,false,Rx,9,7,B0,01,10,11,10,0D,00,00,
5950120,000000AA,false,Rx,9,2,AA,04,00,00,00,00,00,00,
5950805,00000040,false,Rx,9,3,B0,01,10,00,00,00,00,00,
5951758,00000010,false,Rx,9,3,B0,0B,00,00,00,00,00,00,
5961075,00000040,false,Rx,9,8,27,00,00,FD,00,80,00,00,
5962154,00000010,false,Rx,9,7,B0,01,10,11,10,0D,00,00,
5965463,000000AA,false,Rx,9,2,AA,04,00,00,00,00,00,00,
5970610,00000040,false,Rx,9,3,B0,01,10,00,00,00,00,00,
5971730,00000040,false,Rx,9,8,13,01,00,00,00,FF,00,00,
5972565,00000010,false,Rx,9,3,B0,0B,00,00,00,00,00,00,
5975640,00000010,false,Rx,9,3,B0,0E,00,00,00,00,00,00,
5979056,00000008,false,Rx,9,5,B0,01,02,0C,00,00,00,00,
5980247,00000008,false,Rx,9,8,10,00,00,00,00,FF,00,00,
5987049,0000029C,false,Rx,9,3,03,00,1A,00,00,00,00,00,
5988724,00000010,false,Rx,9,7,B0,01,10,11,10,0D,00,00,
5988748,000000AA,false,Rx,9,2,AA,04,00,00,00,00,00,00,
5990646,00000040,false,Rx,9,3,B0,01,10,00,00,00,00,00,
5991308,00000010,false,Rx,9,3,B0,0B,00,00,00,00,00,00,
5999277,00000008,false,Rx,9,3,B0,01,02,00,00,00,00,00,
6012177,000002BC,false,Rx,9,3,03,00,0B,00,00,00,00,00,
6013196,00000010,false,Rx,9,7,B0,01,10,11,10,0D,00,00,
6013749,000000AA,false,Rx,9,2,AA,04,00,00,00,00,00,00,
6014511,00000040,false,Rx,9,3,B0,01,10,00,00,00,00,00,
6015277,00000010,false,Rx,9,3,B0,0B,00,00,00,00,00,00,
6019432,00000008,false,Rx,9,3,B0,01,02,00,00,00,00,00,
6029829,00000040,false,Rx,9,5,30,02,00,01,08,00,00,00,
6030405,000002B4,false,Rx,9,3,03,00,02,00,00,00,00,00,
6031490,00000010,false,Rx,9,7,B0,01,10,11,10,0D,00,00,
6032146,000000AA,false,Rx,9,2,AA,04,00,00,00,00,00,00,
6032805,00000040,false,Rx,9,3,B0,01,10,00,00,00,00,00,
6033567,00000010,false,Rx,9,3,B0,0B,00,00,00,00,00,00,
6035920,00000040,false,Rx,9,7,B0,92,FF,FF,93,E5,00,00,
6039438,00000008,false,Rx,9,3,B0,01,10,00,00,00,00,00,
6044297,000003AC,false,Rx,9,3,03,00,1D,00,00,00,00,00,
6045278,00000010,false,Rx,9,7,B0,01,10,11,10,0D,00,00,
6045933,000000AA,false,Rx,9,2,AA,04,00,00,00,00,00,00,
6050591,00000040,false,Rx,9,3,B0,01,10,00,00,00,00,00,
6051284,00000010,false,Rx,9,3,B0,0B,00,00,00,00,00,00,
6055679,00000010,false,Rx,9,3,B0,0E,00,00,00,00,00,00,
6059420,00000008,false,Rx,9,3,B0,01,10,00,00,00,00,00,
6060606,000003A4,false,Rx,9,3,03,00,2C,00,00,00,00,00,
6061688,00000010,false,Rx,9,7,B0,01,10,11,10,0D,00,00,
6065526,000000AA,false,Rx,9,2,AA,04,00,00,00,00,00,00,
6070706,00000040,false,Rx,9,3,B0,01,10,00,00,00,00,00,
6071290,00000010,false,Rx,9,3,B0,0B,00,00,00,00,00,00,
6079361,00000008,false,Rx,9,3,B0,01,10,00,00,00,00,00,
6080971,00000008,false,Rx,9,8,12,00,00,FF,80,02,00,00,
6082052,00000010,false,Rx,9,7,B0,01,10,11,10,0D,00,00,
6085466,000000AA,false,Rx,9,2,AA,04,00,00,00,00,00,00,
6090685,00000040,false,Rx,9,3,B0,01,10,00,00,00,00,00,
6091355,00000010,false,Rx,9,3,B0,0B,00,00,00,00,00,00,
6099435,00000008,false,Rx,9,3,B0,01,10,00,00,00,00,00,
6109116,0000029C,false,Rx,9,3,03,00,1A,00,00,00,00,00,
6110129,00000010,false,Rx,9,7,B0,01,10,11,10,0D,00,00,
6110790,000000AA,false,Rx,9,2,AA,04,00,00,00,00,00,00,
6111447,00000040,false,Rx,9,3,B0,01,10,00,00,00,00,00,
6112213,00000010,false,Rx,9,3,B0,0B,00,00,00,00,00,00,
6119439,00000008,false,Rx,9,3,B0,01,10,00,00,00,00,00,
6120626,000002BC,false,Rx,9,3,03,00,0B,00,00,00,00,00,
6121706,00000010,false,Rx,9,7,B0,01,10,11,10,0D,00,00,
6125541,000000AA,false,Rx,9,2,AA,04,00,00,00,00,00,00,
6130674,00000040,false,Rx,9,3,B0,01,10,00,00,00,00,00,
6131362,00000010,false,Rx,9,3,B0,0B,00,00,00,00,00,00,
6135594,00000010,false,Rx,9,3,B0,0E,00,00,00,00,00,00,
6139362,00000008,false,Rx,9,3,B0,01,10,00,00,00,00,00,
6149097,000002B4,false,Rx,9,3,03,00,0A,00,00,00,00,00,
6149116,00000010,false,Rx,9,7,B0,01,10,11,10,0D,00,00,
6149821,000000AA,false,Rx,9,2,AA,04,00,00,00,00,00,00,
6150587,00000040,false,Rx,9,3,B0,01,10,00,00,00,00,00,
6151352,00000010,false,Rx,9,3,B0,0B,00,00,00,00,00,00,
6159421,00000008,false,Rx,9,3,B0,01,10,00,00,00,00,00,
6172223,000003AC,false,Rx,9,3,03,00,1D,00,00,00,00,00,
6173146,00000010,false,Rx,9,7,B0,01,10,11,10,0D,00,00,
6173807,000000AA,false,Rx,9,2,AA,04,00,00,00,00,00,00,
6174464,00000040,false,Rx,9,3,B0,01,10,00,00,00,00,00,
6175228,00000010,false,Rx,9,3,B0,0B,00,00,00,00,00,00,
6179482,00000008,false,Rx,9,5,B0,01,10,0C,A0,00,00,00,
6189857,000003A4,false,Rx,9,3,03,00,2C,00,00,00,00,00,
6190866,00000010,false,Rx,9,7,B0,01,10,11,10,0D,00,00,
6191417,000000AA,false,Rx,9,2,AA,04,00,00,00,00,00,00,
6192176,00000040,false,Rx,9,3,B0,01,10,00,00,00,00,00,
6192938,00000010,false,Rx,9,3,B0,0B,00,00,00,00,00,00,
6199316,00000008,false,Rx,9,3,B0,01,10,00,00,00,00,00,
6204663,00000010,false,Rx,9,7,B0,01,10,11,10,0D,00,00,
6205450,000000AA,false,Rx,9,2,AA,04,00,00,00,00,00,00,
6210628,00000040,false,Rx,9,3,B0,01,10,00,00,00,00,00,
6211320,00000010,false,Rx,9,3,B0,0B,00,00,00,00,00,00,
6215683,00000010,false,Rx,9,3,B0,0E,00,00,00,00,00,00,
6219310,00000008,false,Rx,9,3,B0,01,10,00,00,00,00,00,
6220601,0000029C,false,Rx,9,3,03,00,1A,00,00,00,00,00,
6221679,00000010,false,Rx,9,7,B0,01,10,11,10,0D,00,00,
6225517,000000AA,false,Rx,9,2,AA,04,00,00,00,00,00,00,
6230637,00000040,false,Rx,9,3,B0,01,10,00,00,00,00,00,
6231327,00000010,false,Rx,9,3,B0,0B,00,00,00,00,00,00,
6235945,00000040,false,Rx,9,7,B0,92,FF,FF,93,E5,00,00,
6239373,00000008,false,Rx,9,3,B0,01,10,00,00,00,00,00,
6240556,000002BC,false,Rx,9,3,03,00,0B,00,00,00,00,00,
6241637,00000010,false,Rx,9,7,B0,01,10,11,10,0D,00,00,
6245545,000000AA,false,Rx,9,2,AA,04,00,00,00,00,00,00,
6250616,00000040,false,Rx,9,3,B0,01,10,00,00,00,00,00,
6251306,00000010,false,Rx,9,3,B0,0B,00,00,00,00,00,00,
6259375,00000008,false,Rx,9,3,B0,01,10,00,00,00,00,00,
6269446,000002B4,false,Rx,9,3,03,00,0A,00,00,00,00,00,
6270128,00000010,false,Rx,9,7,B0,01,10,11,10,0D,00,00,
6270787,000000AA,false,Rx,9,2,AA,04,00,00,00,00,00,00,
6271445,00000040,false,Rx,9,3,B0,01,10,00,00,00,00,00,
6272210,00000010,false,Rx,9,3,B0,0B,00,00,00,00,00,00,
6279386,00000008,false,Rx,9,3,B0,01,10,00,00,00,00,00,
6280588,000003AC,false,Rx,9,3,03,00,1D,00,00,00,00,00,
6281667,00000010,false,Rx,9,7,B0,01,10,11,10,0D,00,00,
6285501,000000AA,false,Rx,9,2,AA,04,00,00,00,00,00,00,
6290667,00000040,false,Rx,9,3,B0,01,10,00,00,00,00,00,
6291362,00000010,false,Rx,9,3,B0,0B,00,00,00,00,00,00,
6295616,00000010,false,Rx,9,3,B0,0E,00,00,00,00,00,00,
6299346,00000008,false,Rx,9,3,B0,01,10,00,00,00,00,00,
6309594,000003A4,false,Rx,9,3,03,00,2C,00,00,00,00,00,
6309785,00000010,false,Rx,9,7,B0,01,10,11,10,0D,00,00,
6310352,000000AA,false,Rx,9,2,AA,04,00,00,00,00,00,00,
6311005,00000040,false,Rx,9,3,B0,01,10,00,00,00,00,00,
6311768,00000010,false,Rx,9,3,B0,0B,00,00,00,00,00,00,
6319413,00000008,false,Rx,9,3,B0,01,10,00,00,00,00,00,
6332470,00000010,false,Rx,9,7,B0,01,10,11,10,0D,00,00,
6333047,000000AA,false,Rx,9,2,AA,04,00,00,00,00,00,00,
6333812,00000040,false,Rx,9,3,B0,01,10,00,00,00,00,00,
6334574,00000010,false,Rx,9,3,B0,0B,00,00,00,00,00,00,
6339363,00000008,false,Rx,9,3,B0,01,10,00,00,00,00,00,
6349791,0000029C,false,Rx,9,3,03,00,1A,00,00,00,00,00,
6350799,00000010,false,Rx,9,7,B0,01,10,11,10,0D,00,00,
6351487,000000AA,false,Rx,9,2,AA,04,00,00,00,00,00,00,
6352168,00000040,false,Rx,9,3,B0,01,10,00,00,00,00,00,
6352959,00000010,false,Rx,9,3,B0,0B,00,00,00,00,00,00,
6359320,00000008,false,Rx,9,3,B0,01,10,00,00,00,00,00,
6364226,000002BC,false,Rx,9,3,03,00,0B,00,00,00,00,00,
6365307,00000010,false,Rx,9,7,B0,01,10,11,10,0D,00,00,
6365962,000000AA,false,Rx,9,2,AA,04,00,00,00,00,00,00,
6370632,00000040,false,Rx,9,3,B0,01,10,00,00,00,00,00,
6371317,00000010,false,Rx,9,3,B0,0B,00,00,00,00,00,00,
6375574,00000010,false,Rx,9,3,B0,0E,00,00,00,00,00,00,
6379511,00000008,false,Rx,9,5,B0,01,10,0C,A0,00,00,00,
6380590,000002B4,false,Rx,9,3,03,00,02,00,00,00,00,00,
6381670,00000010,false,Rx,9,7,B0,01,10,11,10,0D,00,00,
6385507,000000AA,false,Rx,9,2,AA,04,00,00,00,00,00,00,
6390663,00000040,false,Rx,9,3,B0,01,10,00,00,00,00,00,
6391357,00000010,false,Rx,9,3,B0,0B,00,00,00,00,00,00,
6399364,00000008,false,Rx,9,3,B0,01,10,00,00,00,00,00,
6400564,000003AC,false,Rx,9,3,03,00,1D,00,00,00,00,00,
6401645,00000010,false,Rx,9,7,B0,01,10,11,10,0D,00,00,
6405481,000000AA,false,Rx,9,2,AA,04,00,00,00,00,00,00,
6410600,00000040,false,Rx,9,3,B0,01,10,00,00,00,00,00,
6411274,00000010,false,Rx,9,3,B0,0B,00,00,00,00,00,00,
6419334,00000008,false,Rx,9,3,B0,01,10,00,00,00,00,00,
6430123,000003A4,false,Rx,9,3,03,00,2C,00,00,00,00,00,
6430142,00000010,false,Rx,9,7,B0,01,10,11,10,0D,00,00,
6430721,000000AA,false,Rx,9,2,AA,04,00,00,00,00,00,00,
6431494,00000040,false,Rx,9,3,B0,01,10,00,00,00,00,00,
6432258,00000010,false,Rx,9,3,B0,0B,00,00,00,00,00,00,
6435995,00000040,false,Rx,9,7,B0,92,FF,FF,93,E5,00,00,
6439321,00000008,false,Rx,9,3,B0,01,10,00,00,00,00,00,
6440930,00000010,false,Rx,9,7,B0,01,10,11,10,0D,00,00,
6445512,000000AA,false,Rx,9,2,AA,04,00,00,00,00,00,00,
6450937,00000040,false,Rx,9,3,B0,01,10,00,00,00,00,00,
6451415,00000010,false,Rx,9,3,B0,0B,00,00,00,00,00,00,
6455631,00000010,false,Rx,9,3,B0,0E,00,00,00,00,00,00,
6459371,00000008,false,Rx,9,3,B0,01,10,00,00,00,00,00,
6470090,0000029C,false,Rx,9,3,03,00,1A,00,00,00,00,00,
6470109,00000010,false,Rx,9,7,B0,01,10,11,10,0D,00,00,
6470352,000000AA,false,Rx,9,2,AA,04,00,00,00,00,00,00,
6471064,00000040,false,Rx,9,3,B0,01,10,00,00,00,00,00,
6471770,00000010,false,Rx,9,3,B0,0B,00,00,00,00,00,00,
6479402,00000008,false,Rx,9,3,B0,01,10,00,00,00,00,00,
6492144,000002BC,false,Rx,9,3,03,00,0B,00,00,00,00,00,
6493149,00000010,false,Rx,9,7,B0,01,10,11,10,0D,00,00,
6493807,000000AA,false,Rx,9,2,AA,04,00,00,00,00,00,00,
6494465,00000040,false,Rx,9,3,B0,01,10,00,00,00,00,00,
6495230,00000010,false,Rx,9,3,B0,0B,00,00,00,00,00,00,
6499383,00000008,false,Rx,9,3,B0,01,10,00,00,00,00,00,
6510268,000002B4,false,Rx,9,3,03,00,02,00,00,00,00,00,
6510868,00000010,false,Rx,9,7,B0,01,10,11,10,0D,00,00,
6511422,000000AA,false,Rx,9,2,AA,04,00,00,00,00,00,00,
6512175,00000040,false,Rx,9,3,B0,01,10,00,00,00,00,00,
6512940,00000010,false,Rx,9,3,B0,0B,00,00,00,00,00,00,
6519348,00000008,false,Rx,9,3,B0,01,10,00,00,00,00,00,
6524243,000003AC,false,Rx,9,3,03,00,1D,00,00,00,00,00,
6525216,00000010,false,Rx,9,7,B0,01,10,11,10,0D,00,00,
6525871,000000AA,false,Rx,9,2,AA,04,00,00,00,00,00,00,
6530671,00000040,false,Rx,9,3,B0,01,10,00,00,00,00,00,
6531378,00000010,false,Rx,9,3,B0,0B,00,00,00,00,00,00,
6535593,00000010,false,Rx,9,3,B0,0E,00,00,00,00,00,00,
6539327,00000008,false,Rx,9,3,B0,01,10,00,00,00,00,00,
6540616,000003A4,false,Rx,9,3,03,00,2C,00,00,00,00,00,
6541697,00000010,false,Rx,9,7,B0,01,10,11,10,0D,00,00,
6545533,000000AA,false,Rx,9,2,AA,04,00,00,00,00,00,00,
6550646,00000040,false,Rx,9,3,B0,01,10,00,00,00,00,00,
6551329,00000010,false,Rx,9,3,B0,0B,00,00,00,00,00,00,
6559454,00000008,false,Rx,9,3,B0,01,10,00,00,00,00,00,
6560976,00000010,false,Rx,9,7,B0,01,10,11,10,0D,00,00,
6565451,000000AA,false,Rx,9,2,AA,04,00,00,00,00,00,00,
6570667,00000040,false,Rx,9,3,B0,01,10,00,00,00,00,00,
6571335,00000010,false,Rx,9,3,B0,0B,00,00,00,00,00,00,
6579567,00000008,false,Rx,9,5,B0,01,10,0C,A0,00,00,00,
6590429,0000029C,false,Rx,9,3,03,00,1A,00,00,00,00,00,
6590448,00000010,false,Rx,9,7,B0,01,10,11,10,0D,00,00,
6590795,000000AA,false,Rx,9,2,AA,04,00,00,00,00,00,00,
6591452,00000040,false,Rx,9,3,B0,01,10,00,00,00,00,00,
6592194,00000010,false,Rx,9,3,B0,0B,00,00,00,00,00,00,
6599440,00000008,false,Rx,9,3,B0,01,10,00,00,00,00,00,
6600639,000002BC,false,Rx,9,3,03,00,0B,00,00,00,00,00,
6601614,00000010,false,Rx,9,7,B0,01,10,11,10,0D,00,00,
6605451,000000AA,false,Rx,9,2,AA,04,00,00,00,00,00,00,
6610618,00000040,false,Rx,9,3,B0,01,10,00,00,00,00,00,
6611259,00000010,false,Rx,9,3,B0,0B,00,00,00,00,00,00,
6615653,00000010,false,Rx,9,3,B0,0E,00,00,00,00,00,00,
6619384,00000008,false,Rx,9,3,B0,01,10,00,00,00,00,00,
6628622,000002B4,false,Rx,9,3,03,00,0A,00,00,00,00,00,
6630601,00000010,false,Rx,9,7,B0,01,10,11,10,0D,00,00,
6630625,000000AA,false,Rx,9,2,AA,04,00,00,00,00,00,00,
6631038,00000040,false,Rx,9,3,B0,01,10,00,00,00,00,00,
6631709,00000010,false,Rx,9,3,B0,0B,00,00,00,00,00,00,
6635924,00000040,false,Rx,9,7,B0,92,FF,FF,93,E5,00,00,
6639394,00000008,false,Rx,9,3,B0,01,10,00,00,00,00,00,
6652108,000003AC,false,Rx,9,3,03,00,1D,00,00,00,00,00,
6653112,00000010,false,Rx,9,7,B0,01,10,11,10,0D,00,00,
6653771,000000AA,false,Rx,9,2,AA,04,00,00,00,00,00,00,
6654476,00000040,false,Rx,9,3,B0,01,10,00,00,00,00,00,
6655246,00000010,false,Rx,9,3,B0,0B,00,00,00,00,00,00,
6659424,00000008,false,Rx,9,3,B0,01,10,00,00,00,00,00,
6670842,000003A4,false,Rx,9,3,03,00,2C,00,00,00,00,00,
6670862,00000010,false,Rx,9,7,B0,01,10,11,10,0D,00,00,
6671449,000000AA,false,Rx,9,2,AA,04,00,00,00,00,00,00,
6672220,00000040,false,Rx,9,3,B0,01,10,00,00,00,00,00,
6672875,00000010,false,Rx,9,3,B0,0B,00,00,00,00,00,00,
6679444,00000008,false,Rx,9,3,B0,01,10,00,00,00,00,00,
6684247,00000040,false,Rx,9,3,B0,14,00,00,00,00,00,00,
6685223,00000010,false,Rx,9,7,B0,01,10,11,10,0D,00,00,
6685879,000000AA,false,Rx,9,2,AA,04,00,00,00,00,00,00,
6690846,00000040,false,Rx,9,3,B0,01,10,00,00,00,00,00,
6691331,00000010,false,Rx,9,3,B0,0B,00,00,00,00,00,00,
6695599,00000010,false,Rx,9,3,B0,0E,00,00,00,00,00,00,
6699435,00000008,false,Rx,9,3,B0,01,10,00,00,00,00,00,
6700705,00000040,false,Rx,9,3,B0,14,00,00,00,00,00,00,
6701346,0000029C,false,Rx,9,3,03,00,1A,00,00,00,00,00,
6702370,00000010,false,Rx,9,7,B0,01,10,11,10,0D,00,00,
6705463,000000AA,false,Rx,9,2,AA,04,00,00,00,00,00,00,
6710851,00000040,false,Rx,9,3,B0,01,10,00,00,00,00,00,
6711356,00000010,false,Rx,9,3,B0,0B,00,00,00,00,00,00,
6719431,00000008,false,Rx,9,3,B0,01,10,00,00,00,00,00,
6720617,00000040,false,Rx,9,3,B0,14,00,00,00,00,00,00,
6721278,000002BC,false,Rx,9,3,03,00,0B,00,00,00,00,00,
6722359,00000010,false,Rx,9,7,B0,01,10,11,10,0D,00,00,
6725451,000000AA,false,Rx,9,2,AA,04,00,00,00,00,00,00,
6736177,00000040,false,Rx,9,3,B0,01,10,00,00,00,00,00,
6736210,00000010,false,Rx,9,3,B0,0B,00,00,00,00,00,00,
6739607,00000008,false,Rx,9,3,B0,01,10,00,00,00,00,00,
6749102,00000040,false,Rx,9,3,B0,14,00,00,00,00,00,00,
6751008,000002B4,false,Rx,9,3,03,00,0A,00,00,00,00,00,
6751028,00000010,false,Rx,9,7,B0,01,10,11,10,0D,00,00,
6751513,000000AA,false,Rx,9,2,AA,04,00,00,00,00,00,00,
6752176,00000040,false,Rx,9,3,B0,01,10,00,00,00,00,00,
6752941,00000010,false,Rx,9,3,B0,0B,00,00,00,00,00,00,
6759407,00000008,false,Rx,9,3,B0,01,10,00,00,00,00,00,
6760689,00000040,false,Rx,9,3,B0,14,00,00,00,00,00,00,
6761330,000003AC,false,Rx,9,3,03,00,1D,00,00,00,00,00,
6762343,00000010,false,Rx,9,7,B0,01,10,11,10,0D,00,00,
6765435,000000AA,false,Rx,9,2,AA,04,00,00,00,00,00,00,
6770993,00000040,false,Rx,9,3,B0,01,10,00,00,00,00,00,
6771364,00000010,false,Rx,9,3,B0,0B,00,00,00,00,00,00,
6775611,00000010,false,Rx,9,3,B0,0E,00,00,00,00,00,00,
6779560,00000008,false,Rx,9,5,B0,01,10,0C,A0,00,00,00,
6788587,00000040,false,Rx,9,3,B0,14,00,00,00,00,00,00,
6789351,000003A4,false,Rx,9,3,03,00,2C,00,00,00,00,00,
6791083,00000010,false,Rx,9,7,B0,01,10,11,10,0D,00,00,
6791103,000000AA,false,Rx,9,2,AA,04,00,00,00,00,00,00,
6791717,00000040,false,Rx,9,3,B0,01,10,00,00,00,00,00,
6792527,00000010,false,Rx,9,3,B0,0B,00,00,00,00,00,00,
6799454,00000008,false,Rx,9,3,B0,01,10,00,00,00,00,00,
6812085,00000040,false,Rx,9,3,B0,14,00,00,00,00,00,00,
6813093,00000010,false,Rx,9,7,B0,01,10,11,10,0D,00,00,
6813754,000000AA,false,Rx,9,2,AA,04,00,00,00,00,00,00,
6814516,00000040,false,Rx,9,3,B0,01,10,00,00,00,00,00,
6815169,00000010,false,Rx,9,3,B0,0B,00,00,00,00,00,00,
6819432,00000008,false,Rx,9,3,B0,01,10,00,00,00,00,00,
6831306,00000040,false,Rx,9,3,B0,14,00,00,00,00,00,00,
6831325,0000029C,false,Rx,9,3,03,00,1A,00,00,00,00,00,
6831597,00000010,false,Rx,9,7,B0,01,10,11,10,0D,00,00,
6832155,000000AA,false,Rx,9,2,AA,04,00,00,00,00,00,00,
6832872,00000040,false,Rx,9,3,B0,01,10,00,00,00,00,00,
6833662,00000010,false,Rx,9,3,B0,0B,00,00,00,00,00,00,
6835927,00000040,false,Rx,9,7,B0,92,FF,FF,93,E5,00,00,
6839343,00000008,false,Rx,9,3,B0,01,10,00,00,00,00,00,
6844241,00000040,false,Rx,9,3,B0,14,00,00,00,00,00,00,
6844895,000002BC,false,Rx,9,3,03,00,0B,00,00,00,00,00,
6845976,00000010,false,Rx,9,7,B0,01,10,11,10,0D,00,00,
6846638,000000AA,false,Rx,9,2,AA,04,00,00,00,00,00,00,
6851349,00000040,false,Rx,9,3,B0,01,10,00,00,00,00,00,
6851368,00000010,false,Rx,9,3,B0,0B,00,00,00,00,00,00,
6855628,00000010,false,Rx,9,3,B0,0E,00,00,00,00,00,00,
6859401,00000008,false,Rx,9,3,B0,01,10,00,00,00,00,00,
6860598,00000040,false,Rx,9,3,B0,14,00,00,00,00,00,00,
6861258,000002B4,false,Rx,9,3,03,00,02,00,00,00,00,00,
6862338,00000010,false,Rx,9,7,B0,01,10,11,10,0D,00,00,
6865457,000000AA,false,Rx,9,2,AA,04,00,00,00,00,00,00,
6871520,00000040,false,Rx,9,3,B0,01,10,00,00,00,00,00,
6871540,00000010,false,Rx,9,3,B0,0B,00,00,00,00,00,00,
6879460,00000008,false,Rx,9,3,B0,01,10,00,00,00,00,00,
6880555,00000040,false,Rx,9,3,B0,14,00,00,00,00,00,00,
6881321,000003AC,false,Rx,9,3,03,00,1D,00,00,00,00,00,
6882402,00000010,false,Rx,9,7,B0,01,10,11,10,0D,00,00,
6885496,000000AA,false,Rx,9,2,AA,04,00,00,00,00,00,00,
6891550,00000040,false,Rx,9,3,B0,01,10,00,00,00,00,00,
6891570,00000010,false,Rx,9,3,B0,0B,00,00,00,00,00,00,
6899369,00000008,false,Rx,9,3,B0,01,10,00,00,00,00,00,
6909031,00000040,false,Rx,9,3,B0,14,00,00,00,00,00,00,
6909795,000003A4,false,Rx,9,3,03,00,2C,00,00,00,00,00,
6911605,00000010,false,Rx,9,7,B0,01,10,11,10,0D,00,00,
6911624,000000AA,false,Rx,9,2,AA,04,00,00,00,00,00,00,
6912235,00000040,false,Rx,9,3,B0,01,10,00,00,00,00,00,
6912890,00000010,false,Rx,9,3,B0,0B,00,00,00,00,00,00,
6919482,00000008,false,Rx,9,3,B0,01,10,00,00,00,00,00,
6920573,00000040,false,Rx,9,3,B0,14,00,00,00,00,00,00,
6921654,00000010,false,Rx,9,7,B0,01,10,11,10,0D,00,00,
6925490,000000AA,false,Rx,9,2,AA,04,00,00,00,00,00,00,
6931635,00000040,false,Rx,9,3,B0,01,10,00,00,00,00,00,
6931655,00000010,false,Rx,9,3,B0,0B,00,00,00,00,00,00,
6935646,00000010,false,Rx,9,3,B0,0E,00,00,00,00,00,00,
6939379,00000008,false,Rx,9,3,B0,01,10,00,00,00,00,00,
6948617,00000040,false,Rx,9,3,B0,14,00,00,00,00,00,00,
6949278,0000029C,false,Rx,9,3,03,00,1A,00,00,00,00,00,
6952130,00000010,false,Rx,9,7,B0,01,10,11,10,0D,00,00,
6952152,000000AA,false,Rx,9,2,AA,04,00,00,00,00,00,00,
6952169,00000040,false,Rx,9,3,B0,01,10,00,00,00,00,00,
6952742,00000010,false,Rx,9,3,B0,0B,00,00,00,00,00,00,
6959389,00000008,false,Rx,9,3,B0,01,10,00,00,00,00,00,
6972168,00000040,false,Rx,9,3,B0,14,00,00,00,00,00,00,
6972749,000002BC,false,Rx,9,3,03,00,0B,00,00,00,00,00,
6973832,00000010,false,Rx,9,7,B0,01,10,11,10,0D,00,00,
6974490,000000AA,false,Rx,9,2,AA,04,00,00,00,00,00,00,
6975257,00000040,false,Rx,9,3,B0,01,10,00,00,00,00,00,
6975963,00000010,false,Rx,9,3,B0,0B,00,00,00,00,00,00,
6979611,00000008,false,Rx,9,5,B0,01,10,0C,A1,00,00,00,
6989809,00000040,false,Rx,9,3,B0,14,00,00,00,00,00,00,
6991811,000002B4,false,Rx,9,3,03,00,02,00,00,00,00,00,
6991830,00000010,false,Rx,9,7,B0,01,10,11,10,0D,00,00,
6992205,000000AA,false,Rx,9,2,AA,04,00,00,00,00,00,00,
6992869,00000040,false,Rx,9,3,B0,01,10,00,00,00,00,00,
6993632,00000010,false,Rx,9,3,B0,0B,00,00,00,00,00,00,
6999377,00000008,false,Rx,9,3,B0,01,10,00,00,00,00,00,
7004162,00000040,false,Rx,9,3,B0,14,00,00,00,00,00,00,
7004926,000003AC,false,Rx,9,3,03,00,1D,00,00,00,00,00,
7006006,00000010,false,Rx,9,7,B0,01,10,11,10,0D,00,00,
7006558,000000AA,false,Rx,9,2,AA,04,00,00,00,00,00,00,
7011850,00000040,false,Rx,9,3,B0,01,10,00,00,00,00,00,
7011869,00000010,false,Rx,9,3,B0,0B,00,00,00,00,00,00,
7015649,00000010,false,Rx,9,3,B0,0E,00,00,00,00,00,00,
7019417,00000008,false,Rx,9,3,B0,01,10,00,00,00,00,00,
7020622,00000040,false,Rx,9,3,B0,14,00,00,00,00,00,00,
7021282,000003A4,false,Rx,9,3,03,00,2C,00,00,00,00,00,
7022363,00000010,false,Rx,9,7,B0,01,10,11,10,0D,00,00,
7025457,000000AA,false,Rx,9,2,AA,04,00,00,00,00,00,00,
7031876,00000040,false,Rx,9,3,B0,01,10,00,00,00,00,00,
7031899,00000010,false,Rx,9,3,B0,0B,00,00,00,00,00,00,
7035926,00000040,false,Rx,9,7,B0,92,FF,FF,93,E5,00,00,
7039460,00000008,false,Rx,9,3,B0,01,10,00,00,00,00,00,
7040541,00000040,false,Rx,9,3,B0,14,00,00,00,00,00,00,
7041622,00000010,false,Rx,9,7,B0,01,10,11,10,0D,00,00,
7045462,000000AA,false,Rx,9,2,AA,04,00,00,00,00,00,00,
7051925,00000040,false,Rx,9,3,B0,01,10,00,00,00,00,00,
7051945,00000010,false,Rx,9,3,B0,0B,00,00,00,00,00,00,
7059491,00000008,false,Rx,9,3,B0,01,10,00,00,00,00,00,
7069060,00000040,false,Rx,9,3,B0,14,00,00,00,00,00,00,
7069725,0000029C,false,Rx,9,3,03,00,1A,00,00,00,00,00,
7071930,00000010,false,Rx,9,7,B0,01,10,11,10,0D,00,00,
7071954,000000AA,false,Rx,9,2,AA,04,00,00,00,00,00,00,
7072136,00000040,false,Rx,9,3,B0,01,10,00,00,00,00,00,
7072915,00000010,false,Rx,9,3,B0,0B,00,00,00,00,00,00,
7079402,00000008,false,Rx,9,3,B0,01,10,00,00,00,00,00,
7080587,00000040,false,Rx,9,3,B0,14,00,00,00,00,00,00,
7081352,000002BC,false,Rx,9,3,03,00,0B,00,00,00,00,00,
7082326,00000010,false,Rx,9,7,B0,01,10,11,10,0D,00,00,
7085421,000000AA,false,Rx,9,2,AA,04,00,00,00,00,00,00,
7091998,00000040,false,Rx,9,3,B0,01,10,00,00,00,00,00,
7092018,00000010,false,Rx,9,3,B0,0B,00,00,00,00,00,00,
7095596,00000010,false,Rx,9,3,B0,0E,00,00,00,00,00,00,
