Time Stamp,ID,Extended,Dir,Bus,LEN,D1,D2,D3,D4,D5,D6,D7,D8
5652471,00000040,false,Rx,9,8,20,00,00,08,00,80,00,00,
5657488,00000040,false,Rx,9,8,20,00,00,08,00,80,00,00,
5714833,000000AA,false,Rx,9,2,AA,04,00,00,00,00,00,00,
5717099,000000AA,false,Rx,9,2,AA,04,00,00,00,00,00,00,
5719346,000000AA,false,Rx,9,2,AA,04,00,00,00,00,00,00,
5721593,000000AA,false,Rx,9,2,AA,04,00,00,00,00,00,00,
5723843,000000AA,false,Rx,9,2,AA,04,00,00,00,00,00,00,
5726087,000000AA,false,Rx,9,2,AA,04,00,00,00,00,00,00,
5728336,000000AA,false,Rx,9,2,AA,04,00,00,00,00,00,00,
5730455,000000AA,false,Rx,9,2,AA,04,00,00,00,00,00,00,
5732032,00000040,false,Rx,9,8,23,00,00,08,FC,80,00,00,
5732797,00000010,false,Rx,9,1,A3,00,00,00,00,00,00,00,
5733241,00000008,false,Rx,9,1,E3,00,00,00,00,00,00,00,
5737186,00000040,false,Rx,9,8,23,00,00,08,FC,80,00,00,
5737844,00000010,false,Rx,9,1,A3,00,00,00,00,00,00,00,
5738391,00000008,false,Rx,9,1,E3,00,00,00,00,00,00,00,
5743712,000000AA,false,Rx,9,2,AA,04,00,00,00,00,00,00,
5745319,00000040,false,Rx,9,8,21,00,00,08,FC,80,00,00,
5745976,00000010,false,Rx,9,1,A1,00,00,00,00,00,00,00,
5746525,00000008,false,Rx,9,1,E1,00,00,00,00,00,00,00,
5750534,00000040,false,Rx,9,8,21,00,00,08,FC,80,00,00,
5751155,00000010,false,Rx,9,1,A1,00,00,00,00,00,00,00,
5751761,00000008,false,Rx,9,1,E1,00,00,00,00,00,00,00,
5756109,000000AA,false,Rx,9,2,AA,04,00,00,00,00,00,00,
5757630,00000040,false,Rx,9,8,24,00,00,08,FC,40,00,00,
5758393,00000010,false,Rx,9,1,A4,00,00,00,00,00,00,00,
5758840,00000008,false,Rx,9,1,E4,00,00,00,00,00,00,00,
5762681,00000040,false,Rx,9,8,24,00,00,08,FC,40,00,00,
5763441,00000010,false,Rx,9,1,A4,00,00,00,00,00,00,00,
5763993,00000008,false,Rx,9,1,E4,00,00,00,00,00,00,00,
5770997,000000AA,false,Rx,9,2,AA,04,00,00,00,00,00,00,
5778527,000000AA,false,Rx,9,2,AA,04,00,00,00,00,00,00,
5778547,000000AA,false,Rx,9,2,AA,04,00,00,00,00,00,00,
5782498,000000AA,false,Rx,9,2,AA,04,00,00,00,00,00,00,
5786117,000000AA,false,Rx,9,2,AA,04,00,00,00,00,00,00,
5790567,000000AA,false,Rx,9,2,AA,04,00,00,00,00,00,00,
5793733,000000AA,false,Rx,9,2,AA,04,00,00,00,00,00,00,
5797582,000000AA,false,Rx,9,2,AA,04,00,00,00,00,00,00,
5801315,000000AA,false,Rx,9,2,AA,04,00,00,00,00,00,00,
5805147,000000AA,false,Rx,9,2,AA,04,00,00,00,00,00,00,
5808883,000000AA,false,Rx,9,2,AA,04,00,00,00,00,00,00,
5812909,000000AA,false,Rx,9,2,AA,04,00,00,00,00,00,00,
5816606,000000AA,false,Rx,9,2,AA,04,00,00,00,00,00,00,
5820346,000000AA,false,Rx,9,2,AA,04,00,00,00,00,00,00,
5824184,000000AA,false,Rx,9,2,AA,04,00,00,00,00,00,00,
5828019,000000AA,false,Rx,9,2,AA,04,00,00,00,00,00,00,
5831847,000000AA,false,Rx,9,2,AA,04,00,00,00,00,00,00,
5835604,000000AA,false,Rx,9,2,AA,04,00,00,00,00,00,00,
5839441,000000AA,false,Rx,9,2,AA,04,00,00,00,00,00,00,
5843277,000000AA,false,Rx,9,2,AA,04,00,00,00,00,00,00,
5847113,000000AA,false,Rx,9,2,AA,04,00,00,00,00,00,00,
5851006,000000AA,false,Rx,9,2,AA,04,00,00,00,00,00,00,
5854783,000000AA,false,Rx,9,2,AA,04,00,00,00,00,00,00,
5858674,000000AA,false,Rx,9,2,AA,04,00,00,00,00,00,00,
5862408,000000AA,false,Rx,9,2,AA,04,00,00,00,00,00,00,
5866241,000000AA,false,Rx,9,2,AA,04,00,00,00,00,00,00,
5870778,000000AA,false,Rx,9,2,AA,04,00,00,00,00,00,00,
5873834,000000AA,false,Rx,9,2,AA,04,00,00,00,00,00,00,
5877602,000000AA,false,Rx,9,2,AA,04,00,00,00,00,00,00,
5881379,000000AA,false,Rx,9,2,AA,04,00,00,00,00,00,00,
5885430,000000AA,false,Rx,9,2,AA,04,00,00,00,00,00,00,
5890873,000000AA,false,Rx,9,2,AA,04,00,00,00,00,00,00,
5890893,00000008,false,Rx,9,5,B0,01,02,0C,00,00,00,00,
5892210,000000AA,false,Rx,9,2,AA,04,00,00,00,00,00,00,
5895943,00000040,false,Rx,9,8,27,00,00,FD,00,80,00,00,
5900883,00000040,false,Rx,9,8,13,01,00,00,00,FF,00,00,
5910809,00000008,false,Rx,9,3,B0,01,02,00,00,00,00,00,
5911904,00000008,false,Rx,9,8,10,00,00,00,00,FF,00,00,
5916160,000000AA,false,Rx,9,2,AA,04,00,00,00,00,00,00,
5920593,0000029C,false,Rx,9,3,03,00,1A,00,00,00,00,00,
5923717,00000040,false,Rx,9,8,90,01,00,00,06,29,00,00,
5926919,00000010,false,Rx,9,4,30,08,00,01,00,00,00,00,
5927999,00000040,false,Rx,9,3,B0,01,10,00,00,00,00,00,
5930960,00000008,false,Rx,9,3,B0,01,02,00,00,00,00,00,
5932003,00000008,false,Rx,9,8,10,00,00,01,06,29,00,00,
5932865,00000008,false,Rx,9,4,30,02,00,11,00,00,00,00,
5934082,00000040,false,Rx,9,8,90,01,00,01,47,22,00,00,
5934765,00000010,false,Rx,9,3,B0,11,00,00,00,00,00,00,
5936905,000000AA,false,Rx,9,2,AA,04,00,00,00,00,00,00,
5939044,00000040,false,Rx,9,3,B0,01,10,00,00,00,00,00,
5943088,000002BC,false,Rx,9,3,03,00,0B,00,00,00,00,00,
5943748,00000010,false,Rx,9,3,B0,11,10,00,00,00,00,00,
5951027,00000008,false,Rx,9,3,B0,01,10,00,00,00,00,00,
5951965,00000008,false,Rx,9,8,12,00,00,00,80,29,00,00,
5956124,000000AA,false,Rx,9,2,AA,04,00,00,00,00,00,00,
5959007,00000040,false,Rx,9,3,B0,01,10,00,00,00,00,00,
5961786,000002B4,false,Rx,9,3,03,00,0A,00,00,00,00,00,
5963186,00000010,false,Rx,9,3,B0,11,10,00,00,00,00,00,
5964371,00000040,false,Rx,9,8,13,02,00,00,00,FF,00,00,
5965240,00000040,false,Rx,9,5,30,02,00,01,08,00,00,00,
5966533,00000010,false,Rx,9,3,B0,01,10,00,00,00,00,00,
5971077,00000008,false,Rx,9,3,B0,01,10,00,00,00,00,00,
5976186,000000AA,false,Rx,9,2,AA,04,00,00,00,00,00,00,
5978845,00000040,false,Rx,9,3,B0,01,10,00,00,00,00,00,
5980562,000003AC,false,Rx,9,3,03,00,1D,00,00,00,00,00,
5983378,00000010,false,Rx,9,5,B0,11,10,01,10,00,00,00,
5984568,00000010,false,Rx,9,8,10,00,00,00,00,FF,00,00,
5991135,00000008,false,Rx,9,3,B0,01,10,00,00,00,00,00,
5992381,00000040,false,Rx,9,8,90,02,00,00,02,7C,00,00,
5996115,000000AA,false,Rx,9,2,AA,04,00,00,00,00,00,00,
5998894,00000040,false,Rx,9,3,B0,01,10,00,00,00,00,00,
6000609,000003A4,false,Rx,9,3,03,00,2C,00,00,00,00,00,
6003387,00000010,false,Rx,9,5,B0,11,10,01,10,00,00,00,
6004573,00000010,false,Rx,9,8,10,00,00,01,02,7C,00,00,
6006081,00000040,false,Rx,9,8,90,02,00,01,47,22,00,00,
6011090,00000008,false,Rx,9,3,B0,01,10,00,00,00,00,00,
6016159,000000AA,false,Rx,9,2,AA,04,00,00,00,00,00,00,
6018950,00000040,false,Rx,9,3,B0,01,10,00,00,00,00,00,
6023315,00000010,false,Rx,9,5,B0,11,10,01,10,00,00,00,
6024498,00000010,false,Rx,9,8,12,00,00,00,00,7C,00,00,
6031164,00000008,false,Rx,9,3,B0,01,10,00,00,00,00,00,
6036221,000000AA,false,Rx,9,2,AA,04,00,00,00,00,00,00,
6038258,00000040,false,Rx,9,3,B0,01,10,00,00,00,00,00,
6041207,0000029C,false,Rx,9,3,03,00,1A,00,00,00,00,00,
6043899,00000010,false,Rx,9,5,B0,11,10,01,10,00,00,00,
6051183,00000008,false,Rx,9,3,B0,01,10,00,00,00,00,00,
6056252,000000AA,false,Rx,9,2,AA,04,00,00,00,00,00,00,
6058306,00000040,false,Rx,9,3,B0,01,10,00,00,00,00,00,
6063735,000002BC,false,Rx,9,3,03,00,0B,00,00,00,00,00,
6064600,00000010,false,Rx,9,5,B0,11,10,01,10,00,00,00,
6071255,00000008,false,Rx,9,3,B0,01,10,00,00,00,00,00,
6076218,000000AA,false,Rx,9,2,AA,04,00,00,00,00,00,00,
6078361,00000040,false,Rx,9,3,B0,01,10,00,00,00,00,00,
6080109,000002B4,false,Rx,9,3,03,00,0A,00,00,00,00,00,
6083217,00000010,false,Rx,9,5,B0,11,10,01,10,00,00,00,
6085710,00000040,false,Rx,9,5,30,02,00,0E,03,00,00,00,
6086801,00000010,false,Rx,9,3,B0,0E,00,00,00,00,00,00,
6087775,00000010,false,Rx,9,4,30,01,00,0F,00,00,00,00,
6091381,00000040,false,Rx,9,5,30,02,00,0D,03,00,00,00,
6091407,00000008,false,Rx,9,7,B0,01,10,0C,B6,0F,FF,00,
6091896,00000010,false,Rx,9,4,30,01,00,0E,00,00,00,00,
6092889,00000010,false,Rx,9,4,30,01,00,07,00,00,00,00,
6094202,00000040,false,Rx,9,5,30,01,00,0D,03,00,00,00,
6094745,00000010,false,Rx,9,3,B0,0D,00,00,00,00,00,00,
6095724,00000010,false,Rx,9,4,30,08,00,14,00,00,00,00,
6097755,000000AA,false,Rx,9,2,AA,04,00,00,00,00,00,00,
6098618,00000010,false,Rx,9,4,30,08,00,13,00,00,00,00,
6099703,00000010,false,Rx,9,4,30,08,00,12,00,00,00,00,
6101099,00000040,false,Rx,9,6,B0,01,10,92,FF,FF,00,00,
6104193,00000040,false,Rx,9,6,B0,93,E5,00,14,00,00,00,
6105272,00000010,false,Rx,9,7,B0,11,10,01,10,0D,00,00,
6111429,00000008,false,Rx,9,7,B0,01,10,0F,FF,0E,00,00,
6111806,00000008,false,Rx,9,5,B0,07,00,0D,89,00,00,00,
6115651,000003AC,false,Rx,9,3,03,00,1D,00,00,00,00,00,
6118429,000000AA,false,Rx,9,2,AA,04,00,00,00,00,00,00,
6120888,00000040,false,Rx,9,3,B0,01,10,00,00,00,00,00,
6124406,00000010,false,Rx,9,7,B0,11,10,01,10,0E,00,00,
6125593,00000010,false,Rx,9,3,B0,0D,00,00,00,00,00,00,
6131516,00000008,false,Rx,9,7,B0,01,10,0F,FF,07,00,00,
6136685,000000AA,false,Rx,9,2,AA,04,00,00,00,00,00,00,
6140744,00000040,false,Rx,9,3,B0,01,10,00,00,00,00,00,
6144260,00000010,false,Rx,9,7,B0,11,10,01,10,0D,00,00,
6146190,000003A4,false,Rx,9,3,03,00,2C,00,00,00,00,00,
6151611,00000008,false,Rx,9,7,B0,01,10,0F,FF,07,00,00,
6156546,000000AA,false,Rx,9,2,AA,04,00,00,00,00,00,00,
6159117,00000040,false,Rx,9,3,B0,01,10,00,00,00,00,00,
6164011,00000010,false,Rx,9,7,B0,11,10,01,10,0D,00,00,
6171636,00000008,false,Rx,9,7,B0,01,10,0F,FF,07,00,00,
6177485,000000AA,false,Rx,9,2,AA,04,00,00,00,00,00,00,
6179752,00000040,false,Rx,9,3,B0,01,10,00,00,00,00,00,
6182844,0000029C,false,Rx,9,3,03,00,1A,00,00,00,00,00,
6184376,00000010,false,Rx,9,7,B0,11,10,01,10,0D,00,00,
6191700,00000008,false,Rx,9,7,B0,01,10,0F,FF,07,00,00,
6196341,000000AA,false,Rx,9,2,AA,04,00,00,00,00,00,00,
6198912,00000040,false,Rx,9,3,B0,01,10,00,00,00,00,00,
6204019,00000010,false,Rx,9,7,B0,11,10,01,10,0D,00,00,
6211761,00000008,false,Rx,9,7,B0,01,10,0F,FF,07,00,00,
6212980,000002BC,false,Rx,9,3,03,00,0B,00,00,00,00,00,
6216442,000000AA,false,Rx,9,2,AA,04,00,00,00,00,00,00,
6218602,00000040,false,Rx,9,3,B0,01,10,00,00,00,00,00,
6224029,00000010,false,Rx,9,7,B0,11,10,01,10,0D,00,00,
6231726,00000008,false,Rx,9,7,B0,01,10,0F,FF,07,00,00,
6232670,000002B4,false,Rx,9,3,03,00,0A,00,00,00,00,00,
6236298,000000AA,false,Rx,9,2,AA,04,00,00,00,00,00,00,
6238435,00000040,false,Rx,9,3,B0,01,10,00,00,00,00,00,
6243966,00000010,false,Rx,9,7,B0,11,10,01,10,0D,00,00,
6251793,00000008,false,Rx,9,7,B0,01,10,0F,FF,07,00,00,
6253136,000003AC,false,Rx,9,3,03,00,1D,00,00,00,00,00,
6256242,000000AA,false,Rx,9,2,AA,04,00,00,00,00,00,00,
6259140,00000040,false,Rx,9,3,B0,01,10,00,00,00,00,00,
6264037,00000010,false,Rx,9,7,B0,11,10,01,10,0D,00,00,
6265966,000003A4,false,Rx,9,3,03,00,2C,00,00,00,00,00,
6271897,00000008,false,Rx,9,7,B0,01,10,0F,FF,07,00,00,
6276318,000000AA,false,Rx,9,2,AA,04,00,00,00,00,00,00,
6279096,00000040,false,Rx,9,3,B0,01,10,00,00,00,00,00,
6283993,00000010,false,Rx,9,7,B0,11,10,01,10,0D,00,00,
6292025,00000008,false,Rx,9,7,B0,01,10,0C,B6,0F,FF,00,
6292045,00000008,false,Rx,9,7,B0,0E,00,07,00,0D,89,00,
6296342,000000AA,false,Rx,9,2,AA,04,00,00,00,00,00,00,
6299556,00000040,false,Rx,9,6,B0,01,10,92,FF,FF,00,00,
6300854,00000040,false,Rx,9,6,B0,93,E5,00,14,00,00,00,
6303586,0000029C,false,Rx,9,3,03,00,1A,00,00,00,00,00,
6305113,00000010,false,Rx,9,7,B0,11,10,01,10,0D,00,00,
6312009,00000008,false,Rx,9,7,B0,01,10,0F,FF,07,00,00,
6316314,000000AA,false,Rx,9,2,AA,04,00,00,00,00,00,00,
6319201,00000040,false,Rx,9,3,B0,01,10,00,00,00,00,00,
6320918,000002BC,false,Rx,9,3,03,00,0B,00,00,00,00,00,
6324012,00000010,false,Rx,9,7,B0,11,10,01,10,0E,00,00,
6324882,00000010,false,Rx,9,3,B0,0D,00,00,00,00,00,00,
6332074,00000008,false,Rx,9,7,B0,01,10,0F,FF,07,00,00,
6336353,000000AA,false,Rx,9,2,AA,04,00,00,00,00,00,00,
6339247,00000040,false,Rx,9,3,B0,01,10,00,00,00,00,00,
6340965,000002B4,false,Rx,9,3,03,00,0A,00,00,00,00,00,
6344058,00000010,false,Rx,9,7,B0,11,10,01,10,0D,00,00,
6352110,00000008,false,Rx,9,7,B0,01,10,0F,FF,07,00,00,
6356324,000000AA,false,Rx,9,2,AA,04,00,00,00,00,00,00,
6359253,00000040,false,Rx,9,3,B0,01,10,00,00,00,00,00,
6360887,000003AC,false,Rx,9,3,03,00,1D,00,00,00,00,00,
6364088,00000010,false,Rx,9,7,B0,11,10,01,10,0D,00,00,
6372128,00000008,false,Rx,9,7,B0,01,10,0F,FF,07,00,00,
6376985,000000AA,false,Rx,9,2,AA,04,00,00,00,00,00,00,
6379024,00000040,false,Rx,9,3,B0,01,10,00,00,00,00,00,
6380847,000003A4,false,Rx,9,3,03,00,2C,00,00,00,00,00,
6384045,00000010,false,Rx,9,7,B0,11,10,01,10,0D,00,00,
6392265,00000008,false,Rx,9,7,B0,01,10,0F,FF,07,00,00,
6397194,000000AA,false,Rx,9,2,AA,04,00,00,00,00,00,00,
6399178,00000040,false,Rx,9,3,B0,01,10,00,00,00,00,00,
6403972,00000010,false,Rx,9,7,B0,11,10,01,10,0D,00,00,
6412153,00000008,false,Rx,9,7,B0,01,10,0F,FF,07,00,00,
6416308,000000AA,false,Rx,9,2,AA,04,00,00,00,00,00,00,
6419306,00000040,false,Rx,9,3,B0,01,10,00,00,00,00,00,
6422251,0000029C,false,Rx,9,3,03,00,1A,00,00,00,00,00,
6424304,00000010,false,Rx,9,7,B0,11,10,01,10,0D,00,00,
6432238,00000008,false,Rx,9,7,B0,01,10,0F,FF,07,00,00,
6437027,000000AA,false,Rx,9,2,AA,04,00,00,00,00,00,00,
6439077,00000040,false,Rx,9,3,B0,01,10,00,00,00,00,00,
6440902,000002BC,false,Rx,9,3,03,00,0B,00,00,00,00,00,
6444102,00000010,false,Rx,9,7,B0,11,10,01,10,0D,00,00,
6452252,00000008,false,Rx,9,7,B0,01,10,0F,FF,07,00,00,
6456348,000000AA,false,Rx,9,2,AA,04,00,00,00,00,00,00,
6459447,00000040,false,Rx,9,3,B0,01,10,00,00,00,00,00,
6461165,000002B4,false,Rx,9,3,03,00,0A,00,00,00,00,00,
6464048,00000010,false,Rx,9,7,B0,11,10,01,10,0D,00,00,
6472304,00000008,false,Rx,9,7,B0,01,10,0F,FF,07,00,00,
6476340,000000AA,false,Rx,9,2,AA,04,00,00,00,00,00,00,
6479240,00000040,false,Rx,9,3,B0,01,10,00,00,00,00,00,
6480955,000003AC,false,Rx,9,3,03,00,1D,00,00,00,00,00,
6484153,00000010,false,Rx,9,7,B0,11,10,01,10,0D,00,00,
6488841,00000010,false,Rx,9,4,30,08,00,2C,00,00,00,00,
6489878,00000040,false,Rx,9,3,B0,2C,B3,00,00,00,00,00,
6492328,00000008,false,Rx,9,7,B0,01,10,0C,B6,0F,FF,00,
6492348,00000008,false,Rx,9,7,B0,0E,00,07,00,0D,89,00,
6496374,000000AA,false,Rx,9,2,AA,04,00,00,00,00,00,00,
6499712,00000040,false,Rx,9,6,B0,01,10,92,FF,FF,00,00,
6501217,00000040,false,Rx,9,8,B0,93,E5,00,14,00,2C,B3,
6502724,000003A4,false,Rx,9,3,03,00,2C,00,00,00,00,00,
6505071,00000010,false,Rx,9,7,B0,11,10,01,10,0D,00,00,
6512385,00000008,false,Rx,9,7,B0,01,10,0F,FF,07,00,00,
6516444,000000AA,false,Rx,9,2,AA,04,00,00,00,00,00,00,
6519341,00000040,false,Rx,9,3,B0,01,10,00,00,00,00,00,
6524027,00000010,false,Rx,9,7,B0,11,10,01,10,0E,00,00,
6524897,00000010,false,Rx,9,3,B0,0D,00,00,00,00,00,00,
6530748,00000008,false,Rx,9,7,B0,01,10,0F,FF,07,00,00,
6537108,000000AA,false,Rx,9,2,AA,04,00,00,00,00,00,00,
6539285,00000040,false,Rx,9,3,B0,01,10,00,00,00,00,00,
6542231,0000029C,false,Rx,9,3,03,00,1A,00,00,00,00,00,
6544390,00000010,false,Rx,9,7,B0,11,10,01,10,0D,00,00,
6550772,00000008,false,Rx,9,7,B0,01,10,0F,FF,07,00,00,
6557054,000000AA,false,Rx,9,2,AA,04,00,00,00,00,00,00,
6559249,00000040,false,Rx,9,3,B0,01,10,00,00,00,00,00,
6560966,000002BC,false,Rx,9,3,03,00,0B,00,00,00,00,00,
6564168,00000010,false,Rx,9,7,B0,11,10,01,10,0D,00,00,
6570762,00000008,false,Rx,9,7,B0,01,10,0F,FF,07,00,00,
6576398,000000AA,false,Rx,9,2,AA,04,00,00,00,00,00,00,
6579514,00000040,false,Rx,9,3,B0,01,10,00,00,00,00,00,
6581231,000002B4,false,Rx,9,3,03,00,0A,00,00,00,00,00,
6584113,00000010,false,Rx,9,7,B0,11,10,01,10,0D,00,00,
6590813,00000008,false,Rx,9,7,B0,01,10,0F,FF,07,00,00,
6597205,000000AA,false,Rx,9,2,AA,04,00,00,00,00,00,00,
6599393,00000040,false,Rx,9,3,B0,01,10,00,00,00,00,00,
6601023,000003AC,false,Rx,9,3,03,00,1D,00,00,00,00,00,
6604116,00000010,false,Rx,9,7,B0,11,10,01,10,0D,00,00,
6610842,00000008,false,Rx,9,7,B0,01,10,0F,FF,07,00,00,
6616471,000000AA,false,Rx,9,2,AA,04,00,00,00,00,00,00,
6619282,00000040,false,Rx,9,3,B0,01,10,00,00,00,00,00,
6620999,000003A4,false,Rx,9,3,03,00,2C,00,00,00,00,00,
6624093,00000010,false,Rx,9,7,B0,11,10,01,10,0D,00,00,
6630794,00000008,false,Rx,9,7,B0,01,10,0F,FF,07,00,00,
6637192,000000AA,false,Rx,9,2,AA,04,00,00,00,00,00,00,
6639266,00000040,false,Rx,9,3,B0,01,10,00,00,00,00,00,
6644070,00000010,false,Rx,9,7,B0,11,10,01,10,0D,00,00,
6650843,00000008,false,Rx,9,7,B0,01,10,0F,FF,07,00,00,
6656525,000000AA,false,Rx,9,2,AA,04,00,00,00,00,00,00,
6659430,00000040,false,Rx,9,3,B0,01,10,00,00,00,00,00,
6662480,0000029C,false,Rx,9,3,03,00,1A,00,00,00,00,00,
6664325,00000010,false,Rx,9,7,B0,11,10,01,10,0D,00,00,
6670754,00000008,false,Rx,9,7,B0,01,10,0F,FF,07,00,00,
6676554,000000AA,false,Rx,9,2,AA,04,00,00,00,00,00,00,
6679386,00000040,false,Rx,9,3,B0,01,10,00,00,00,00,00,
6681102,000002BC,false,Rx,9,3,03,00,0B,00,00,00,00,00,
6684133,00000010,false,Rx,9,7,B0,11,10,01,10,0D,00,00,
6690741,00000008,false,Rx,9,7,B0,01,10,0C,B6,0F,FF,00,
6692864,00000008,false,Rx,9,7,B0,0E,00,07,00,0D,89,00,
6696471,000000AA,false,Rx,9,2,AA,04,00,00,00,00,00,00,
6699808,00000040,false,Rx,9,6,B0,01,10,92,FF,FF,00,00,
6701312,00000040,false,Rx,9,8,B0,93,E5,00,14,00,2C,B3,
6702817,000002B4,false,Rx,9,3,03,00,0A,00,00,00,00,00,
6705169,00000010,false,Rx,9,7,B0,11,10,01,10,0D,00,00,
6710809,00000008,false,Rx,9,7,B0,01,10,0F,FF,07,00,00,
6716536,000000AA,false,Rx,9,2,AA,04,00,00,00,00,00,00,
6719514,00000040,false,Rx,9,3,B0,01,10,00,00,00,00,00,
6721144,000003AC,false,Rx,9,3,03,00,1D,00,00,00,00,00,
6724132,00000010,false,Rx,9,7,B0,11,10,01,10,0E,00,00,
6725002,00000010,false,Rx,9,3,B0,0D,00,00,00,00,00,00,
6730748,00000008,false,Rx,9,7,B0,01,10,0F,FF,07,00,00,
6736494,000000AA,false,Rx,9,2,AA,04,00,00,00,00,00,00,
6739406,00000040,false,Rx,9,3,B0,01,10,00,00,00,00,00,
6741122,000003A4,false,Rx,9,3,03,00,2C,00,00,00,00,00,
6744109,00000010,false,Rx,9,7,B0,11,10,01,10,0D,00,00,
6750809,00000008,false,Rx,9,7,B0,01,10,0F,FF,07,00,00,
6756640,000000AA,false,Rx,9,2,AA,04,00,00,00,00,00,00,
6759442,00000040,false,Rx,9,3,B0,01,10,00,00,00,00,00,
6764027,00000010,false,Rx,9,7,B0,11,10,01,10,0D,00,00,
6770832,00000008,false,Rx,9,7,B0,01,10,0F,FF,07,00,00,
6778417,000000AA,false,Rx,9,2,AA,04,00,00,00,00,00,00,
6779483,00000040,false,Rx,9,3,B0,01,10,00,00,00,00,00,
6782528,0000029C,false,Rx,9,3,03,00,1A,00,00,00,00,00,
6784334,00000010,false,Rx,9,7,B0,11,10,01,10,0D,00,00,
6790819,00000008,false,Rx,9,7,B0,01,10,0F,FF,07,00,00,
6797285,000000AA,false,Rx,9,2,AA,04,00,00,00,00,00,00,
6799455,00000040,false,Rx,9,3,B0,01,10,00,00,00,00,00,
6801140,000002BC,false,Rx,9,3,03,00,0B,00,00,00,00,00,
6804237,00000010,false,Rx,9,7,B0,11,10,01,10,0D,00,00,
6810857,00000008,false,Rx,9,7,B0,01,10,0F,FF,07,00,00,
6817304,000000AA,false,Rx,9,2,AA,04,00,00,00,00,00,00,
6819485,00000040,false,Rx,9,3,B0,01,10,00,00,00,00,00,
6821204,000002B4,false,Rx,9,3,03,00,0A,00,00,00,00,00,
6824193,00000010,false,Rx,9,7,B0,11,10,01,10,0D,00,00,
6830786,00000008,false,Rx,9,7,B0,01,10,0F,FF,07,00,00,
6836518,000000AA,false,Rx,9,2,AA,04,00,00,00,00,00,00,
6839430,00000040,false,Rx,9,3,B0,01,10,00,00,00,00,00,
6841253,000003AC,false,Rx,9,3,03,00,1D,00,00,00,00,00,
6844133,00000010,false,Rx,9,7,B0,11,10,01,10,0D,00,00,
6850831,00000008,false,Rx,9,7,B0,01,10,0F,FF,07,00,00,
6856902,000000AA,false,Rx,9,2,AA,04,00,00,00,00,00,00,
6859422,00000040,false,Rx,9,3,B0,01,10,00,00,00,00,00,
6861138,000003A4,false,Rx,9,3,03,00,2C,00,00,00,00,00,
6864124,00000010,false,Rx,9,7,B0,11,10,01,10,0D,00,00,
6870822,00000008,false,Rx,9,7,B0,01,10,0F,FF,07,00,00,
6876523,000000AA,false,Rx,9,2,AA,04,00,00,00,00,00,00,
6879544,00000040,false,Rx,9,3,B0,01,10,00,00,00,00,00,
6884125,00000010,false,Rx,9,7,B0,11,10,01,10,0D,00,00,
6888383,00000010,false,Rx,9,4,30,08,00,2D,00,00,00,00,
6889253,00000010,false,Rx,9,4,31,08,00,2C,00,00,00,00,
6890121,00000040,false,Rx,9,3,B0,2D,A6,00,00,00,00,00,
6891096,00000008,false,Rx,9,7,B0,01,10,0C,B6,0F,FF,00,
6893410,00000008,false,Rx,9,7,B0,0E,00,07,00,0D,89,00,
6896636,000000AA,false,Rx,9,2,AA,04,00,00,00,00,00,00,
6899689,00000040,false,Rx,9,6,B0,01,10,92,FF,FF,00,00,
6901307,00000040,false,Rx,9,8,B0,93,E5,00,14,00,2D,A6,
6904078,0000029C,false,Rx,9,3,03,00,1A,00,00,00,00,00,
6905601,00000010,false,Rx,9,7,B0,11,10,01,10,0D,00,00,
6910819,00000008,false,Rx,9,7,B0,01,10,0F,FF,07,00,00,
6917196,000000AA,false,Rx,9,2,AA,04,00,00,00,00,00,00,
6919465,00000040,false,Rx,9,3,B0,01,10,00,00,00,00,00,
6921186,000002BC,false,Rx,9,3,03,00,0B,00,00,00,00,00,
6924174,00000010,false,Rx,9,7,B0,11,10,01,10,0E,00,00,
6925042,00000010,false,Rx,9,3,B0,0D,00,00,00,00,00,00,
6930786,00000008,false,Rx,9,7,B0,01,10,0F,FF,07,00,00,
6936561,000000AA,false,Rx,9,2,AA,04,00,00,00,00,00,00,
6939794,00000040,false,Rx,9,3,B0,01,10,00,00,00,00,00,
6941403,000002B4,false,Rx,9,3,03,00,0A,00,00,00,00,00,
6944183,00000010,false,Rx,9,7,B0,11,10,01,10,0D,00,00,
6950772,00000008,false,Rx,9,7,B0,01,10,0F,FF,07,00,00,
6956629,000000AA,false,Rx,9,2,AA,04,00,00,00,00,00,00,
6959430,00000040,false,Rx,9,3,B0,01,10,00,00,00,00,00,
6961786,000003AC,false,Rx,9,3,03,00,1D,00,00,00,00,00,
6964138,00000010,false,Rx,9,7,B0,11,10,01,10,0D,00,00,
6970832,00000008,false,Rx,9,7,B0,01,10,0F,FF,07,00,00,
6977277,000000AA,false,Rx,9,2,AA,04,00,00,00,00,00,00,
6979413,00000040,false,Rx,9,3,B0,01,10,00,00,00,00,00,
6982097,000003A4,false,Rx,9,3,03,00,2C,00,00,00,00,00,
6984131,00000010,false,Rx,9,7,B0,11,10,01,10,0D,00,00,
6990832,00000008,false,Rx,9,7,B0,01,10,0F,FF,07,00,00,
6997257,000000AA,false,Rx,9,2,AA,04,00,00,00,00,00,00,
6999424,00000040,false,Rx,9,3,B0,01,10,00,00,00,00,00,
7004155,00000010,false,Rx,9,7,B0,11,10,01,10,0D,00,00,
7010785,00000008,false,Rx,9,7,B0,01,10,0F,FF,07,00,00,
7016624,000000AA,false,Rx,9,2,AA,04,00,00,00,00,00,00,
7019585,00000040,false,Rx,9,3,B0,01,10,00,00,00,00,00,
7022652,0000029C,false,Rx,9,3,03,00,1A,00,00,00,00,00,
7024391,00000010,false,Rx,9,7,B0,11,10,01,10,0D,00,00,
7030772,00000008,false,Rx,9,7,B0,01,10,0F,FF,07,00,00,
7037420,000000AA,false,Rx,9,2,AA,04,00,00,00,00,00,00,
7039593,00000040,false,Rx,9,3,B0,01,10,00,00,00,00,00,
7041312,000002BC,false,Rx,9,3,03,00,0B,00,00,00,00,00,
7044193,00000010,false,Rx,9,7,B0,11,10,01,10,0D,00,00,
7050786,00000008,false,Rx,9,7,B0,01,10,0F,FF,07,00,00,
7057368,000000AA,false,Rx,9,2,AA,04,00,00,00,00,00,00,
7059570,00000040,false,Rx,9,3,B0,01,10,00,00,00,00,00,
7061344,000002B4,false,Rx,9,3,03,00,0A,00,00,00,00,00,
7064226,00000010,false,Rx,9,7,B0,11,10,01,10,0D,00,00,
7070817,00000008,false,Rx,9,7,B0,01,10,0F,FF,07,00,00,
7076721,000000AA,false,Rx,9,2,AA,04,00,00,00,00,00,00,
7079523,00000040,false,Rx,9,3,B0,01,10,00,00,00,00,00,
7081241,000003AC,false,Rx,9,3,03,00,1D,00,00,00,00,00,
7084124,00000010,false,Rx,9,7,B0,11,10,01,10,0D,00,00,
7090712,00000008,false,Rx,9,7,B0,01,10,0C,B6,0F,FF,00,
7092109,00000008,false,Rx,9,7,B0,0E,00,07,00,0D,89,00,
7096724,000000AA,false,Rx,9,2,AA,04,00,00,00,00,00,00,
7099946,00000040,false,Rx,9,6,B0,01,10,92,FF,FF,00,00,
7101554,00000040,false,Rx,9,8,B0,93,E5,00,14,00,2D,A6,
7102954,000003A4,false,Rx,9,3,03,00,2C,00,00,00,00,00,
7105270,00000010,false,Rx,9,7,B0,11,10,01,10,0D,00,00,
7110874,00000008,false,Rx,9,7,B0,01,10,0F,FF,07,00,00,
7117334,000000AA,false,Rx,9,2,AA,04,00,00,00,00,00,00,
7119509,00000040,false,Rx,9,3,B0,01,10,00,00,00,00,00,
7124088,00000010,false,Rx,9,7,B0,11,10,01,10,0E,00,00,
7124959,00000010,false,Rx,9,3,B0,0D,00,00,00,00,00,00,
7130809,00000008,false,Rx,9,7,B0,01,10,0F,FF,07,00,00,
7136688,000000AA,false,Rx,9,2,AA,04,00,00,00,00,00,00,
7139725,00000040,false,Rx,9,3,B0,01,10,00,00,00,00,00,
7142683,0000029C,false,Rx,9,3,03,00,1A,00,00,00,00,00,
7144312,00000010,false,Rx,9,7,B0,11,10,01,10,0D,00,00,
7150838,00000008,false,Rx,9,7,B0,01,10,0F,FF,07,00,00,
7156736,000000AA,false,Rx,9,2,AA,04,00,00,00,00,00,00,
7159538,00000040,false,Rx,9,3,B0,01,10,00,00,00,00,00,
7161258,000002BC,false,Rx,9,3,03,00,0B,00,00,00,00,00,
7164247,00000010,false,Rx,9,7,B0,11,10,01,10,0D,00,00,
7170840,00000008,false,Rx,9,7,B0,01,10,0F,FF,07,00,00,
7176712,000000AA,false,Rx,9,2,AA,04,00,00,00,00,00,00,
7179493,00000040,false,Rx,9,3,B0,01,10,00,00,00,00,00,
7181237,000002B4,false,Rx,9,3,03,00,0A,00,00,00,00,00,
7184235,00000010,false,Rx,9,7,B0,11,10,01,10,0D,00,00,
7190832,00000008,false,Rx,9,7,B0,01,10,0F,FF,07,00,00,
7196730,000000AA,false,Rx,9,2,AA,04,00,00,00,00,00,00,
7199579,00000040,false,Rx,9,3,B0,01,10,00,00,00,00,00,
7201269,000003AC,false,Rx,9,3,03,00,1D,00,00,00,00,00,
7204279,00000010,false,Rx,9,7,B0,11,10,01,10,0D,00,00,
7210857,00000008,false,Rx,9,7,B0,01,10,0F,FF,07,00,00,
7216704,000000AA,false,Rx,9,2,AA,04,00,00,00,00,00,00,
7219636,00000040,false,Rx,9,3,B0,01,10,00,00,00,00,00,
7221262,000003A4,false,Rx,9,3,03,00,2C,00,00,00,00,00,
7224252,00000010,false,Rx,9,7,B0,11,10,01,10,0D,00,00,
7230846,00000008,false,Rx,9,7,B0,01,10,0F,FF,07,00,00,
7237434,000000AA,false,Rx,9,2,AA,04,00,00,00,00,00,00,
7239536,00000040,false,Rx,9,3,B0,01,10,00,00,00,00,00,
7244124,00000010,false,Rx,9,7,B0,11,10,01,10,0D,00,00,
7250819,00000008,false,Rx,9,7,B0,01,10,0F,FF,07,00,00,
7256769,000000AA,false,Rx,9,2,AA,04,00,00,00,00,00,00,
7259565,00000040,false,Rx,9,3,B0,01,10,00,00,00,00,00,
7262614,0000029C,false,Rx,9,3,03,00,1A,00,00,00,00,00,
7264456,00000010,false,Rx,9,7,B0,11,10,01,10,0D,00,00,
7270840,00000008,false,Rx,9,7,B0,01,10,0F,FF,07,00,00,
7277409,000000AA,false,Rx,9,2,AA,04,00,00,00,00,00,00,
7279618,00000040,false,Rx,9,3,B0,01,10,00,00,00,00,00,
7281326,000002BC,false,Rx,9,3,03,00,0B,00,00,00,00,00,
7284224,00000010,false,Rx,9,7,B0,11,10,01,10,0D,00,00,
7288480,00000010,false,Rx,9,4,30,08,00,2E,00,00,00,00,
7289351,00000010,false,Rx,9,4,31,08,00,2D,00,00,00,00,
7290220,00000040,false,Rx,9,3,B0,2E,CC,00,00,00,00,00,
7291301,00000008,false,Rx,9,7,B0,01,10,0C,B6,0F,FF,00,
7294500,00000008,false,Rx,9,7,B0,0E,00,07,00,0D,89,00,
7296746,000000AA,false,Rx,9,2,AA,04,00,00,00,00,00,00,
7300060,00000040,false,Rx,9,6,B0,01,10,92,FF,FF,00,00,
7301672,00000040,false,Rx,9,8,B0,93,E5,00,14,00,2E,CC,
7303069,000002B4,false,Rx,9,3,03,00,0A,00,00,00,00,00,
7305211,00000010,false,Rx,9,7,B0,11,10,01,10,0D,00,00,
7310895,00000008,false,Rx,9,7,B0,01,10,0F,FF,07,00,00,
7316897,000000AA,false,Rx,9,2,AA,04,00,00,00,00,00,00,
7319821,00000040,false,Rx,9,3,B0,01,10,00,00,00,00,00,
7322488,000003AC,false,Rx,9,3,03,00,1D,00,00,00,00,00,
7324207,00000010,false,Rx,9,7,B0,11,10,01,10,0E,00,00,
7325075,00000010,false,Rx,9,3,B0,0D,00,00,00,00,00,00,
7330819,00000008,false,Rx,9,7,B0,01,10,0F,FF,07,00,00,
7336730,000000AA,false,Rx,9,2,AA,04,00,00,00,00,00,00,
7339858,00000040,false,Rx,9,3,B0,01,10,00,00,00,00,00,
7341573,000003A4,false,Rx,9,3,03,00,2C,00,00,00,00,00,
7344247,00000010,false,Rx,9,7,B0,11,10,01,10,0D,00,00,
7350840,00000008,false,Rx,9,7,B0,01,10,0F,FF,07,00,00,
7356792,000000AA,false,Rx,9,2,AA,04,00,00,00,00,00,00,
7359733,00000040,false,Rx,9,3,B0,01,10,00,00,00,00,00,
7364220,00000010,false,Rx,9,7,B0,11,10,01,10,0D,00,00,
7370918,00000008,false,Rx,9,7,B0,01,10,0F,FF,07,00,00,
7376820,000000AA,false,Rx,9,2,AA,04,00,00,00,00,00,00,
7379630,00000040,false,Rx,9,3,B0,01,10,00,00,00,00,00,
7382683,0000029C,false,Rx,9,3,03,00,1A,00,00,00,00,00,
7384522,00000010,false,Rx,9,7,B0,11,10,01,10,0D,00,00,
7390905,00000008,false,Rx,9,7,B0,01,10,0F,FF,07,00,00,
7396863,000000AA,false,Rx,9,2,AA,04,00,00,00,00,00,00,
7399798,00000040,false,Rx,9,3,B0,01,10,00,00,00,00,00,
7401412,000002BC,false,Rx,9,3,03,00,0B,00,00,00,00,00,
7404190,00000010,false,Rx,9,7,B0,11,10,01,10,0D,00,00,
7410891,00000008,false,Rx,9,7,B0,01,10,0F,FF,07,00,00,
7417415,000000AA,false,Rx,9,2,AA,04,00,00,00,00,00,00,
7419586,00000040,false,Rx,9,3,B0,01,10,00,00,00,00,00,
7421408,000002B4,false,Rx,9,3,03,00,0A,00,00,00,00,00,
7424288,00000010,false,Rx,9,7,B0,11,10,01,10,0D,00,00,
7430877,00000008,false,Rx,9,7,B0,01,10,0F,FF,07,00,00,
7436802,000000AA,false,Rx,9,2,AA,04,00,00,00,00,00,00,
7439769,00000040,false,Rx,9,3,B0,01,10,00,00,00,00,00,
7441496,000003AC,false,Rx,9,3,03,00,1D,00,00,00,00,00,
7444273,00000010,false,Rx,9,7,B0,11,10,01,10,0D,00,00,
7450866,00000008,false,Rx,9,7,B0,01,10,0F,FF,07,00,00,
7456800,000000AA,false,Rx,9,2,AA,04,00,00,00,00,00,00,
7459817,00000040,false,Rx,9,3,B0,01,10,00,00,00,00,00,
7461529,000003A4,false,Rx,9,3,03,00,2C,00,00,00,00,00,
7464201,00000010,false,Rx,9,7,B0,11,10,01,10,0D,00,00,
7470899,00000008,false,Rx,9,7,B0,01,10,0F,FF,07,00,00,
7476855,000000AA,false,Rx,9,2,AA,04,00,00,00,00,00,00,
7479927,00000040,false,Rx,9,3,B0,01,10,00,00,00,00,00,
7484172,00000010,false,Rx,9,7,B0,11,10,01,10,0D,00,00,
7490771,00000008,false,Rx,9,7,B0,01,10,0C,B6,0F,FF,00,
7492170,00000008,false,Rx,9,7,B0,0E,00,07,00,0D,89,00,
7497472,000000AA,false,Rx,9,2,AA,04,00,00,00,00,00,00,
7499966,00000040,false,Rx,9,6,B0,01,10,92,FF,FF,00,00,
7501576,00000040,false,Rx,9,8,B0,93,E5,00,14,00,2E,CC,
7504312,0000029C,false,Rx,9,3,03,00,1A,00,00,00,00,00,
7505840,00000010,false,Rx,9,7,B0,11,10,01,10,0D,00,00,
7510843,00000008,false,Rx,9,7,B0,01,10,0F,FF,07,00,00,
7516883,000000AA,false,Rx,9,2,AA,04,00,00,00,00,00,00,
7519980,00000040,false,Rx,9,3,B0,01,10,00,00,00,00,00,
7521445,000002BC,false,Rx,9,3,03,00,0F,00,00,00,00,00,
7524225,00000010,false,Rx,9,7,B0,11,10,01,10,0E,00,00,
7525093,00000010,false,Rx,9,3,B0,0D,00,00,00,00,00,00,
7530840,00000008,false,Rx,9,7,B0,01,10,0F,FF,07,00,00,
7536871,000000AA,false,Rx,9,2,AA,04,00,00,00,00,00,00,
7539996,00000040,false,Rx,9,3,B0,01,20,00,00,00,00,00,
7542241,000002B4,false,Rx,9,3,03,00,0A,00,00,00,00,00,
7544278,00000010,false,Rx,9,7,B0,11,20,01,10,0D,00,00,
7550972,00000008,false,Rx,9,7,B0,01,20,0F,FF,07,00,00,
7556868,000000AA,false,Rx,9,2,AA,04,00,00,00,00,00,00,
7559744,00000040,false,Rx,9,3,B0,01,20,00,00,00,00,00,
7561468,000003AC,false,Rx,9,3,03,00,1D,00,00,00,00,00,
7564462,00000010,false,Rx,9,7,B0,11,20,01,20,0D,00,00,
7571056,00000008,false,Rx,9,7,B0,01,20,0F,FF,07,00,00,
7577646,000000AA,false,Rx,9,2,AA,04,00,00,00,00,00,00,
7579708,00000040,false,Rx,9,3,B0,01,20,00,00,00,00,00,
7581422,000003A4,false,Rx,9,3,03,00,2C,00,00,00,00,00,
7584409,00000010,false,Rx,9,7,B0,11,20,01,20,0D,00,00,
7591102,00000008,false,Rx,9,7,B0,01,20,0F,FF,07,00,00,
7596922,000000AA,false,Rx,9,2,AA,04,00,00,00,00,00,00,
7599770,00000040,false,Rx,9,3,B0,01,20,00,00,00,00,00,
7604360,00000010,false,Rx,9,7,B0,11,20,01,20,0D,00,00,
7611180,00000008,false,Rx,9,7,B0,01,20,0F,FF,07,00,00,
7617574,000000AA,false,Rx,9,2,AA,04,00,00,00,00,00,00,
7619744,00000040,false,Rx,9,3,B0,01,20,00,00,00,00,00,
7622829,0000029C,false,Rx,9,3,03,00,1A,00,00,00,00,00,
7624672,00000010,false,Rx,9,7,B0,11,20,01,20,0D,00,00,
7631051,00000008,false,Rx,9,7,B0,01,20,0F,FF,07,00,00,
7637749,000000AA,false,Rx,9,2,AA,04,00,00,00,00,00,00,
7639806,00000040,false,Rx,9,3,B0,01,20,00,00,00,00,00,
7641523,000002BC,false,Rx,9,3,03,00,0F,00,00,00,00,00,
7644406,00000010,false,Rx,9,7,B0,11,20,01,20,0D,00,00,
7651170,00000008,false,Rx,9,7,B0,01,20,0F,FF,07,00,00,
7657650,000000AA,false,Rx,9,2,AA,04,00,00,00,00,00,00,
7659818,00000040,false,Rx,9,3,B0,01,20,00,00,00,00,00,
7661533,000002B4,false,Rx,9,3,03,00,0A,00,00,00,00,00,
7664417,00000010,false,Rx,9,7,B0,11,20,01,20,0D,00,00,
7671146,00000008,false,Rx,9,7,B0,01,20,0F,FF,07,00,00,
7677644,000000AA,false,Rx,9,2,AA,04,00,00,00,00,00,00,
7679849,00000040,false,Rx,9,3,B0,01,20,00,00,00,00,00,
7681579,000003AC,false,Rx,9,3,03,00,1D,00,00,00,00,00,
7684450,00000010,false,Rx,9,7,B0,11,20,01,20,0D,00,00,
7689033,00000010,false,Rx,9,4,30,08,00,2F,00,00,00,00,
7689902,00000010,false,Rx,9,4,31,08,00,2E,00,00,00,00,
7690667,00000040,false,Rx,9,3,B0,2F,66,00,00,00,00,00,
7691748,00000008,false,Rx,9,7,B0,01,20,0C,B6,0F,FF,00,
7693252,00000008,false,Rx,9,7,B0,0E,00,07,00,0D,89,00,
7697609,000000AA,false,Rx,9,2,AA,04,00,00,00,00,00,00,
7700199,00000040,false,Rx,9,6,B0,01,20,92,FF,FF,00,00,
7701702,00000040,false,Rx,9,8,B0,93,E5,00,14,00,2F,66,
7703206,000003A4,false,Rx,9,3,03,00,2C,00,00,00,00,00,
7705449,00000010,false,Rx,9,7,B0,11,20,01,20,0D,00,00,
7711087,00000008,false,Rx,9,7,B0,01,20,0F,FF,07,00,00,
7717649,000000AA,false,Rx,9,2,AA,04,00,00,00,00,00,00,
7719906,00000040,false,Rx,9,3,B0,01,20,00,00,00,00,00,
7724428,00000010,false,Rx,9,7,B0,11,20,01,20,0E,00,00,
7725217,00000010,false,Rx,9,3,B0,0D,00,00,00,00,00,00,
7731066,00000008,false,Rx,9,7,B0,01,20,0F,FF,07,00,00,
7736896,000000AA,false,Rx,9,2,AA,04,00,00,00,00,00,00,
7739914,00000040,false,Rx,9,3,B0,01,20,00,00,00,00,00,
7742860,0000029C,false,Rx,9,3,03,00,1A,00,00,00,00,00,
7744703,00000010,false,Rx,9,7,B0,11,20,01,20,0D,00,00,
7751077,00000008,false,Rx,9,7,B0,01,20,0F,FF,07,00,00,
7757640,000000AA,false,Rx,9,2,AA,04,00,00,00,00,00,00,
7760035,00000040,false,Rx,9,3,B0,01,20,00,00,00,00,00,
7761601,000002BC,false,Rx,9,3,03,00,0F,00,00,00,00,00,
7764484,00000010,false,Rx,9,7,B0,11,20,01,20,0D,00,00,
7771077,00000008,false,Rx,9,7,B0,01,20,0F,FF,07,00,00,
7778182,000000AA,false,Rx,9,2,AA,04,00,00,00,00,00,00,
7779993,00000040,false,Rx,9,3,B0,01,20,00,00,00,00,00,
7781713,000002B4,false,Rx,9,3,03,00,0A,00,00,00,00,00,
7784506,00000010,false,Rx,9,7,B0,11,20,01,20,0D,00,00,
7791184,00000008,false,Rx,9,7,B0,01,20,0F,FF,07,00,00,
7797683,000000AA,false,Rx,9,2,AA,04,00,00,00,00,00,00,
7799909,00000040,false,Rx,9,3,B0,01,20,00,00,00,00,00,
7801574,000003AC,false,Rx,9,3,03,00,1D,00,00,00,00,00,
7804456,00000010,false,Rx,9,7,B0,11,20,01,20,0D,00,00,
7811156,00000008,false,Rx,9,7,B0,01,20,0F,FF,07,00,00,
7817643,000000AA,false,Rx,9,2,AA,04,00,00,00,00,00,00,
7819979,00000040,false,Rx,9,3,B0,01,20,00,00,00,00,00,
7821556,000003A4,false,Rx,9,3,03,00,2C,00,00,00,00,00,
7824560,00000010,false,Rx,9,7,B0,11,20,01,20,0D,00,00,
7831141,00000008,false,Rx,9,7,B0,01,20,0F,FF,07,00,00,
7836902,000000AA,false,Rx,9,2,AA,04,00,00,00,00,00,00,
7840010,00000040,false,Rx,9,3,B0,01,20,00,00,00,00,00,
7844482,00000010,false,Rx,9,7,B0,11,20,01,20,0D,00,00,
7851077,00000008,false,Rx,9,7,B0,01,20,0F,FF,07,00,00,
7856942,000000AA,false,Rx,9,2,AA,04,00,00,00,00,00,00,
7860069,00000040,false,Rx,9,3,B0,01,20,00,00,00,00,00,
7863054,0000029C,false,Rx,9,3,03,00,1A,00,00,00,00,00,
7864686,00000010,false,Rx,9,7,B0,11,20,01,20,0D,00,00,
7871064,00000008,false,Rx,9,7,B0,01,20,0F,FF,07,00,00,
7876914,000000AA,false,Rx,9,2,AA,04,00,00,00,00,00,00,
7880181,00000040,false,Rx,9,3,B0,01,20,00,00,00,00,00,
7881736,000002BC,false,Rx,9,3,03,00,0F,00,00,00,00,00,
7884552,00000010,false,Rx,9,7,B0,11,20,01,20,0D,00,00,
7891056,00000008,false,Rx,9,7,B0,01,20,0C,B6,0F,FF,00,
7892240,00000008,false,Rx,9,7,B0,0E,00,07,00,0D,09,00,
7896921,000000AA,false,Rx,9,2,AA,04,00,00,00,00,00,00,
7900431,00000040,false,Rx,9,6,B0,01,20,92,FF,FF,00,00,
7902363,00000040,false,Rx,9,8,B0,93,E5,00,14,00,2F,66,
7903767,000002B4,false,Rx,9,3,03,00,0A,00,00,00,00,00,
7905586,00000010,false,Rx,9,7,B0,11,20,01,20,0D,00,00,
7911117,00000008,false,Rx,9,7,B0,01,20,0F,FF,07,00,00,
7916966,000000AA,false,Rx,9,2,AA,04,00,00,00,00,00,00,
7920236,00000040,false,Rx,9,3,B0,01,20,00,00,00,00,00,
7921815,000003AC,false,Rx,9,3,03,00,1D,00,00,00,00,00,
7924520,00000010,false,Rx,9,7,B0,11,20,01,20,0E,00,00,
7925317,00000010,false,Rx,9,3,B0,0D,00,00,00,00,00,00,
7931203,00000008,false,Rx,9,7,B0,01,20,0F,FF,07,00,00,
7936951,000000AA,false,Rx,9,2,AA,04,00,00,00,00,00,00,
7940316,00000040,false,Rx,9,3,B0,01,20,00,00,00,00,00,
7941690,000003A4,false,Rx,9,3,03,00,2C,00,00,00,00,00,
7944468,00000010,false,Rx,9,7,B0,11,20,01,20,0D,00,00,
7951168,00000008,false,Rx,9,7,B0,01,20,0F,FF,07,00,00,
7957014,000000AA,false,Rx,9,2,AA,04,00,00,00,00,00,00,
7960401,00000040,false,Rx,9,3,B0,01,20,00,00,00,00,00,
7964515,00000010,false,Rx,9,7,B0,11,20,01,20,0D,00,00,
7971134,00000008,false,Rx,9,7,B0,01,20,0F,FF,07,00,00,
7976982,000000AA,false,Rx,9,2,AA,04,00,00,00,00,00,00,
7980484,00000040,false,Rx,9,3,B0,01,20,00,00,00,00,00,
7982944,0000029C,false,Rx,9,3,03,00,1A,00,00,00,00,00,
7984683,00000010,false,Rx,9,7,B0,11,20,01,20,0D,00,00,
7991168,00000008,false,Rx,9,7,B0,01,20,0F,FF,07,00,00,
7997019,000000AA,false,Rx,9,2,AA,04,00,00,00,00,00,00,
8000500,00000040,false,Rx,9,3,B0,01,20,00,00,00,00,00,
8001838,000002BC,false,Rx,9,3,03,00,0F,00,00,00,00,00,
8004589,00000010,false,Rx,9,7,B0,11,20,01,20,0D,00,00,
8011196,00000008,false,Rx,9,7,B0,01,20,0F,FF,07,00,00,
8017043,000000AA,false,Rx,9,2,AA,04,00,00,00,00,00,00,
8020518,00000040,false,Rx,9,3,B0,01,20,00,00,00,00,00,
8021721,000002B4,false,Rx,9,3,03,00,0A,00,00,00,00,00,
8024504,00000010,false,Rx,9,7,B0,11,20,01,20,0D,00,00,
8031180,00000008,false,Rx,9,7,B0,01,20,0F,FF,07,00,00,
8037042,000000AA,false,Rx,9,2,AA,04,00,00,00,00,00,00,
8040663,00000040,false,Rx,9,3,B0,01,20,00,00,00,00,00,
8041679,000003AC,false,Rx,9,3,03,00,1D,00,00,00,00,00,
8044574,00000010,false,Rx,9,7,B0,11,20,01,20,0D,00,00,
8051186,00000008,false,Rx,9,7,B0,01,20,0F,FF,07,00,00,
8057772,000000AA,false,Rx,9,2,AA,04,00,00,00,00,00,00,
8060718,00000040,false,Rx,9,3,B0,01,20,00,00,00,00,00,
8061760,000003A4,false,Rx,9,3,03,00,2C,00,00,00,00,00,
8064538,00000010,false,Rx,9,7,B0,11,20,01,20,0D,00,00,
8071133,00000008,false,Rx,9,7,B0,01,20,0F,FF,07,00,00,
8077087,000000AA,false,Rx,9,2,AA,04,00,00,00,00,00,00,
8080782,00000040,false,Rx,9,3,B0,01,20,00,00,00,00,00,
8084549,00000010,false,Rx,9,7,B0,11,20,01,20,0D,00,00,
8088614,00000010,false,Rx,9,4,30,08,00,30,00,00,00,00,
8089483,00000010,false,Rx,9,4,31,08,00,2F,00,00,00,00,
8090777,00000040,false,Rx,9,3,B0,30,99,00,00,00,00,00,
8091754,00000008,false,Rx,9,7,B0,01,20,0C,B6,0F,FF,00,
8093257,00000008,false,Rx,9,7,B0,0E,00,07,00,0D,09,00,
8097093,000000AA,false,Rx,9,2,AA,04,00,00,00,00,00,00,
8100722,00000040,false,Rx,9,6,B0,01,20,92,FF,FF,00,00,
8101903,00000040,false,Rx,9,8,B0,93,E5,00,14,00,30,99,
8104652,0000029C,false,Rx,9,3,03,00,1A,00,00,00,00,00,
8106177,00000010,false,Rx,9,7,B0,11,20,01,20,0D,00,00,
8111232,00000008,false,Rx,9,7,B0,01,20,0F,FF,07,00,00,
8117832,000000AA,false,Rx,9,2,AA,04,00,00,00,00,00,00,
8120894,00000040,false,Rx,9,3,B0,01,20,00,00,00,00,00,
8121912,000002BC,false,Rx,9,3,03,00,0F,00,00,00,00,00,
8124477,00000010,false,Rx,9,7,B0,11,20,01,20,0E,00,00,
8125346,00000010,false,Rx,9,3,B0,0D,00,00,00,00,00,00,
8131140,00000008,false,Rx,9,7,B0,01,20,0F,FF,07,00,00,
8137759,000000AA,false,Rx,9,2,AA,04,00,00,00,00,00,00,
8140938,00000040,false,Rx,9,3,B0,01,20,00,00,00,00,00,
8141768,000002B4,false,Rx,9,3,03,00,02,00,00,00,00,00,
8144558,00000010,false,Rx,9,7,B0,11,20,01,20,0D,00,00,
8151238,00000008,false,Rx,9,7,B0,01,20,0F,FF,07,00,00,
8157960,000000AA,false,Rx,9,2,AA,04,00,00,00,00,00,00,
8161018,00000040,false,Rx,9,3,B0,01,20,00,00,00,00,00,
8161840,000003AC,false,Rx,9,3,03,00,1D,00,00,00,00,00,
8164511,00000010,false,Rx,9,7,B0,11,20,01,20,0D,00,00,
8171212,00000008,false,Rx,9,7,B0,01,20,0F,FF,07,00,00,
8177914,000000AA,false,Rx,9,2,AA,04,00,00,00,00,00,00,
8181079,00000040,false,Rx,9,3,B0,01,20,00,00,00,00,00,
8181782,000003A4,false,Rx,9,3,03,00,2C,00,00,00,00,00,
8184520,00000010,false,Rx,9,7,B0,11,20,01,20,0D,00,00,
8191200,00000008,false,Rx,9,7,B0,01,20,0F,FF,07,00,00,
8197072,000000AA,false,Rx,9,2,AA,04,00,00,00,00,00,00,
8201094,00000040,false,Rx,9,3,B0,01,20,00,00,00,00,00,
8204455,00000010,false,Rx,9,7,B0,11,20,01,20,0D,00,00,
8211156,00000008,false,Rx,9,7,B0,01,20,0F,FF,07,00,00,
8217855,000000AA,false,Rx,9,2,AA,04,00,00,00,00,00,00,
8221132,00000040,false,Rx,9,3,B0,01,20,00,00,00,00,00,
8223078,0000029C,false,Rx,9,3,03,00,1A,00,00,00,00,00,
8224796,00000010,false,Rx,9,7,B0,11,20,01,20,0D,00,00,
8231226,00000008,false,Rx,9,7,B0,01,20,0F,FF,07,00,00,
8237121,000000AA,false,Rx,9,2,AA,04,00,00,00,00,00,00,
8241140,00000040,false,Rx,9,3,B0,01,20,00,00,00,00,00,
8241845,000002BC,false,Rx,9,3,03,00,0F,00,00,00,00,00,
8244520,00000010,false,Rx,9,7,B0,11,20,01,20,0D,00,00,
8251220,00000008,false,Rx,9,7,B0,01,20,0F,FF,07,00,00,
8257813,000000AA,false,Rx,9,2,AA,04,00,00,00,00,00,00,
8261207,00000040,false,Rx,9,3,B0,01,20,00,00,00,00,00,
8261805,000002B4,false,Rx,9,3,03,00,02,00,00,00,00,00,
8264481,00000010,false,Rx,9,7,B0,11,20,01,20,0D,00,00,
8271280,00000008,false,Rx,9,7,B0,01,20,0F,FF,07,00,00,
8277136,000000AA,false,Rx,9,2,AA,04,00,00,00,00,00,00,
8281255,00000040,false,Rx,9,3,B0,01,20,00,00,00,00,00,
8281855,000003AC,false,Rx,9,3,03,00,1D,00,00,00,00,00,
8284533,00000010,false,Rx,9,7,B0,11,20,01,20,0D,00,00,
8291124,00000008,false,Rx,9,7,B0,01,20,0C,B6,0F,FF,00,
8292312,00000008,false,Rx,9,7,B0,0E,00,07,00,0D,09,00,
8297102,000000AA,false,Rx,9,2,AA,04,00,00,00,00,00,00,
8301319,00000040,false,Rx,9,6,B0,01,20,92,FF,FF,00,00,
8302046,00000040,false,Rx,9,8,B0,93,E5,00,14,00,30,99,
8303451,000003A4,false,Rx,9,3,03,00,2C,00,00,00,00,00,
8305593,00000010,false,Rx,9,7,B0,11,20,01,20,0D,00,00,
8311220,00000008,false,Rx,9,7,B0,01,20,0F,FF,07,00,00,
8317193,000000AA,false,Rx,9,2,AA,04,00,00,00,00,00,00,
8321415,00000040,false,Rx,9,3,B0,01,20,00,00,00,00,00,
8324463,00000010,false,Rx,9,7,B0,11,20,01,20,0E,00,00,
8325337,00000010,false,Rx,9,3,B0,0D,00,00,00,00,00,00,
8331186,00000008,false,Rx,9,7,B0,01,20,0F,FF,07,00,00,
8337938,000000AA,false,Rx,9,2,AA,04,00,00,00,00,00,00,
8341462,00000040,false,Rx,9,3,B0,01,20,00,00,00,00,00,
8343168,0000029C,false,Rx,9,3,03,00,1A,00,00,00,00,00,
8344784,00000010,false,Rx,9,7,B0,11,20,01,20,0D,00,00,
8351181,00000008,false,Rx,9,7,B0,01,20,0F,FF,07,00,00,
8357416,000000AA,false,Rx,9,2,AA,04,00,00,00,00,00,00,
8361455,00000040,false,Rx,9,3,B0,01,20,00,00,00,00,00,
8361873,000002BC,false,Rx,9,3,03,00,0F,00,00,00,00,00,
8364546,00000010,false,Rx,9,7,B0,11,20,01,20,0D,00,00,
8371138,00000008,false,Rx,9,7,B0,01,20,0F,FF,07,00,00,
8377193,000000AA,false,Rx,9,2,AA,04,00,00,00,00,00,00,
8381530,00000040,false,Rx,9,3,B0,01,20,00,00,00,00,00,
8381921,000002B4,false,Rx,9,3,03,00,0A,00,00,00,00,00,
8384706,00000010,false,Rx,9,7,B0,11,20,01,20,0D,00,00,
8391262,00000008,false,Rx,9,7,B0,01,20,0F,FF,07,00,00,
8397256,000000AA,false,Rx,9,2,AA,04,00,00,00,00,00,00,
8401610,00000040,false,Rx,9,3,B0,01,20,00,00,00,00,00,
8401791,000003AC,false,Rx,9,3,03,00,1D,00,00,00,00,00,
8404578,00000010,false,Rx,9,7,B0,11,20,01,20,0D,00,00,
8411174,00000008,false,Rx,9,7,B0,01,20,0F,FF,07,00,00,
8417236,000000AA,false,Rx,9,2,AA,04,00,00,00,00,00,00,
8421693,00000040,false,Rx,9,3,B0,01,20,00,00,00,00,00,
8421955,000003A4,false,Rx,9,3,03,00,2C,00,00,00,00,00,
8424822,00000010,false,Rx,9,7,B0,11,20,01,20,0D,00,00,
8431274,00000008,false,Rx,9,7,B0,01,20,0F,FF,07,00,00,
8437184,000000AA,false,Rx,9,2,AA,04,00,00,00,00,00,00,
8440158,00000040,false,Rx,9,3,B0,01,20,00,00,00,00,00,
8444540,00000010,false,Rx,9,7,B0,11,20,01,20,0D,00,00,
8451169,00000008,false,Rx,9,7,B0,01,20,0F,FF,07,00,00,
8457972,000000AA,false,Rx,9,2,AA,04,00,00,00,00,00,00,
8460113,00000040,false,Rx,9,3,B0,01,20,00,00,00,00,00,
8463181,0000029C,false,Rx,9,3,03,00,1A,00,00,00,00,00,
8464818,00000010,false,Rx,9,7,B0,11,20,01,20,0D,00,00,
8471298,00000008,false,Rx,9,7,B0,01,20,0F,FF,07,00,00,
8477161,000000AA,false,Rx,9,2,AA,04,00,00,00,00,00,00,
8480255,00000040,false,Rx,9,3,B0,01,20,00,00,00,00,00,
8481954,000002BC,false,Rx,9,3,03,00,0F,00,00,00,00,00,
8484552,00000010,false,Rx,9,7,B0,11,20,01,20,0D,00,00,
8488601,00000010,false,Rx,9,4,30,08,00,31,00,00,00,00,
8489470,00000010,false,Rx,9,4,31,08,00,30,00,00,00,00,
8490768,00000040,false,Rx,9,3,B0,31,99,00,00,00,00,00,
8491847,00000008,false,Rx,9,7,B0,01,20,0C,B6,0F,FF,00,
8493246,00000008,false,Rx,9,7,B0,0E,00,07,00,0D,09,00,
8497191,000000AA,false,Rx,9,2,AA,04,00,00,00,00,00,00,
8501954,00000040,false,Rx,9,6,B0,01,20,92,FF,FF,00,00,
8502131,00000040,false,Rx,9,8,B0,93,E5,00,14,00,31,99,
8503541,000002B4,false,Rx,9,3,03,00,02,00,00,00,00,00,
8505804,00000010,false,Rx,9,7,B0,11,20,01,20,0D,00,00,
8511245,00000008,false,Rx,9,7,B0,01,20,0F,FF,07,00,00,
8517301,000000AA,false,Rx,9,2,AA,04,00,00,00,00,00,00,
8521958,00000040,false,Rx,9,3,B0,01,20,00,00,00,00,00,
8522129,000003AC,false,Rx,9,3,03,00,1D,00,00,00,00,00,
8524495,00000010,false,Rx,9,7,B0,11,20,01,20,0E,00,00,
8525366,00000010,false,Rx,9,3,B0,0D,00,00,00,00,00,00,
8531218,00000008,false,Rx,9,7,B0,01,20,0F,FF,07,00,00,
8537277,000000AA,false,Rx,9,2,AA,04,00,00,00,00,00,00,
8540199,00000040,false,Rx,9,3,B0,01,20,00,00,00,00,00,
8542075,000003A4,false,Rx,9,3,03,00,2C,00,00,00,00,00,
8544834,00000010,false,Rx,9,7,B0,11,20,01,20,0D,00,00,
8551177,00000008,false,Rx,9,7,B0,01,20,0F,FF,07,00,00,
8557983,000000AA,false,Rx,9,2,AA,04,00,00,00,00,00,00,
8560231,00000040,false,Rx,9,3,B0,01,20,00,00,00,00,00,
8564578,00000010,false,Rx,9,7,B0,11,20,01,20,0D,00,00,
8571199,00000008,false,Rx,9,7,B0,01,20,0F,FF,07,00,00,
8577257,000000AA,false,Rx,9,2,AA,04,00,00,00,00,00,00,
8580351,00000040,false,Rx,9,3,B0,01,20,00,00,00,00,00,
8583322,0000029C,false,Rx,9,3,03,00,1A,00,00,00,00,00,
8584846,00000010,false,Rx,9,7,B0,11,20,01,20,0D,00,00,
8591242,00000008,false,Rx,9,7,B0,01,20,0F,FF,07,00,00,
8597937,000000AA,false,Rx,9,2,AA,04,00,00,00,00,00,00,
8600186,00000040,false,Rx,9,3,B0,01,20,00,00,00,00,00,
8602079,000002BC,false,Rx,9,3,03,00,0F,00,00,00,00,00,
8604604,00000010,false,Rx,9,7,B0,11,20,01,20,0D,00,00,
8611311,00000008,false,Rx,9,7,B0,01,20,0F,FF,07,00,00,
8617291,000000AA,false,Rx,9,2,AA,04,00,00,00,00,00,00,
8620277,00000040,false,Rx,9,3,B0,01,20,00,00,00,00,00,
8622168,000002B4,false,Rx,9,3,03,00,02,00,00,00,00,00,
8624576,00000010,false,Rx,9,7,B0,11,20,01,20,0D,00,00,
8631170,00000008,false,Rx,9,7,B0,01,20,0F,FF,07,00,00,
8637336,000000AA,false,Rx,9,2,AA,04,00,00,00,00,00,00,
8640258,00000040,false,Rx,9,3,B0,01,20,00,00,00,00,00,
8642291,000003AC,false,Rx,9,3,03,00,1D,00,00,00,00,00,
8644904,00000010,false,Rx,9,7,B0,11,20,01,20,0D,00,00,
8651184,00000008,false,Rx,9,7,B0,01,20,0F,FF,07,00,00,
8657249,000000AA,false,Rx,9,2,AA,04,00,00,00,00,00,00,
8660344,00000040,false,Rx,9,3,B0,01,20,00,00,00,00,00,
8662323,000003A4,false,Rx,9,3,03,00,2C,00,00,00,00,00,
8664633,00000010,false,Rx,9,7,B0,11,20,01,20,0D,00,00,
8671269,00000008,false,Rx,9,7,B0,01,20,0F,FF,07,00,00,
8677340,000000AA,false,Rx,9,2,AA,04,00,00,00,00,00,00,
8680327,00000040,false,Rx,9,3,B0,01,20,00,00,00,00,00,
8684631,00000010,false,Rx,9,7,B0,11,20,01,20,0D,00,00,
8691129,00000008,false,Rx,9,7,B0,01,20,0C,B6,0F,FF,00,
8692330,00000008,false,Rx,9,7,B0,0E,00,07,00,0D,09,00,
8697334,000000AA,false,Rx,9,2,AA,04,00,00,00,00,00,00,
8700748,00000040,false,Rx,9,6,B0,01,20,92,FF,FF,00,00,
8702537,00000040,false,Rx,9,8,B0,93,E5,00,14,00,31,99,
8705025,0000029C,false,Rx,9,3,03,00,1A,00,00,00,00,00,
8706547,00000010,false,Rx,9,7,B0,11,20,01,20,0D,00,00,
8711232,00000008,false,Rx,9,7,B0,01,20,0F,FF,07,00,00,
8718135,000000AA,false,Rx,9,2,AA,04,00,00,00,00,00,00,
8720383,00000040,false,Rx,9,3,B0,01,20,00,00,00,00,00,
8722594,000002BC,false,Rx,9,3,03,00,0F,00,00,00,00,00,
8724586,00000010,false,Rx,9,7,B0,11,20,01,20,0E,00,00,
8725462,00000010,false,Rx,9,3,B0,0D,00,00,00,00,00,00,
8731234,00000008,false,Rx,9,7,B0,01,20,0F,FF,07,00,00,
8737313,000000AA,false,Rx,9,2,AA,04,00,00,00,00,00,00,
8740301,00000040,false,Rx,9,3,B0,01,20,00,00,00,00,00,
8742682,000002B4,false,Rx,9,3,03,00,0A,00,00,00,00,00,
8744565,00000010,false,Rx,9,7,B0,11,20,01,20,0D,00,00,
8751288,00000008,false,Rx,9,7,B0,01,20,0F,FF,07,00,00,
8757361,000000AA,false,Rx,9,2,AA,04,00,00,00,00,00,00,
8760352,00000040,false,Rx,9,3,B0,01,20,00,00,00,00,00,
8762713,000003AC,false,Rx,9,3,03,00,1D,00,00,00,00,00,
8764683,00000010,false,Rx,9,7,B0,11,20,01,20,0D,00,00,
8771311,00000008,false,Rx,9,7,B0,01,20,0F,FF,07,00,00,
8778435,000000AA,false,Rx,9,2,AA,04,00,00,00,00,00,00,
8780533,00000040,false,Rx,9,3,B0,01,20,00,00,00,00,00,
8782673,000003A4,false,Rx,9,3,03,00,2C,00,00,00,00,00,
8784726,00000010,false,Rx,9,7,B0,11,20,01,20,0D,00,00,
8791261,00000008,false,Rx,9,7,B0,01,20,0F,FF,07,00,00,
8797342,000000AA,false,Rx,9,2,AA,04,00,00,00,00,00,00,
8800435,00000040,false,Rx,9,3,B0,01,20,00,00,00,00,00,
8804575,00000010,false,Rx,9,7,B0,11,20,01,20,0D,00,00,
8811242,00000008,false,Rx,9,7,B0,01,20,0F,FF,07,00,00,
8817319,000000AA,false,Rx,9,2,AA,04,00,00,00,00,00,00,
8820314,00000040,false,Rx,9,3,B0,01,20,00,00,00,00,00,
8823414,0000029C,false,Rx,9,3,03,00,1A,00,00,00,00,00,
8824906,00000010,false,Rx,9,7,B0,11,20,01,20,0D,00,00,
8831265,00000008,false,Rx,9,7,B0,01,20,0F,FF,07,00,00,
8838088,000000AA,false,Rx,9,2,AA,04,00,00,00,00,00,00,
8840336,00000040,false,Rx,9,3,B0,01,20,00,00,00,00,00,
8842807,000002BC,false,Rx,9,3,03,00,0F,00,00,00,00,00,
8844643,00000010,false,Rx,9,7,B0,11,20,01,20,0D,00,00,
8851258,00000008,false,Rx,9,7,B0,01,20,0F,FF,07,00,00,
8857436,000000AA,false,Rx,9,2,AA,04,00,00,00,00,00,00,
8860351,00000040,false,Rx,9,3,B0,01,20,00,00,00,00,00,
8862811,000002B4,false,Rx,9,3,03,00,0A,00,00,00,00,00,
8864646,00000010,false,Rx,9,7,B0,11,20,01,20,0D,00,00,
8871300,00000008,false,Rx,9,7,B0,01,20,0F,FF,07,00,00,
8877376,000000AA,false,Rx,9,2,AA,04,00,00,00,00,00,00,
8880468,00000040,false,Rx,9,3,B0,01,20,00,00,00,00,00,
8882864,000003AC,false,Rx,9,3,03,00,1D,00,00,00,00,00,
8884668,00000010,false,Rx,9,7,B0,11,20,01,20,0D,00,00,
8888607,00000010,false,Rx,9,4,30,08,00,32,00,00,00,00,
8889477,00000010,false,Rx,9,4,31,08,00,31,00,00,00,00,
8890240,00000040,false,Rx,9,3,B0,32,FF,00,00,00,00,00,
8891318,00000008,false,Rx,9,7,B0,01,20,0C,B6,0F,FF,00,
8892610,00000008,false,Rx,9,7,B0,0E,00,07,00,0D,09,00,
8897484,000000AA,false,Rx,9,2,AA,04,00,00,00,00,00,00,
8900806,00000040,false,Rx,9,6,B0,01,20,92,FF,FF,00,00,
8902910,00000040,false,Rx,9,8,B0,93,E5,00,14,00,32,FF,
8903835,000003A4,false,Rx,9,3,03,00,2C,00,00,00,00,00,
8906400,00000010,false,Rx,9,7,B0,11,20,01,20,0D,00,00,
8911282,00000008,false,Rx,9,7,B0,01,20,0F,FF,07,00,00,
8918205,000000AA,false,Rx,9,2,AA,04,00,00,00,00,00,00,
8920554,00000040,false,Rx,9,3,B0,01,20,00,00,00,00,00,
8924655,00000010,false,Rx,9,7,B0,11,20,01,20,0E,00,00,
8925454,00000010,false,Rx,9,3,B0,0D,00,00,00,00,00,00,
8931300,00000008,false,Rx,9,7,B0,01,20,0F,FF,07,00,00,
8938104,000000AA,false,Rx,9,2,AA,04,00,00,00,00,00,00,
8940351,00000040,false,Rx,9,3,B0,01,20,00,00,00,00,00,
8943423,0000029C,false,Rx,9,3,03,00,1A,00,00,00,00,00,
8944952,00000010,false,Rx,9,7,B0,11,20,01,20,0D,00,00,
8951341,00000008,false,Rx,9,7,B0,01,20,0F,FF,07,00,00,
8957427,000000AA,false,Rx,9,2,AA,04,00,00,00,00,00,00,
8960523,00000040,false,Rx,9,3,B0,01,20,00,00,00,00,00,
8962977,000002BC,false,Rx,9,3,03,00,0F,00,00,00,00,00,
8964688,00000010,false,Rx,9,7,B0,11,20,01,20,0D,00,00,
8971288,00000008,false,Rx,9,7,B0,01,20,0F,FF,07,00,00,
8977451,000000AA,false,Rx,9,2,AA,04,00,00,00,00,00,00,
8980546,00000040,false,Rx,9,3,B0,01,20,00,00,00,00,00,
8983008,000002B4,false,Rx,9,3,03,00,02,00,00,00,00,00,
8984714,00000010,false,Rx,9,7,B0,11,20,01,20,0D,00,00,
8991212,00000008,false,Rx,9,7,B0,01,20,0F,FF,07,00,00,
8997446,000000AA,false,Rx,9,2,AA,04,00,00,00,00,00,00,
9000356,00000040,false,Rx,9,3,B0,01,20,00,00,00,00,00,
9003031,000003AC,false,Rx,9,3,03,00,1D,00,00,00,00,00,
9004634,00000010,false,Rx,9,7,B0,11,20,01,20,0D,00,00,
9011239,00000008,false,Rx,9,7,B0,01,20,0F,FF,07,00,00,
9018256,000000AA,false,Rx,9,2,AA,04,00,00,00,00,00,00,
9020498,00000040,false,Rx,9,3,B0,01,20,00,00,00,00,00,
9023069,000003A4,false,Rx,9,3,03,00,2C,00,00,00,00,00,
9024697,00000010,false,Rx,9,7,B0,11,20,01,20,0D,00,00,
9031285,00000008,false,Rx,9,7,B0,01,20,0F,FF,07,00,00,
9037514,000000AA,false,Rx,9,2,AA,04,00,00,00,00,00,00,
9040529,00000040,false,Rx,9,3,B0,01,20,00,00,00,00,00,
9044631,00000010,false,Rx,9,7,B0,11,20,01,20,0D,00,00,
9051295,00000008,false,Rx,9,7,B0,01,20,0F,FF,07,00,00,
9057497,000000AA,false,Rx,9,2,AA,04,00,00,00,00,00,00,
9060388,00000040,false,Rx,9,3,B0,01,20,00,00,00,00,00,
9063472,0000029C,false,Rx,9,3,03,00,1A,00,00,00,00,00,
9065012,00000010,false,Rx,9,7,B0,11,20,01,20,0D,00,00,
9071325,00000008,false,Rx,9,7,B0,01,20,0F,FF,07,00,00,
9078256,000000AA,false,Rx,9,2,AA,04,00,00,00,00,00,00,
9080603,00000040,false,Rx,9,3,B0,01,20,00,00,00,00,00,
9083223,000002BC,false,Rx,9,3,03,00,0F,00,00,00,00,00,
9084692,00000010,false,Rx,9,7,B0,11,20,01,20,0D,00,00,
9091177,00000008,false,Rx,9,7,B0,01,20,0C,B6,0F,FF,00,
9092468,00000008,false,Rx,9,7,B0,0E,00,07,00,0D,09,00,
9098214,000000AA,false,Rx,9,2,AA,04,00,00,00,00,00,00,
9100777,00000040,false,Rx,9,6,B0,01,20,92,FF,FF,00,00,
9103298,00000040,false,Rx,9,8,B0,93,E5,00,14,00,32,FF,
9103786,000002B4,false,Rx,9,3,03,00,0A,00,00,00,00,00,
9105933,00000010,false,Rx,9,7,B0,11,20,01,20,0D,00,00,
9111325,00000008,false,Rx,9,7,B0,01,20,0F,FF,07,00,00,
9117507,000000AA,false,Rx,9,2,AA,04,00,00,00,00,00,00,
9120497,00000040,false,Rx,9,3,B0,01,20,00,00,00,00,00,
9123344,000003AC,false,Rx,9,3,03,00,1D,00,00,00,00,00,
9124690,00000010,false,Rx,9,7,B0,11,20,01,20,0E,00,00,
9125556,00000010,false,Rx,9,3,B0,0D,00,00,00,00,00,00,
9131301,00000008,false,Rx,9,7,B0,01,20,0F,FF,07,00,00,
9137468,000000AA,false,Rx,9,2,AA,04,00,00,00,00,00,00,
9140671,00000040,false,Rx,9,3,B0,01,20,00,00,00,00,00,
9143400,000003A4,false,Rx,9,3,03,00,2C,00,00,00,00,00,
9144742,00000010,false,Rx,9,7,B0,11,20,01,20,0D,00,00,
9151269,00000008,false,Rx,9,7,B0,01,20,0F,FF,07,00,00,
9158265,000000AA,false,Rx,9,2,AA,04,00,00,00,00,00,00,
9160428,00000040,false,Rx,9,3,B0,01,20,00,00,00,00,00,
9164683,00000010,false,Rx,9,7,B0,11,20,01,20,0D,00,00,
9171301,00000008,false,Rx,9,7,B0,01,20,0F,FF,07,00,00,
9177571,000000AA,false,Rx,9,2,AA,04,00,00,00,00,00,00,
9180451,00000040,false,Rx,9,3,B0,01,20,00,00,00,00,00,
9183571,0000029C,false,Rx,9,3,03,00,1A,00,00,00,00,00,
9185040,00000010,false,Rx,9,7,B0,11,20,01,20,0D,00,00,
9191356,00000008,false,Rx,9,7,B0,01,20,0F,FF,07,00,00,
9197541,000000AA,false,Rx,9,2,AA,04,00,00,00,00,00,00,
9200422,00000040,false,Rx,9,3,B0,01,20,00,00,00,00,00,
9203583,000002BC,false,Rx,9,3,03,00,0F,00,00,00,00,00,
9204737,00000010,false,Rx,9,7,B0,11,20,01,20,0D,00,00,
9211224,00000008,false,Rx,9,7,B0,01,20,0F,FF,07,00,00,
9218346,000000AA,false,Rx,9,2,AA,04,00,00,00,00,00,00,
9220593,00000040,false,Rx,9,3,B0,01,20,00,00,00,00,00,
9223648,000002B4,false,Rx,9,3,03,00,0A,00,00,00,00,00,
9224678,00000010,false,Rx,9,7,B0,11,20,01,20,0D,00,00,
9231400,00000008,false,Rx,9,7,B0,01,20,0F,FF,07,00,00,
9238387,000000AA,false,Rx,9,2,AA,04,00,00,00,00,00,00,
9240640,00000040,false,Rx,9,3,B0,01,20,00,00,00,00,00,
9243709,000003AC,false,Rx,9,3,03,00,1D,00,00,00,00,00,
9244754,00000010,false,Rx,9,7,B0,11,20,01,20,0D,00,00,
9251241,00000008,false,Rx,9,7,B0,01,20,0F,FF,07,00,00,
9257552,000000AA,false,Rx,9,2,AA,04,00,00,00,00,00,00,
9260685,00000040,false,Rx,9,3,B0,01,20,00,00,00,00,00,
9263773,000003A4,false,Rx,9,3,03,00,2C,00,00,00,00,00,
9264701,00000010,false,Rx,9,7,B0,11,20,01,20,0D,00,00,
9271280,00000008,false,Rx,9,7,B0,01,20,0F,FF,07,00,00,
9277572,000000AA,false,Rx,9,2,AA,04,00,00,00,00,00,00,
9280562,00000040,false,Rx,9,3,B0,01,20,00,00,00,00,00,
9284773,00000010,false,Rx,9,7,B0,11,20,01,20,0D,00,00,
9288597,00000010,false,Rx,9,4,30,08,00,33,00,00,00,00,
9289478,00000010,false,Rx,9,4,31,08,00,32,00,00,00,00,
9290136,00000040,false,Rx,9,3,B0,33,B3,00,00,00,00,00,
9291427,00000008,false,Rx,9,7,B0,01,20,0C,B6,0F,FF,00,
9292614,00000008,false,Rx,9,7,B0,0E,00,07,00,0D,09,00,
9297617,000000AA,false,Rx,9,2,AA,04,00,00,00,00,00,00,
9303800,00000040,false,Rx,9,6,B0,01,23,92,FF,FF,00,00,
9304470,00000040,false,Rx,9,8,B0,93,E5,00,14,00,33,B3,
9307542,00000010,false,Rx,9,7,B0,11,23,01,20,0D,00,00,
9308223,0000029C,false,Rx,9,3,03,00,1A,00,00,00,00,00,
9311652,00000008,false,Rx,9,7,B0,01,20,0F,FF,07,00,00,
9317607,000000AA,false,Rx,9,2,AA,04,00,00,00,00,00,00,
9321129,00000040,false,Rx,9,3,B0,01,23,00,00,00,00,00,
9323809,000002BC,false,Rx,9,3,03,00,0F,00,00,00,00,00,
9324478,00000010,false,Rx,9,7,B0,11,23,01,20,0E,00,00,
9325351,00000010,false,Rx,9,3,B0,0D,00,00,00,00,00,00,
9328666,00000010,false,Rx,9,4,30,08,00,10,00,00,00,00,
9329855,00000040,false,Rx,9,4,B0,90,87,80,00,00,00,00,
9331466,00000008,false,Rx,9,7,B0,01,20,0F,FF,07,00,00,
9333392,00000008,false,Rx,9,4,30,02,00,0B,00,00,00,00,
9334578,00000010,false,Rx,9,3,B0,0B,00,00,00,00,00,00,
9337568,000000AA,false,Rx,9,2,AA,04,00,00,00,00,00,00,
9341512,00000040,false,Rx,9,6,B0,01,23,90,87,80,00,00,
9343952,000002B4,false,Rx,9,3,03,00,02,00,00,00,00,00,
9344974,00000010,false,Rx,9,7,B0,11,23,01,20,0D,00,00,
9346056,00000010,false,Rx,9,3,B0,0B,00,00,00,00,00,00,
9351310,00000008,false,Rx,9,7,B0,01,20,0F,FF,07,00,00,
9357807,000000AA,false,Rx,9,2,AA,04,00,00,00,00,00,00,
9361527,00000040,false,Rx,9,6,B0,01,23,90,87,80,00,00,
9363892,000003AC,false,Rx,9,3,03,00,1D,00,00,00,00,00,
9365034,00000010,false,Rx,9,7,B0,11,23,01,20,0D,00,00,
9366177,00000010,false,Rx,9,3,B0,0B,00,00,00,00,00,00,
9371285,00000008,false,Rx,9,7,B0,01,20,0F,FF,07,00,00,
9377666,000000AA,false,Rx,9,2,AA,04,00,00,00,00,00,00,
9381496,00000040,false,Rx,9,6,B0,01,23,90,87,80,00,00,
9384029,000003A4,false,Rx,9,3,03,00,2C,00,00,00,00,00,
9384960,00000010,false,Rx,9,7,B0,11,23,01,20,0D,00,00,
9386148,00000010,false,Rx,9,3,B0,0B,00,00,00,00,00,00,
9391385,00000008,false,Rx,9,7,B0,01,23,0F,FF,07,00,00,
9397625,000000AA,false,Rx,9,2,AA,04,00,00,00,00,00,00,
9401576,00000040,false,Rx,9,6,B0,01,23,90,87,80,00,00,
9405951,00000010,false,Rx,9,7,B0,11,23,01,23,0D,00,00,
9406744,00000010,false,Rx,9,3,B0,0B,00,00,00,00,00,00,
9411319,00000008,false,Rx,9,7,B0,01,25,0F,FF,07,00,00,
9417588,000000AA,false,Rx,9,2,AA,04,00,00,00,00,00,00,
9421319,00000040,false,Rx,9,6,B0,01,23,90,87,80,00,00,
9424233,0000029C,false,Rx,9,3,03,00,1A,00,00,00,00,00,
9426555,00000010,false,Rx,9,7,B0,11,23,01,25,0D,00,00,
9427595,00000010,false,Rx,9,3,B0,0B,00,00,00,00,00,00,
9431359,00000008,false,Rx,9,7,B0,01,25,0F,FF,07,00,00,
9438914,000000AA,false,Rx,9,2,AA,04,00,00,00,00,00,00,
9441476,00000040,false,Rx,9,6,B0,01,24,90,87,80,00,00,
9444187,000002BC,false,Rx,9,3,03,00,0F,00,00,00,00,00,
9446938,00000010,false,Rx,9,7,B0,11,24,01,25,0D,00,00,
9448236,00000010,false,Rx,9,3,B0,0B,00,00,00,00,00,00,
9451540,00000008,false,Rx,9,7,B0,01,25,0F,FF,07,00,00,
9457602,000000AA,false,Rx,9,2,AA,04,00,00,00,00,00,00,
9461057,00000040,false,Rx,9,6,B0,01,25,90,87,80,00,00,
9464237,000002B4,false,Rx,9,3,03,00,02,00,00,00,00,00,
9466907,00000010,false,Rx,9,7,B0,11,25,01,25,0D,00,00,
9468119,00000010,false,Rx,9,3,B0,0B,00,00,00,00,00,00,
9471683,00000008,false,Rx,9,7,B0,01,25,0F,FF,07,00,00,
9477652,000000AA,false,Rx,9,2,AA,04,00,00,00,00,00,00,
9480855,00000040,false,Rx,9,6,B0,01,25,90,87,80,00,00,
9482357,000003AC,false,Rx,9,3,03,00,1D,00,00,00,00,00,
9486794,00000010,false,Rx,9,7,B0,11,25,01,25,0D,00,00,
9487584,00000010,false,Rx,9,3,B0,0B,01,00,00,00,00,00,
9491527,00000008,false,Rx,9,7,B0,01,25,0C,B3,0F,FF,00,
9493246,00000008,false,Rx,9,7,B0,0E,00,07,00,0D,09,00,
9497611,000000AA,false,Rx,9,2,AA,04,00,00,00,00,00,00,
9500816,00000040,false,Rx,9,6,B0,01,25,90,87,80,00,00,
9502214,00000040,false,Rx,9,7,B0,92,FF,FF,93,E5,00,00,
9504308,00000040,false,Rx,9,5,B0,14,00,33,B3,00,00,00,
9504819,000003A4,false,Rx,9,3,03,00,2C,00,00,00,00,00,
9507951,00000010,false,Rx,9,7,B0,11,25,01,25,0D,00,00,
9508760,00000010,false,Rx,9,3,B0,0B,01,00,00,00,00,00,
9512488,00000008,false,Rx,9,7,B0,01,25,0F,FF,07,00,00,
9517704,000000AA,false,Rx,9,2,AA,04,00,00,00,00,00,00,
9520902,00000040,false,Rx,9,6,B0,01,25,90,87,80,00,00,
9526720,00000010,false,Rx,9,7,B0,11,25,01,25,0E,00,00,
9527727,00000010,false,Rx,9,5,B0,0D,00,0B,02,00,00,00,
9531666,00000008,false,Rx,9,7,B0,01,25,0F,FF,07,00,00,
9537617,000000AA,false,Rx,9,2,AA,04,00,00,00,00,00,00,
9541666,00000040,false,Rx,9,6,B0,01,25,90,89,80,00,00,
9544618,0000029C,false,Rx,9,3,03,00,1A,00,00,00,00,00,
9547511,00000010,false,Rx,9,7,B0,11,25,01,25,0D,00,00,
9548342,00000010,false,Rx,9,3,B0,0B,02,00,00,00,00,00,
9552288,00000008,false,Rx,9,7,B0,01,25,0F,FF,07,00,00,
9557713,000000AA,false,Rx,9,2,AA,04,00,00,00,00,00,00,
9561733,00000040,false,Rx,9,6,B0,01,25,90,87,80,00,00,
9564412,000002BC,false,Rx,9,3,03,00,0F,00,00,00,00,00,
9567020,00000010,false,Rx,9,7,B0,11,25,01,25,0D,00,00,
9568232,00000010,false,Rx,9,3,B0,0B,03,00,00,00,00,00,
9571646,00000008,false,Rx,9,7,B0,01,25,0F,FF,07,00,00,
9578982,000000AA,false,Rx,9,2,AA,04,00,00,00,00,00,00,
9581336,00000040,false,Rx,9,6,B0,01,25,90,87,80,00,00,
9584451,000002B4,false,Rx,9,3,03,00,0A,00,00,00,00,00,
9587009,00000010,false,Rx,9,7,B0,11,25,01,25,0D,00,00,
9588230,00000010,false,Rx,9,3,B0,0B,03,00,00,00,00,00,
9591799,00000008,false,Rx,9,7,B0,01,25,0F,FF,07,00,00,
9597772,000000AA,false,Rx,9,2,AA,04,00,00,00,00,00,00,
9601191,00000040,false,Rx,9,6,B0,01,25,90,87,80,00,00,
9602699,000003AC,false,Rx,9,3,03,00,1D,00,00,00,00,00,
9607046,00000010,false,Rx,9,7,B0,11,25,01,25,0D,00,00,
9608155,00000010,false,Rx,9,3,B0,0B,04,00,00,00,00,00,
9611565,00000008,false,Rx,9,7,B0,01,25,0F,FF,07,00,00,
9619219,000000AA,false,Rx,9,2,AA,04,00,00,00,00,00,00,
9621681,00000040,false,Rx,9,6,B0,01,25,90,89,80,00,00,
9624571,000003A4,false,Rx,9,3,03,00,2C,00,00,00,00,00,
9627026,00000010,false,Rx,9,7,B0,11,25,01,25,0D,00,00,
9628236,00000010,false,Rx,9,3,B0,0B,04,00,00,00,00,00,
9631633,00000008,false,Rx,9,7,B0,01,25,0F,FF,07,00,00,
9637714,000000AA,false,Rx,9,2,AA,04,00,00,00,00,00,00,
9641441,00000040,false,Rx,9,6,B0,01,25,90,89,80,00,00,
9646974,00000010,false,Rx,9,7,B0,11,25,01,25,0D,00,00,
9647733,00000010,false,Rx,9,3,B0,0B,05,00,00,00,00,00,
9651571,00000008,false,Rx,9,7,B0,01,25,0F,FF,07,00,00,
9657740,000000AA,false,Rx,9,2,AA,04,00,00,00,00,00,00,
9661466,00000040,false,Rx,9,6,B0,01,25,90,87,80,00,00,
9664903,0000029C,false,Rx,9,3,03,00,1A,00,00,00,00,00,
9667309,00000010,false,Rx,9,7,B0,11,25,01,25,0D,00,00,
9668428,00000010,false,Rx,9,3,B0,0B,05,00,00,00,00,00,
9671701,00000008,false,Rx,9,7,B0,01,25,0F,FF,07,00,00,
9677772,000000AA,false,Rx,9,2,AA,04,00,00,00,00,00,00,
9681712,00000040,false,Rx,9,6,B0,01,25,90,89,80,00,00,
9684799,000002BC,false,Rx,9,3,03,00,0F,00,00,00,00,00,
9686992,00000010,false,Rx,9,7,B0,11,25,01,25,0D,00,00,
9688197,00000010,false,Rx,9,3,B0,0B,05,00,00,00,00,00,
9689278,00000010,false,Rx,9,4,30,08,00,34,00,00,00,00,
9691628,00000008,false,Rx,9,7,B0,01,25,0C,B3,0F,FF,00,
9692391,00000010,false,Rx,9,4,31,08,00,33,00,00,00,00,
9693471,00000008,false,Rx,9,7,B0,0E,00,07,00,0D,09,00,
9694236,00000040,false,Rx,9,3,B0,34,4D,00,00,00,00,00,
9697755,000000AA,false,Rx,9,2,AA,04,00,00,00,00,00,00,
9701481,00000040,false,Rx,9,6,B0,01,25,90,89,80,00,00,
9702777,00000040,false,Rx,9,7,B0,92,FF,FF,93,E5,00,00,
9704883,00000040,false,Rx,9,5,B0,14,00,34,4D,00,00,00,
9705500,000002B4,false,Rx,9,3,03,00,02,00,00,00,00,00,
9708575,00000010,false,Rx,9,7,B0,11,25,01,25,0D,00,00,
9709471,00000010,false,Rx,9,3,B0,0B,06,00,00,00,00,00,
9712565,00000008,false,Rx,9,7,B0,01,25,0F,FF,07,00,00,
9717786,000000AA,false,Rx,9,2,AA,04,00,00,00,00,00,00,
9721832,00000040,false,Rx,9,6,B0,01,25,90,89,80,00,00,
9724816,000003AC,false,Rx,9,3,03,00,1D,00,00,00,00,00,
9726959,00000010,false,Rx,9,7,B0,11,25,01,25,0E,00,00,
9728368,00000010,false,Rx,9,5,B0,0D,00,0B,06,00,00,00,
9731678,00000008,false,Rx,9,7,B0,01,25,0F,FF,07,00,00,
9739327,000000AA,false,Rx,9,2,AA,04,00,00,00,00,00,00,
9741683,00000040,false,Rx,9,6,B0,01,25,90,89,80,00,00,
9743294,000003A4,false,Rx,9,3,03,00,2C,00,00,00,00,00,
9746997,00000010,false,Rx,9,7,B0,11,25,01,25,0D,00,00,
9748217,00000010,false,Rx,9,3,B0,0B,07,00,00,00,00,00,
9751637,00000008,false,Rx,9,7,B0,01,25,0F,FF,07,00,00,
9759301,000000AA,false,Rx,9,2,AA,04,00,00,00,00,00,00,
9761652,00000040,false,Rx,9,6,B0,01,25,90,89,80,00,00,
9766890,00000010,false,Rx,9,7,B0,11,25,01,25,0D,00,00,
9767685,00000010,false,Rx,9,3,B0,0B,07,00,00,00,00,00,
9771649,00000008,false,Rx,9,7,B0,01,25,0F,FF,07,00,00,
9778726,000000AA,false,Rx,9,2,AA,04,00,00,00,00,00,00,
9781483,00000040,false,Rx,9,6,B0,01,25,90,87,80,00,00,
9785079,0000029C,false,Rx,9,3,03,00,1A,00,00,00,00,00,
9787507,00000010,false,Rx,9,7,B0,11,25,01,25,0D,00,00,
9788380,00000010,false,Rx,9,3,B0,0B,06,00,00,00,00,00,
9792322,00000008,false,Rx,9,7,B0,01,25,0F,FF,07,00,00,
9799124,000000AA,false,Rx,9,2,AA,04,00,00,00,00,00,00,
9801476,00000040,false,Rx,9,6,B0,01,25,90,87,80,00,00,
9803087,000002BC,false,Rx,9,3,03,00,0F,00,00,00,00,00,
9806984,00000010,false,Rx,9,7,B0,11,25,01,25,0D,00,00,
9808208,00000010,false,Rx,9,3,B0,0B,06,00,00,00,00,00,
9811709,00000008,false,Rx,9,7,B0,01,25,0F,FF,07,00,00,
9817781,000000AA,false,Rx,9,2,AA,04,00,00,00,00,00,00,
9821724,00000040,false,Rx,9,6,B0,01,25,90,87,80,00,00,
9823336,000002B4,false,Rx,9,3,03,00,02,00,00,00,00,00,
9827057,00000010,false,Rx,9,7,B0,11,25,01,25,0D,00,00,
9828168,00000010,false,Rx,9,3,B0,0B,05,00,00,00,00,00,
9831686,00000008,false,Rx,9,7,B0,01,25,0F,FF,07,00,00,
9837748,000000AA,false,Rx,9,2,AA,04,00,00,00,00,00,00,
9841691,00000040,false,Rx,9,6,B0,01,25,90,89,80,00,00,
9843301,000003AC,false,Rx,9,3,03,00,1D,00,00,00,00,00,
9847102,00000010,false,Rx,9,7,B0,11,25,01,25,0D,00,00,
9848291,00000010,false,Rx,9,3,B0,0B,06,00,00,00,00,00,
9851594,00000008,false,Rx,9,7,B0,01,25,0F,FF,07,00,00,
9859143,000000AA,false,Rx,9,2,AA,04,00,00,00,00,00,00,
9861495,00000040,false,Rx,9,6,B0,01,25,90,89,80,00,00,
9863107,000003A4,false,Rx,9,3,03,00,2C,00,00,00,00,00,
9867181,00000010,false,Rx,9,7,B0,11,25,01,25,0D,00,00,
9868286,00000010,false,Rx,9,3,B0,0B,06,00,00,00,00,00,
9871649,00000008,false,Rx,9,7,B0,01,25,0F,FF,07,00,00,
9877878,000000AA,false,Rx,9,2,AA,04,00,00,00,00,00,00,
9881628,00000040,false,Rx,9,6,B0,01,25,90,8B,80,00,00,
9886971,00000010,false,Rx,9,7,B0,11,25,01,25,0D,00,00,
9887756,00000010,false,Rx,9,3,B0,0B,07,00,00,00,00,00,
9891586,00000008,false,Rx,9,7,B0,01,25,0C,B3,0F,FF,00,
9893303,00000008,false,Rx,9,7,B0,0E,00,07,00,0D,09,00,
9897880,000000AA,false,Rx,9,2,AA,04,00,00,00,00,00,00,
9901937,00000040,false,Rx,9,6,B0,01,25,90,8E,7E,00,00,
9903441,00000040,false,Rx,9,7,B0,92,FF,FF,93,E5,00,00,
9905226,00000040,false,Rx,9,5,B0,14,00,34,4D,00,00,00,
9907278,0000029C,false,Rx,9,3,03,00,1A,00,00,00,00,00,
9908856,00000010,false,Rx,9,7,B0,11,25,01,25,0D,00,00,
9909635,00000010,false,Rx,9,3,B0,0B,07,00,00,00,00,00,
9912622,00000008,false,Rx,9,7,B0,01,25,0F,FF,07,00,00,
9917841,000000AA,false,Rx,9,2,AA,04,00,00,00,00,00,00,
9922312,00000040,false,Rx,9,6,B0,01,25,90,8F,7E,00,00,
9925196,000002BC,false,Rx,9,3,03,00,0F,00,00,00,00,00,
9927029,00000010,false,Rx,9,7,B0,11,25,01,25,0E,00,00,
9928439,00000010,false,Rx,9,5,B0,0D,00,0B,08,00,00,00,
9931748,00000008,false,Rx,9,7,B0,01,25,0F,FF,07,00,00,
9937809,000000AA,false,Rx,9,2,AA,04,00,00,00,00,00,00,
9942065,00000040,false,Rx,9,6,B0,01,25,90,90,7E,00,00,
9943677,000002B4,false,Rx,9,3,03,00,0A,00,00,00,00,00,
9947098,00000010,false,Rx,9,7,B0,11,25,01,25,0D,00,00,
9948213,00000010,false,Rx,9,3,B0,0B,08,00,00,00,00,00,
9951713,00000008,false,Rx,9,7,B0,01,25,0F,FF,07,00,00,
9957884,000000AA,false,Rx,9,2,AA,04,00,00,00,00,00,00,
9961749,00000040,false,Rx,9,6,B0,01,25,90,90,7E,00,00,
9963357,000003AC,false,Rx,9,3,03,00,1D,00,00,00,00,00,
9967064,00000010,false,Rx,9,7,B0,11,25,01,25,0D,00,00,
9968271,00000010,false,Rx,9,3,B0,0B,09,00,00,00,00,00,
9971616,00000008,false,Rx,9,7,B0,01,25,0F,FF,07,00,00,
9977955,000000AA,false,Rx,9,2,AA,04,00,00,00,00,00,00,
9981492,00000040,false,Rx,9,6,B0,01,25,90,90,7E,00,00,
9983104,000003A4,false,Rx,9,3,03,00,2C,00,00,00,00,00,
9987011,00000010,false,Rx,9,7,B0,11,25,01,25,0D,00,00,
9988234,00000010,false,Rx,9,3,B0,0B,09,00,00,00,00,00,
9991660,00000008,false,Rx,9,7,B0,01,25,0F,FF,07,00,00,
9997831,000000AA,false,Rx,9,2,AA,04,00,00,00,00,00,00,
10001666,00000040,false,Rx,9,6,B0,01,25,90,90,7E,00,00,
10007054,00000010,false,Rx,9,7,B0,11,25,01,25,0D,00,00,
10007849,00000010,false,Rx,9,3,B0,0B,0A,00,00,00,00,00,
10011687,00000008,false,Rx,9,7,B0,01,25,0F,FF,07,00,00,
10017853,000000AA,false,Rx,9,2,AA,04,00,00,00,00,00,00,
10021159,00000040,false,Rx,9,6,B0,01,25,90,90,7E,00,00,
10023891,0000029C,false,Rx,9,3,03,00,1A,00,00,00,00,00,
10027552,00000010,false,Rx,9,7,B0,11,25,01,25,0D,00,00,
10028456,00000010,false,Rx,9,3,B0,0B,0A,00,00,00,00,00,
10032346,00000008,false,Rx,9,7,B0,01,25,0F,FF,07,00,00,
10037889,000000AA,false,Rx,9,2,AA,04,00,00,00,00,00,00,
10041727,00000040,false,Rx,9,6,B0,01,25,90,90,7E,00,00,
10043336,000002BC,false,Rx,9,3,03,00,0F,00,00,00,00,00,
10047123,00000010,false,Rx,9,7,B0,11,25,01,25,0D,00,00,
10048239,00000010,false,Rx,9,3,B0,0B,0B,00,00,00,00,00,
10051646,00000008,false,Rx,9,7,B0,01,25,0F,FF,07,00,00,
10057922,000000AA,false,Rx,9,2,AA,04,00,00,00,00,00,00,
10061330,00000040,false,Rx,9,6,B0,01,25,90,90,7E,00,00,
10062834,000002B4,false,Rx,9,3,03,00,0A,00,00,00,00,00,
10067090,00000010,false,Rx,9,7,B0,11,25,01,25,0D,00,00,
10068366,00000010,false,Rx,9,3,B0,0B,0B,00,00,00,00,00,
10071687,00000008,false,Rx,9,7,B0,01,25,0F,FF,07,00,00,
10077966,000000AA,false,Rx,9,2,AA,04,00,00,00,00,00,00,
10081704,00000040,false,Rx,9,6,B0,01,25,90,91,7E,00,00,
10083312,000003AC,false,Rx,9,3,03,00,1D,00,00,00,00,00,
10087034,00000010,false,Rx,9,7,B0,11,25,01,25,0D,00,00,
10088252,00000010,false,Rx,9,3,B0,0B,0C,00,00,00,00,00,
10089330,00000010,false,Rx,9,4,30,08,00,35,00,00,00,00,
10091726,00000008,false,Rx,9,7,B0,01,25,0C,B4,0F,FF,00,
10092792,00000010,false,Rx,9,4,31,08,00,34,00,00,00,00,
10093514,00000008,false,Rx,9,7,B0,0E,00,07,00,0D,09,00,
10094278,00000040,false,Rx,9,3,B0,35,BF,00,00,00,00,00,
10097902,000000AA,false,Rx,9,2,AA,04,00,00,00,00,00,00,
10102161,00000040,false,Rx,9,6,B0,01,25,90,91,7E,00,00,
10103666,00000040,false,Rx,9,7,B0,92,FF,FF,93,E5,00,00,
10105867,00000040,false,Rx,9,5,B0,14,00,35,BF,00,00,00,
10106262,000003A4,false,Rx,9,3,03,00,2C,00,00,00,00,00,
10108618,00000010,false,Rx,9,7,B0,11,25,01,25,0D,00,00,
10109488,00000010,false,Rx,9,3,B0,0B,0C,00,00,00,00,00,
10112582,00000008,false,Rx,9,7,B0,01,25,0F,FF,07,00,00,
10117904,000000AA,false,Rx,9,2,AA,04,00,00,00,00,00,00,
10121421,00000040,false,Rx,9,6,B0,01,25,90,91,7E,00,00,
10127031,00000010,false,Rx,9,7,B0,11,25,01,25,0E,00,00,
10128357,00000010,false,Rx,9,5,B0,0D,00,0B,0C,00,00,00,
10131811,00000008,false,Rx,9,7,B0,01,25,0F,FF,07,00,00,
10138625,000000AA,false,Rx,9,2,AA,04,00,00,00,00,00,00,
10141087,00000040,false,Rx,9,6,B0,01,25,90,91,7E,00,00,
10143930,0000029C,false,Rx,9,3,03,00,1A,00,00,00,00,00,
10147515,00000010,false,Rx,9,7,B0,11,25,01,25,0D,00,00,
10148410,00000010,false,Rx,9,3,B0,0B,0D,00,00,00,00,00,
10151714,00000008,false,Rx,9,7,B0,01,25,0F,FF,07,00,00,
10159786,000000AA,false,Rx,9,2,AA,04,00,00,00,00,00,00,
10162135,00000040,false,Rx,9,6,B0,01,25,90,91,7E,00,00,
10163748,000002BC,false,Rx,9,3,03,00,0F,00,00,00,00,00,
10167149,00000010,false,Rx,9,7,B0,11,25,01,25,0D,00,00,
10168265,00000010,false,Rx,9,3,B0,0B,0D,00,00,00,00,00,
10171663,00000008,false,Rx,9,7,B0,01,25,0F,FF,07,00,00,
10179285,000000AA,false,Rx,9,2,AA,04,00,00,00,00,00,00,
10181586,00000040,false,Rx,9,6,B0,01,25,90,92,7E,00,00,
10183180,000002B4,false,Rx,9,3,03,00,02,00,00,00,00,00,
10187126,00000010,false,Rx,9,7,B0,11,25,01,25,0D,00,00,
10188336,00000010,false,Rx,9,3,B0,0B,0E,00,00,00,00,00,
10191640,00000008,false,Rx,9,7,B0,01,25,0F,FF,07,00,00,
10197919,000000AA,false,Rx,9,2,AA,04,00,00,00,00,00,00,
10201756,00000040,false,Rx,9,6,B0,01,25,90,92,7E,00,00,
10203365,000003AC,false,Rx,9,3,03,00,1D,00,00,00,00,00,
10207078,00000010,false,Rx,9,7,B0,11,25,01,25,0D,00,00,
10208299,00000010,false,Rx,9,3,B0,0B,0E,00,00,00,00,00,
10211680,00000008,false,Rx,9,7,B0,01,25,0F,FF,07,00,00,
10217964,000000AA,false,Rx,9,2,AA,04,00,00,00,00,00,00,
10221376,00000040,false,Rx,9,6,B0,01,25,90,93,7E,00,00,
10222882,000003A4,false,Rx,9,3,03,00,2C,00,00,00,00,00,
10227124,00000010,false,Rx,9,7,B0,11,25,01,25,0D,00,00,
10228239,00000010,false,Rx,9,3,B0,0B,0F,00,00,00,00,00,
10231649,00000008,false,Rx,9,7,B0,01,25,0F,FF,07,00,00,
10238029,000000AA,false,Rx,9,2,AA,04,00,00,00,00,00,00,
10241866,00000040,false,Rx,9,6,B0,01,25,90,94,7E,00,00,
10247039,00000010,false,Rx,9,7,B0,11,25,01,25,0D,00,00,
10247834,00000010,false,Rx,9,3,B0,0B,0F,00,00,00,00,00,
10251734,00000008,false,Rx,9,7,B0,01,25,0F,FF,07,00,00,
10258651,000000AA,false,Rx,9,2,AA,04,00,00,00,00,00,00,
10261109,00000040,false,Rx,9,6,B0,01,25,90,94,7E,00,00,
10263950,0000029C,false,Rx,9,3,03,00,1A,00,00,00,00,00,
10267574,00000010,false,Rx,9,7,B0,11,25,01,25,0D,00,00,
10268469,00000010,false,Rx,9,3,B0,0B,10,00,00,00,00,00,
10272412,00000008,false,Rx,9,7,B0,01,25,0F,FF,07,00,00,
10277946,000000AA,false,Rx,9,2,AA,04,00,00,00,00,00,00,
10281192,00000040,false,Rx,9,6,B0,01,25,90,94,7E,00,00,
10282734,000002BC,false,Rx,9,3,03,00,0F,00,00,00,00,00,
10286999,00000010,false,Rx,9,7,B0,11,25,01,25,0D,00,00,
10287877,00000010,false,Rx,9,3,B0,0B,10,00,00,00,00,00,
10291651,00000008,false,Rx,9,7,B0,01,25,0C,B4,0F,FF,00,
10293378,00000008,false,Rx,9,7,B0,0E,00,07,00,0D,09,00,
10298064,000000AA,false,Rx,9,2,AA,04,00,00,00,00,00,00,
10302430,00000040,false,Rx,9,6,B0,01,25,90,94,7E,00,00,
10303831,00000040,false,Rx,9,7,B0,92,FF,FF,93,E5,00,00,
10306457,00000040,false,Rx,9,5,B0,14,00,35,BF,00,00,00,
10306480,000002B4,false,Rx,9,3,03,00,0A,00,00,00,00,00,
10308172,00000010,false,Rx,9,7,B0,11,25,01,25,0D,00,00,
10309359,00000010,false,Rx,9,3,B0,0B,10,00,00,00,00,00,
10312556,00000008,false,Rx,9,7,B0,01,25,0F,FF,07,00,00,
10317987,000000AA,false,Rx,9,2,AA,04,00,00,00,00,00,00,
10322346,00000040,false,Rx,9,6,B0,01,25,90,94,7E,00,00,
10324383,000003AC,false,Rx,9,3,03,00,1D,00,00,00,00,00,
10327013,00000010,false,Rx,9,7,B0,11,25,01,25,0E,00,00,
10328020,00000010,false,Rx,9,5,B0,0D,00,0B,10,00,00,00,
10331829,00000008,false,Rx,9,7,B0,01,25,0F,FF,07,00,00,
10338004,000000AA,false,Rx,9,2,AA,04,00,00,00,00,00,00,
10341948,00000040,false,Rx,9,6,B0,01,25,90,94,7E,00,00,
10343602,000003A4,false,Rx,9,3,03,00,2C,00,00,00,00,00,
10347106,00000010,false,Rx,9,7,B0,11,25,01,25,0D,00,00,
10347824,00000010,false,Rx,9,3,B0,0B,10,00,00,00,00,00,
10351662,00000008,false,Rx,9,7,B0,01,25,0F,FF,07,00,00,
10358042,000000AA,false,Rx,9,2,AA,04,00,00,00,00,00,00,
10361556,00000040,false,Rx,9,6,B0,01,25,90,95,7E,00,00,
10367045,00000010,false,Rx,9,7,B0,11,25,01,25,0D,00,00,
10367841,00000010,false,Rx,9,3,B0,0B,10,00,00,00,00,00,
10371698,00000008,false,Rx,9,7,B0,01,25,0F,FF,07,00,00,
10378727,000000AA,false,Rx,9,2,AA,04,00,00,00,00,00,00,
10381150,00000040,false,Rx,9,6,B0,01,25,90,94,7E,00,00,
10383999,0000029C,false,Rx,9,3,03,00,1A,00,00,00,00,00,
10387539,00000010,false,Rx,9,7,B0,11,25,01,25,0D,00,00,
10388442,00000010,false,Rx,9,3,B0,0B,10,00,00,00,00,00,
10391750,00000008,false,Rx,9,7,B0,01,25,0F,FF,07,00,00,
10398024,000000AA,false,Rx,9,2,AA,04,00,00,00,00,00,00,
10402012,00000040,false,Rx,9,6,B0,01,25,90,94,7E,00,00,
10403527,000002BC,false,Rx,9,3,03,00,0F,00,00,00,00,00,
10407015,00000010,false,Rx,9,7,B0,11,25,01,25,0D,00,00,
10407811,00000010,false,Rx,9,3,B0,0B,10,00,00,00,00,00,
10411737,00000008,false,Rx,9,7,B0,01,25,0F,FF,07,00,00,
10419604,000000AA,false,Rx,9,2,AA,04,00,00,00,00,00,00,
10421958,00000040,false,Rx,9,6,B0,01,25,90,95,7E,00,00,
10423568,000002B4,false,Rx,9,3,03,00,0A,00,00,00,00,00,
10427178,00000010,false,Rx,9,7,B0,11,25,01,25,0D,00,00,
10428288,00000010,false,Rx,9,3,B0,0B,10,00,00,00,00,00,
10431704,00000008,false,Rx,9,7,B0,01,25,0F,FF,07,00,00,
10438077,000000AA,false,Rx,9,2,AA,04,00,00,00,00,00,00,
10441488,00000040,false,Rx,9,6,B0,01,25,90,94,7E,00,00,
10442888,000003AC,false,Rx,9,3,03,00,1D,00,00,00,00,00,
10447033,00000010,false,Rx,9,7,B0,11,25,01,25,0D,00,00,
10447829,00000010,false,Rx,9,3,B0,0B,10,00,00,00,00,00,
10451796,00000008,false,Rx,9,7,B0,01,25,0F,FF,07,00,00,
10458083,000000AA,false,Rx,9,2,AA,04,00,00,00,00,00,00,
10462027,00000040,false,Rx,9,6,B0,01,25,90,95,7E,00,00,
10463634,000003A4,false,Rx,9,3,03,00,2C,00,00,00,00,00,
10467163,00000010,false,Rx,9,7,B0,11,25,01,25,0D,00,00,
10468275,00000010,false,Rx,9,3,B0,0B,10,00,00,00,00,00,
10471691,00000008,false,Rx,9,7,B0,01,25,0F,FF,07,00,00,
10478068,000000AA,false,Rx,9,2,AA,04,00,00,00,00,00,00,
10481268,00000040,false,Rx,9,6,B0,01,25,90,94,7E,00,00,
10486942,00000010,false,Rx,9,7,B0,11,25,01,25,0D,00,00,
10487807,00000010,false,Rx,9,3,B0,0B,10,00,00,00,00,00,
10488753,00000010,false,Rx,9,4,31,08,00,35,00,00,00,00,
10491714,00000008,false,Rx,9,7,B0,01,25,0C,B4,0F,FF,00,
10493537,00000008,false,Rx,9,7,B0,0E,00,07,00,0D,09,00,
10498075,000000AA,false,Rx,9,2,AA,04,00,00,00,00,00,00,
10501170,00000040,false,Rx,9,6,B0,01,25,90,94,7E,00,00,
10502568,00000040,false,Rx,9,7,B0,92,FF,FF,93,E5,00,00,
10503544,00000040,false,Rx,9,3,B0,14,00,00,00,00,00,00,
10506828,0000029C,false,Rx,9,3,03,00,1A,00,00,00,00,00,
10508660,00000010,false,Rx,9,7,B0,11,25,01,25,0D,00,00,
10509534,00000010,false,Rx,9,3,B0,0B,10,00,00,00,00,00,
10512627,00000008,false,Rx,9,7,B0,01,25,0F,FF,07,00,00,
10518054,000000AA,false,Rx,9,2,AA,04,00,00,00,00,00,00,
10521681,00000040,false,Rx,9,6,B0,01,25,90,94,7E,00,00,
10523288,000002BC,false,Rx,9,3,03,00,0F,00,00,00,00,00,
10526994,00000010,false,Rx,9,7,B0,11,25,01,25,0E,00,00,
10528110,00000010,false,Rx,9,5,B0,0D,00,0B,10,00,00,00,
10531803,00000008,false,Rx,9,7,B0,01,25,0F,FF,07,00,00,
10538087,000000AA,false,Rx,9,2,AA,04,00,00,00,00,00,00,
10541285,00000040,false,Rx,9,6,B0,01,25,90,94,7E,00,00,
10542791,000002B4,false,Rx,9,3,03,00,02,00,00,00,00,00,
10547065,00000010,false,Rx,9,7,B0,11,25,01,25,0D,00,00,
10547835,00000010,false,Rx,9,3,B0,0B,10,00,00,00,00,00,
10551766,00000008,false,Rx,9,7,B0,01,25,0F,FF,07,00,00,
10559951,000000AA,false,Rx,9,2,AA,04,00,00,00,00,00,00,
10562301,00000040,false,Rx,9,6,B0,01,25,90,95,7F,00,00,
10563914,000003AC,false,Rx,9,3,03,00,1D,00,00,00,00,00,
10567209,00000010,false,Rx,9,7,B0,11,25,01,25,0D,00,00,
10568426,00000010,false,Rx,9,3,B0,0B,10,00,00,00,00,00,
10571769,00000008,false,Rx,9,7,B0,01,25,0F,FF,07,00,00,
10578165,000000AA,false,Rx,9,2,AA,04,00,00,00,00,00,00,
10581999,00000040,false,Rx,9,6,B0,01,25,90,95,7F,00,00,
10583609,000003A4,false,Rx,9,3,03,00,2C,00,00,00,00,00,
10587136,00000010,false,Rx,9,7,B0,11,25,01,25,0D,00,00,
10588355,00000010,false,Rx,9,3,B0,0B,11,00,00,00,00,00,
10591704,00000008,false,Rx,9,7,B0,01,25,0F,FF,07,00,00,
10599743,000000AA,false,Rx,9,2,AA,04,00,00,00,00,00,00,
10602010,00000040,false,Rx,9,6,B0,01,25,90,95,7F,00,00,
10607088,00000010,false,Rx,9,7,B0,11,25,01,25,0D,00,00,
10607800,00000010,false,Rx,9,3,B0,0B,11,00,00,00,00,00,
10611741,00000008,false,Rx,9,7,B0,01,25,0F,FF,07,00,00,
10620132,000000AA,false,Rx,9,2,AA,04,00,00,00,00,00,00,
10622483,00000040,false,Rx,9,6,B0,01,25,90,94,7F,00,00,
10627067,0000029C,false,Rx,9,3,03,00,1A,00,00,00,00,00,
10627671,00000010,false,Rx,9,7,B0,11,25,01,25,0D,00,00,
10628569,00000010,false,Rx,9,3,B0,0B,10,00,00,00,00,00,
10632684,00000008,false,Rx,9,7,B0,01,25,0F,FF,07,00,00,
10638171,000000AA,false,Rx,9,2,AA,04,00,00,00,00,00,00,
10641477,00000040,false,Rx,9,6,B0,01,25,90,94,80,00,00,
10642983,000002BC,false,Rx,9,3,03,00,0F,00,00,00,00,00,
10647149,00000010,false,Rx,9,7,B0,11,25,01,25,0D,00,00,
10647914,00000010,false,Rx,9,3,B0,0B,10,00,00,00,00,00,
10651706,00000008,false,Rx,9,7,B0,01,25,0F,FF,07,00,00,
10658193,000000AA,false,Rx,9,2,AA,04,00,00,00,00,00,00,
10662027,00000040,false,Rx,9,6,B0,01,25,90,94,7F,00,00,
10663635,000002B4,false,Rx,9,3,03,00,02,00,00,00,00,00,
10667124,00000010,false,Rx,9,7,B0,11,25,01,25,0D,00,00,
10667922,00000010,false,Rx,9,3,B0,0B,10,00,00,00,00,00,
10671801,00000008,false,Rx,9,7,B0,01,25,0F,FF,07,00,00,
10678196,000000AA,false,Rx,9,2,AA,04,00,00,00,00,00,00,
10682135,00000040,false,Rx,9,6,B0,01,25,90,94,7F,00,00,
10683652,000003AC,false,Rx,9,3,03,00,1D,00,00,00,00,00,
10687161,00000010,false,Rx,9,7,B0,11,25,01,25,0D,00,00,
10687863,00000010,false,Rx,9,3,B0,0B,10,00,00,00,00,00,
10691633,00000008,false,Rx,9,7,B0,01,25,0C,B4,0F,FF,00,
10693384,00000008,false,Rx,9,7,B0,0E,00,07,00,0D,09,00,
10698816,000000AA,false,Rx,9,2,AA,04,00,00,00,00,00,00,
10701273,00000040,false,Rx,9,6,B0,01,25,90,94,7F,00,00,
10702675,00000040,false,Rx,9,7,B0,92,FF,FF,93,E5,00,00,
10703540,00000040,false,Rx,9,3,B0,14,00,00,00,00,00,00,
10704939,000003A4,false,Rx,9,3,03,00,2C,00,00,00,00,00,
10708138,00000010,false,Rx,9,7,B0,11,25,01,25,0D,00,00,
10708933,00000010,false,Rx,9,3,B0,0B,10,00,00,00,00,00,
10712673,00000008,false,Rx,9,7,B0,01,25,0F,FF,07,00,00,
10718212,000000AA,false,Rx,9,2,AA,04,00,00,00,00,00,00,
10721733,00000040,false,Rx,9,6,B0,01,25,90,94,7F,00,00,
10727245,00000010,false,Rx,9,7,B0,11,25,01,25,0E,00,00,
10728052,00000010,false,Rx,9,5,B0,0D,00,0B,10,00,00,00,
10731790,00000008,false,Rx,9,7,B0,01,25,0F,FF,07,00,00,
10738168,000000AA,false,Rx,9,2,AA,04,00,00,00,00,00,00,
10741365,00000040,false,Rx,9,6,B0,01,25,90,94,7F,00,00,
10744207,0000029C,false,Rx,9,3,03,00,1A,00,00,00,00,00,
10747633,00000010,false,Rx,9,7,B0,11,25,01,25,0D,00,00,
10748533,00000010,false,Rx,9,3,B0,0B,10,00,00,00,00,00,
10751840,00000008,false,Rx,9,7,B0,01,25,0F,FF,07,00,00,
10758231,000000AA,false,Rx,9,2,AA,04,00,00,00,00,00,00,
10761750,00000040,false,Rx,9,6,B0,01,25,90,94,80,00,00,
10763360,000002BC,false,Rx,9,3,03,00,0F,00,00,00,00,00,
10767373,00000010,false,Rx,9,7,B0,11,25,01,25,0D,00,00,
10768311,00000010,false,Rx,9,3,B0,0B,10,00,00,00,00,00,
10771726,00000008,false,Rx,9,7,B0,01,25,0F,FF,07,00,00,
10778548,000000AA,false,Rx,9,2,AA,04,00,00,00,00,00,00,
10781729,00000040,false,Rx,9,6,B0,01,25,90,94,80,00,00,
10783258,000002B4,false,Rx,9,3,03,00,0A,00,00,00,00,00,
10787367,00000010,false,Rx,9,7,B0,11,25,01,25,0D,00,00,
10787885,00000010,false,Rx,9,3,B0,0B,10,00,00,00,00,00,
10791773,00000008,false,Rx,9,7,B0,01,25,0F,FF,07,00,00,
10798936,000000AA,false,Rx,9,2,AA,04,00,00,00,00,00,00,
10801303,00000040,false,Rx,9,6,B0,01,25,90,94,80,00,00,
10802808,000003AC,false,Rx,9,3,03,00,1D,00,00,00,00,00,
10807499,00000010,false,Rx,9,7,B0,11,25,01,25,0D,00,00,
10807871,00000010,false,Rx,9,3,B0,0B,10,00,00,00,00,00,
10811731,00000008,false,Rx,9,7,B0,01,25,0F,FF,07,00,00,
10818229,000000AA,false,Rx,9,2,AA,04,00,00,00,00,00,00,
10821322,00000040,false,Rx,9,6,B0,01,25,90,94,80,00,00,
10822829,000003A4,false,Rx,9,3,03,00,2C,00,00,00,00,00,
10827467,00000010,false,Rx,9,7,B0,11,25,01,25,0D,00,00,
10827870,00000010,false,Rx,9,3,B0,0B,10,00,00,00,00,00,
10831717,00000008,false,Rx,9,7,B0,01,25,0F,FF,07,00,00,
10838840,000000AA,false,Rx,9,2,AA,04,00,00,00,00,00,00,
10841298,00000040,false,Rx,9,6,B0,01,25,90,95,80,00,00,
10847507,00000010,false,Rx,9,7,B0,11,25,01,25,0D,00,00,
10847996,00000010,false,Rx,9,3,B0,0B,10,00,00,00,00,00,
10851738,00000008,false,Rx,9,7,B0,01,25,0F,FF,07,00,00,
10858223,000000AA,false,Rx,9,2,AA,04,00,00,00,00,00,00,
10861952,00000040,false,Rx,9,6,B0,01,25,90,96,80,00,00,
10864794,0000029C,false,Rx,9,3,03,00,1A,00,00,00,00,00,
10867695,00000010,false,Rx,9,7,B0,11,25,01,25,0D,00,00,
10868489,00000010,false,Rx,9,3,B0,0B,11,00,00,00,00,00,
10872506,00000008,false,Rx,9,7,B0,01,25,0F,FF,07,00,00,
10878262,000000AA,false,Rx,9,2,AA,04,00,00,00,00,00,00,
10881568,00000040,false,Rx,9,6,B0,01,25,90,96,80,00,00,
10883075,000002BC,false,Rx,9,3,03,00,0F,00,00,00,00,00,
10887629,00000010,false,Rx,9,7,B0,11,25,01,25,0D,00,00,
10888450,00000010,false,Rx,9,3,B0,0B,11,00,00,00,00,00,
10891652,00000008,false,Rx,9,7,B0,01,25,0C,B5,0F,FF,00,
10893411,00000008,false,Rx,9,7,B0,0E,00,07,00,0D,09,00,
10898260,000000AA,false,Rx,9,2,AA,04,00,00,00,00,00,00,
10901403,00000040,false,Rx,9,6,B0,01,25,90,96,80,00,00,
10902807,00000040,false,Rx,9,7,B0,92,FF,FF,93,E5,00,00,
10903677,00000040,false,Rx,9,3,B0,14,00,00,00,00,00,00,
10905071,000002B4,false,Rx,9,3,03,00,02,00,00,00,00,00,
10908236,00000010,false,Rx,9,7,B0,11,25,01,25,0D,00,00,
10909349,00000010,false,Rx,9,3,B0,0B,12,00,00,00,00,00,
10912744,00000008,false,Rx,9,7,B0,01,25,0F,FF,07,00,00,
10918922,000000AA,false,Rx,9,2,AA,04,00,00,00,00,00,00,
10921378,00000040,false,Rx,9,6,B0,01,25,90,96,80,00,00,
10922883,000003AC,false,Rx,9,3,03,00,1D,00,00,00,00,00,
10927739,00000010,false,Rx,9,7,B0,11,25,01,25,0E,00,00,
10928150,00000010,false,Rx,9,5,B0,0D,00,0B,12,00,00,00,
10931783,00000008,false,Rx,9,7,B0,01,25,0F,FF,07,00,00,
10938268,000000AA,false,Rx,9,2,AA,04,00,00,00,00,00,00,
10941468,00000040,false,Rx,9,6,B0,01,25,90,96,7F,00,00,
10942975,000003A4,false,Rx,9,3,03,00,2C,00,00,00,00,00,
10947825,00000010,false,Rx,9,7,B0,11,25,01,25,0D,00,00,
10948338,00000010,false,Rx,9,3,B0,0B,12,00,00,00,00,00,
10951795,00000008,false,Rx,9,7,B0,01,25,0F,FF,07,00,00,
10958240,000000AA,false,Rx,9,2,AA,04,00,00,00,00,00,00,
10961439,00000040,false,Rx,9,6,B0,01,25,90,96,7F,00,00,
10967911,00000010,false,Rx,9,7,B0,11,25,01,25,0D,00,00,
10967930,00000010,false,Rx,9,3,B0,0B,12,00,00,00,00,00,
10971720,00000008,false,Rx,9,7,B0,01,25,0F,FF,07,00,00,
10978314,000000AA,false,Rx,9,2,AA,04,00,00,00,00,00,00,
10981406,00000040,false,Rx,9,6,B0,01,25,90,96,7F,00,00,
10984246,0000029C,false,Rx,9,3,03,00,1A,00,00,00,00,00,
10987977,00000010,false,Rx,9,7,B0,11,25,01,25,0D,00,00,
10988578,00000010,false,Rx,9,3,B0,0B,12,00,00,00,00,00,
10991846,00000008,false,Rx,9,7,B0,01,25,0F,FF,07,00,00,
10999818,000000AA,false,Rx,9,2,AA,04,00,00,00,00,00,00,
11002177,00000040,false,Rx,9,6,B0,01,25,90,96,7E,00,00,
11003789,000002BC,false,Rx,9,3,03,00,0F,00,00,00,00,00,
11007969,00000010,false,Rx,9,7,B0,11,25,01,25,0D,00,00,
11007988,00000010,false,Rx,9,3,B0,0B,12,00,00,00,00,00,
11011727,00000008,false,Rx,9,7,B0,01,25,0F,FF,07,00,00,
11018322,000000AA,false,Rx,9,2,AA,04,00,00,00,00,00,00,
11022159,00000040,false,Rx,9,6,B0,01,25,90,96,7E,00,00,
11023877,000002B4,false,Rx,9,3,03,00,02,00,00,00,00,00,
11028122,00000010,false,Rx,9,7,B0,11,25,01,25,0D,00,00,
11028142,00000010,false,Rx,9,3,B0,0B,12,00,00,00,00,00,
11031771,00000008,false,Rx,9,7,B0,01,25,0F,FF,07,00,00,
11038374,000000AA,false,Rx,9,2,AA,04,00,00,00,00,00,00,
11041683,00000040,false,Rx,9,6,B0,01,25,90,96,7F,00,00,
11043188,000003AC,false,Rx,9,3,03,00,1D,00,00,00,00,00,
11048149,00000010,false,Rx,9,7,B0,11,25,01,25,0D,00,00,
11048455,00000010,false,Rx,9,3,B0,0B,12,00,00,00,00,00,
11051770,00000008,false,Rx,9,7,B0,01,25,0F,FF,07,00,00,
11059525,000000AA,false,Rx,9,2,AA,04,00,00,00,00,00,00,
11061877,00000040,false,Rx,9,6,B0,01,25,90,96,80,00,00,
11063383,000003A4,false,Rx,9,3,03,00,2C,00,00,00,00,00,
11068273,00000010,false,Rx,9,7,B0,11,25,01,25,0D,00,00,
11068293,00000010,false,Rx,9,3,B0,0B,12,00,00,00,00,00,
11071821,00000008,false,Rx,9,7,B0,01,25,0F,FF,07,00,00,
11078319,000000AA,false,Rx,9,2,AA,04,00,00,00,00,00,00,
11081943,00000040,false,Rx,9,6,B0,01,25,90,96,80,00,00,
11088287,00000010,false,Rx,9,7,B0,11,25,01,25,0D,00,00,
11088310,00000010,false,Rx,9,3,B0,0B,12,00,00,00,00,00,
11091688,00000008,false,Rx,9,7,B0,01,25,0C,B5,0F,FF,00,
11093747,00000008,false,Rx,9,7,B0,0E,00,07,00,0D,09,00,
11098403,000000AA,false,Rx,9,2,AA,04,00,00,00,00,00,00,
11101966,00000040,false,Rx,9,6,B0,01,25,90,94,80,00,00,
11103376,00000040,false,Rx,9,7,B0,92,FF,FF,93,E5,00,00,
11104351,00000040,false,Rx,9,3,B0,14,00,00,00,00,00,00,
11108328,0000029C,false,Rx,9,3,03,00,1A,00,00,00,00,00,
11108824,00000010,false,Rx,9,7,B0,11,25,01,25,0D,00,00,
11109597,00000010,false,Rx,9,3,B0,0B,11,00,00,00,00,00,
11112696,00000008,false,Rx,9,7,B0,01,25,0F,FF,07,00,00,
11119922,000000AA,false,Rx,9,2,AA,04,00,00,00,00,00,00,
11122273,00000040,false,Rx,9,6,B0,01,25,90,91,80,00,00,
11123886,000002BC,false,Rx,9,3,03,00,0F,00,00,00,00,00,
11128436,00000010,false,Rx,9,7,B0,11,25,01,25,0E,00,00,
11128594,00000010,false,Rx,9,5,B0,0D,00,0B,11,00,00,00,
11131875,00000008,false,Rx,9,7,B0,01,25,0F,FF,07,00,00,
11138373,000000AA,false,Rx,9,2,AA,04,00,00,00,00,00,00,
11142317,00000040,false,Rx,9,6,B0,01,25,90,8D,80,00,00,
11143928,000002B4,false,Rx,9,3,03,00,0A,00,00,00,00,00,
11148521,00000010,false,Rx,9,7,B0,11,25,01,25,0D,00,00,
11148551,00000010,false,Rx,9,3,B0,0B,10,00,00,00,00,00,
11151821,00000008,false,Rx,9,7,B0,01,25,0F,FF,07,00,00,
11158419,000000AA,false,Rx,9,2,AA,04,00,00,00,00,00,00,
11162255,00000040,false,Rx,9,6,B0,01,25,90,85,80,00,00,
11163867,000003AC,false,Rx,9,3,03,00,1D,00,00,00,00,00,
11168515,00000010,false,Rx,9,7,B0,11,25,01,25,0D,00,00,
11168536,00000010,false,Rx,9,3,B0,0B,10,00,00,00,00,00,
11171826,00000008,false,Rx,9,7,B0,01,25,0F,FF,07,00,00,
11178357,000000AA,false,Rx,9,2,AA,04,00,00,00,00,00,00,
11182161,00000040,false,Rx,9,6,B0,01,25,90,80,80,00,00,
11183733,000003A4,false,Rx,9,3,03,00,2C,00,00,00,00,00,
11188617,00000010,false,Rx,9,7,B0,11,25,01,25,0D,00,00,
11188637,00000010,false,Rx,9,3,B0,0B,0F,00,00,00,00,00,
11191774,00000008,false,Rx,9,7,B0,01,25,0F,FF,07,00,00,
11199847,000000AA,false,Rx,9,2,AA,04,00,00,00,00,00,00,
11202135,00000040,false,Rx,9,6,B0,01,25,90,80,80,00,00,
11208644,00000010,false,Rx,9,7,B0,11,25,01,25,0D,00,00,
11208668,00000010,false,Rx,9,3,B0,0B,0E,00,00,00,00,00,
11211748,00000008,false,Rx,9,7,B0,01,25,0F,FF,07,00,00,
11219696,000000AA,false,Rx,9,2,AA,04,00,00,00,00,00,00,
11222062,00000040,false,Rx,9,6,B0,01,25,90,80,80,00,00,
11224900,0000029C,false,Rx,9,3,03,00,1A,00,00,00,00,00,
11228618,00000010,false,Rx,9,7,B0,11,25,01,25,0D,00,00,
11228638,00000010,false,Rx,9,3,B0,0B,0E,00,00,00,00,00,
11232522,00000008,false,Rx,9,7,B0,01,25,0F,FF,07,00,00,
11238373,000000AA,false,Rx,9,2,AA,04,00,00,00,00,00,00,
11241683,00000040,false,Rx,9,6,B0,01,24,90,80,80,00,00,
11243719,000002BC,false,Rx,9,3,03,00,0F,00,00,00,00,00,
11248629,00000010,false,Rx,9,7,B0,11,24,01,25,0D,00,00,
11248649,00000010,false,Rx,9,3,B0,0B,0D,00,00,00,00,00,
11251854,00000008,false,Rx,9,7,B0,01,25,0F,FF,07,00,00,
11259269,000000AA,false,Rx,9,2,AA,04,00,00,00,00,00,00,
11261639,00000040,false,Rx,9,6,B0,01,24,90,80,80,00,00,
11263145,000002B4,false,Rx,9,3,03,00,0A,00,00,00,00,00,
11268790,00000010,false,Rx,9,7,B0,11,24,01,25,0D,00,00,
11268810,00000010,false,Rx,9,3,B0,0B,0D,00,00,00,00,00,
11271843,00000008,false,Rx,9,7,B0,01,25,0F,FF,07,00,00,
11278433,000000AA,false,Rx,9,2,AA,04,00,00,00,00,00,00,
11281742,00000040,false,Rx,9,6,B0,01,24,90,80,80,00,00,
11283245,000003AC,false,Rx,9,3,03,00,1D,00,00,00,00,00,
11287186,00000010,false,Rx,9,7,B0,11,24,01,25,0D,00,00,
11288887,00000010,false,Rx,9,3,B0,0B,0C,00,00,00,00,00,
11292001,00000008,false,Rx,9,7,B0,01,25,0C,B5,0F,FF,00,
11293479,00000008,false,Rx,9,7,B0,0E,00,07,00,0D,09,00,
11299117,000000AA,false,Rx,9,2,AA,04,00,00,00,00,00,00,
11301573,00000040,false,Rx,9,6,B0,01,24,90,80,80,00,00,
11302935,00000040,false,Rx,9,7,B0,92,FF,FF,93,E5,00,00,
11303814,00000040,false,Rx,9,3,B0,14,00,00,00,00,00,00,
11305214,000003A4,false,Rx,9,3,03,00,2C,00,00,00,00,00,
11308882,00000010,false,Rx,9,7,B0,11,24,01,25,0D,00,00,
11309447,00000010,false,Rx,9,3,B0,0B,0B,00,00,00,00,00,
11312753,00000008,false,Rx,9,7,B0,01,25,0F,FF,07,00,00,
11318394,000000AA,false,Rx,9,2,AA,04,00,00,00,00,00,00,
11321593,00000040,false,Rx,9,6,B0,01,24,90,80,80,00,00,
11327125,00000010,false,Rx,9,7,B0,11,24,01,25,0E,00,00,
11328960,00000010,false,Rx,9,5,B0,0D,00,0B,0B,00,00,00,
11331852,00000008,false,Rx,9,7,B0,01,25,0F,FF,07,00,00,
11339158,000000AA,false,Rx,9,2,AA,04,00,00,00,00,00,00,
11341631,00000040,false,Rx,9,6,B0,01,24,90,80,80,00,00,
11344325,0000029C,false,Rx,9,3,03,00,1A,00,00,00,00,00,
11349035,00000010,false,Rx,9,7,B0,11,24,01,25,0D,00,00,
11349054,00000010,false,Rx,9,3,B0,0B,0A,00,00,00,00,00,
11352560,00000008,false,Rx,9,7,B0,01,25,0F,FF,07,00,00,
11359165,000000AA,false,Rx,9,2,AA,04,00,00,00,00,00,00,
11361619,00000040,false,Rx,9,6,B0,01,24,90,80,80,00,00,
11363124,000002BC,false,Rx,9,3,03,00,0F,00,00,00,00,00,
11367277,00000010,false,Rx,9,7,B0,11,24,01,25,0D,00,00,
11369165,00000010,false,Rx,9,3,B0,0B,0A,00,00,00,00,00,
11372088,00000008,false,Rx,9,7,B0,01,25,0F,FF,07,00,00,
11378543,000000AA,false,Rx,9,2,AA,04,00,00,00,00,00,00,
11381535,00000040,false,Rx,9,6,B0,01,24,90,80,80,00,00,
11383042,000002B4,false,Rx,9,3,03,00,02,00,00,00,00,00,
11387199,00000010,false,Rx,9,7,B0,11,24,01,25,0D,00,00,
11389122,00000010,false,Rx,9,3,B0,0B,09,00,00,00,00,00,
11391854,00000008,false,Rx,9,7,B0,01,25,0F,FF,07,00,00,
11399235,000000AA,false,Rx,9,2,AA,04,00,00,00,00,00,00,
11402546,00000040,false,Rx,9,6,B0,01,22,90,80,80,00,00,
11404581,000003AC,false,Rx,9,3,03,00,1D,00,00,00,00,00,
11406374,00000040,false,Rx,9,5,31,01,00,0F,00,00,00,00,
11407358,00000010,false,Rx,9,7,B0,11,22,01,25,0D,00,00,
11409322,00000010,false,Rx,9,3,B0,0B,09,00,00,00,00,00,
11411725,00000008,false,Rx,9,5,B0,01,21,07,00,00,00,00,
11418528,000000AA,false,Rx,9,2,AA,04,00,00,00,00,00,00,
11421640,00000040,false,Rx,9,6,B0,01,22,90,80,80,00,00,
11423145,000003A4,false,Rx,9,3,03,00,2C,00,00,00,00,00,
11426240,00000010,false,Rx,9,7,B0,11,22,01,21,0D,00,00,
11427319,00000010,false,Rx,9,3,B0,0B,08,00,00,00,00,00,
11431338,00000008,false,Rx,9,5,B0,01,21,07,00,00,00,00,
11438488,000000AA,false,Rx,9,2,AA,04,00,00,00,00,00,00,
11441692,00000040,false,Rx,9,6,B0,01,22,90,80,80,00,00,
11446268,00000010,false,Rx,9,7,B0,11,22,01,21,0D,00,00,
11447136,00000010,false,Rx,9,4,30,01,00,0F,00,00,00,00,
11449296,00000010,false,Rx,9,3,B0,0B,07,00,00,00,00,00,
11451626,00000008,false,Rx,9,7,B0,01,21,0F,FF,07,00,00,
11458540,000000AA,false,Rx,9,2,AA,04,00,00,00,00,00,00,
11461868,00000040,false,Rx,9,6,B0,01,22,90,80,80,00,00,
11464598,0000029C,false,Rx,9,3,03,00,1A,00,00,00,00,00,
11466866,00000010,false,Rx,9,7,B0,11,22,01,21,0D,00,00,
11467735,00000010,false,Rx,9,3,B0,0B,07,00,00,00,00,00,
11471623,00000008,false,Rx,9,7,B0,01,21,0F,FF,07,00,00,
11479314,000000AA,false,Rx,9,2,AA,04,00,00,00,00,00,00,
11481772,00000040,false,Rx,9,6,B0,01,22,90,80,80,00,00,
11483278,000002BC,false,Rx,9,3,03,00,0F,00,00,00,00,00,
11486371,00000010,false,Rx,9,7,B0,11,22,01,21,0D,00,00,
11487451,00000010,false,Rx,9,3,B0,0B,06,00,00,00,00,00,
11491388,00000008,false,Rx,9,7,B0,01,21,0C,B5,0F,FF,00,
11492729,00000008,false,Rx,9,7,B0,0E,00,07,00,0D,09,00,
11498478,000000AA,false,Rx,9,2,AA,04,00,00,00,00,00,00,
11501681,00000040,false,Rx,9,6,B0,01,22,90,80,80,00,00,
11503078,00000040,false,Rx,9,7,B0,92,FF,FF,93,E5,00,00,
11503949,00000040,false,Rx,9,3,B0,14,00,00,00,00,00,00,
11505346,000002B4,false,Rx,9,3,03,00,0A,00,00,00,00,00,
11507678,00000010,false,Rx,9,7,B0,11,22,01,21,0D,00,00,
11509406,00000010,false,Rx,9,3,B0,0B,06,00,00,00,00,00,
11511769,00000008,false,Rx,9,7,B0,01,21,0F,FF,07,00,00,
11518551,000000AA,false,Rx,9,2,AA,04,00,00,00,00,00,00,
11521861,00000040,false,Rx,9,6,B0,01,22,90,80,80,00,00,
11523260,000003AC,false,Rx,9,3,03,00,1D,00,00,00,00,00,
11526355,00000010,false,Rx,9,7,B0,11,22,01,21,0E,00,00,
11527645,00000010,false,Rx,9,5,B0,0D,00,0B,05,00,00,00,
11531545,00000008,false,Rx,9,7,B0,01,21,0F,FF,07,00,00,
11538610,000000AA,false,Rx,9,2,AA,04,00,00,00,00,00,00,
11541933,00000040,false,Rx,9,6,B0,01,22,90,80,80,00,00,
11543334,000003A4,false,Rx,9,3,03,00,2C,00,00,00,00,00,
11546322,00000010,false,Rx,9,7,B0,11,22,01,21,0D,00,00,
11547403,00000010,false,Rx,9,3,B0,0B,04,00,00,00,00,00,
11551426,00000008,false,Rx,9,7,B0,01,21,0F,FF,07,00,00,
11558570,000000AA,false,Rx,9,2,AA,04,00,00,00,00,00,00,
11561877,00000040,false,Rx,9,6,B0,01,22,90,80,80,00,00,
11566241,00000010,false,Rx,9,7,B0,11,22,01,21,0D,00,00,
11567428,00000010,false,Rx,9,3,B0,0B,04,00,00,00,00,00,
11571679,00000008,false,Rx,9,7,B0,01,22,0F,FF,07,00,00,
11578533,000000AA,false,Rx,9,2,AA,04,00,00,00,00,00,00,
11581633,00000040,false,Rx,9,6,B0,01,22,90,80,80,00,00,
11584473,0000029C,false,Rx,9,3,03,00,1A,00,00,00,00,00,
11586952,00000010,false,Rx,9,7,B0,11,22,01,21,0D,00,00,
11587717,00000010,false,Rx,9,3,B0,0B,03,00,00,00,00,00,
11591624,00000008,false,Rx,9,7,B0,01,22,0F,FF,07,00,00,
11598595,000000AA,false,Rx,9,2,AA,04,00,00,00,00,00,00,
11601708,00000040,false,Rx,9,6,B0,01,22,90,80,80,00,00,
11603212,000002BC,false,Rx,9,3,03,00,0F,00,00,00,00,00,
11606304,00000010,false,Rx,9,7,B0,11,22,01,21,0D,00,00,
11607383,00000010,false,Rx,9,3,B0,0B,03,00,00,00,00,00,
11611542,00000008,false,Rx,9,7,B0,01,22,0F,FF,07,00,00,
11618616,000000AA,false,Rx,9,2,AA,04,00,00,00,00,00,00,
11621924,00000040,false,Rx,9,6,B0,01,22,90,80,80,00,00,
11623322,000002B4,false,Rx,9,3,03,00,0A,00,00,00,00,00,
11626312,00000010,false,Rx,9,7,B0,11,22,01,21,0D,00,00,
11627390,00000010,false,Rx,9,3,B0,0B,02,00,00,00,00,00,
11631553,00000008,false,Rx,9,7,B0,01,22,0F,FF,07,00,00,
11639433,000000AA,false,Rx,9,2,AA,04,00,00,00,00,00,00,
11641800,00000040,false,Rx,9,6,B0,01,22,90,80,80,00,00,
11643303,000003AC,false,Rx,9,3,03,00,1D,00,00,00,00,00,
11646393,00000010,false,Rx,9,7,B0,11,22,01,21,0D,00,00,
11647474,00000010,false,Rx,9,3,B0,0B,01,00,00,00,00,00,
11651459,00000008,false,Rx,9,7,B0,01,22,0F,FF,07,00,00,
11659466,000000AA,false,Rx,9,2,AA,04,00,00,00,00,00,00,
11661819,00000040,false,Rx,9,6,B0,01,22,90,80,80,00,00,
11663322,000003A4,false,Rx,9,3,03,00,2C,00,00,00,00,00,
11666312,00000010,false,Rx,9,7,B0,11,22,01,21,0D,00,00,
11667496,00000010,false,Rx,9,3,B0,0B,01,00,00,00,00,00,
11671471,00000008,false,Rx,9,7,B0,01,22,0F,FF,07,00,00,
11678602,000000AA,false,Rx,9,2,AA,04,00,00,00,00,00,00,
11681937,00000040,false,Rx,9,6,B0,01,22,90,80,80,00,00,
11686327,00000010,false,Rx,9,7,B0,11,22,01,21,0D,00,00,
11687420,00000010,false,Rx,9,3,B0,0B,00,00,00,00,00,00,
11691356,00000008,false,Rx,9,7,B0,01,22,0C,B5,0F,FF,00,
11692681,00000008,false,Rx,9,7,B0,0E,00,07,00,0D,09,00,
11698630,000000AA,false,Rx,9,2,AA,04,00,00,00,00,00,00,
11701832,00000040,false,Rx,9,6,B0,01,22,90,80,80,00,00,
11703231,00000040,false,Rx,9,7,B0,92,FF,FF,93,E5,00,00,
11704206,00000040,false,Rx,9,3,B0,14,00,00,00,00,00,00,
11706834,0000029C,false,Rx,9,3,03,00,1A,00,00,00,00,00,
11710116,00000010,false,Rx,9,7,B0,11,22,01,22,0D,00,00,
11710141,00000010,false,Rx,9,3,B0,0B,00,00,00,00,00,00,
11712607,00000008,false,Rx,9,7,B0,01,22,0F,FF,07,00,00,
11719448,000000AA,false,Rx,9,2,AA,04,00,00,00,00,00,00,
11721930,00000040,false,Rx,9,6,B0,01,22,90,80,80,00,00,
11723330,000002BC,false,Rx,9,3,03,00,0F,00,00,00,00,00,
11727270,00000010,false,Rx,9,7,B0,11,22,01,22,0E,00,00,
11730152,00000010,false,Rx,9,5,B0,0D,00,0B,00,00,00,00,
11731779,00000008,false,Rx,9,7,B0,01,22,0F,FF,07,00,00,
11738680,000000AA,false,Rx,9,2,AA,04,00,00,00,00,00,00,
11741886,00000040,false,Rx,9,6,B0,01,22,90,80,80,00,00,
11743285,000002B4,false,Rx,9,3,03,00,02,00,00,00,00,00,
11747334,00000010,false,Rx,9,7,B0,11,22,01,22,0D,00,00,
11748519,00000010,false,Rx,9,3,B0,0B,00,00,00,00,00,00,
11751762,00000008,false,Rx,9,7,B0,01,22,0F,FF,07,00,00,
11758721,000000AA,false,Rx,9,2,AA,04,00,00,00,00,00,00,
11761832,00000040,false,Rx,9,6,B0,01,22,90,80,80,00,00,
11763336,000003AC,false,Rx,9,3,03,00,1D,00,00,00,00,00,
11767277,00000010,false,Rx,9,7,B0,11,22,01,22,0D,00,00,
11768568,00000010,false,Rx,9,3,B0,0B,00,00,00,00,00,00,
11771758,00000008,false,Rx,9,7,B0,01,22,0F,FF,07,00,00,
11778676,000000AA,false,Rx,9,2,AA,04,00,00,00,00,00,00,
11781913,00000040,false,Rx,9,6,B0,01,22,90,80,80,00,00,
11783488,000003A4,false,Rx,9,3,03,00,2C,00,00,00,00,00,
11787257,00000010,false,Rx,9,7,B0,11,22,01,22,0D,00,00,
11788551,00000010,false,Rx,9,3,B0,0B,00,00,00,00,00,00,
11791733,00000008,false,Rx,9,7,B0,01,22,0F,FF,07,00,00,
11798666,000000AA,false,Rx,9,2,AA,04,00,00,00,00,00,00,
11801756,00000040,false,Rx,9,6,B0,01,22,90,80,80,00,00,
11807286,00000010,false,Rx,9,7,B0,11,22,01,22,0D,00,00,
11808154,00000010,false,Rx,9,3,B0,0B,00,00,00,00,00,00,
11811750,00000008,false,Rx,9,7,B0,01,22,0F,FF,07,00,00,
11818909,000000AA,false,Rx,9,2,AA,04,00,00,00,00,00,00,
11821954,00000040,false,Rx,9,6,B0,01,22,90,80,80,00,00,
11824690,0000029C,false,Rx,9,3,03,00,1A,00,00,00,00,00,
11827804,00000010,false,Rx,9,7,B0,11,22,01,22,0D,00,00,
11828675,00000010,false,Rx,9,3,B0,0B,00,00,00,00,00,00,
11831963,00000008,false,Rx,9,7,B0,01,22,0F,FF,07,00,00,
11838694,000000AA,false,Rx,9,2,AA,04,00,00,00,00,00,00,
11841916,00000040,false,Rx,9,6,B0,01,22,90,80,80,00,00,
11843342,000002BC,false,Rx,9,3,03,00,0F,00,00,00,00,00,
11847298,00000010,false,Rx,9,7,B0,11,22,01,22,0D,00,00,
11848588,00000010,false,Rx,9,3,B0,0B,00,00,00,00,00,00,
11851739,00000008,false,Rx,9,7,B0,01,22,0F,FF,07,00,00,
11858681,000000AA,false,Rx,9,2,AA,04,00,00,00,00,00,00,
11861982,00000040,false,Rx,9,6,B0,01,22,90,80,80,00,00,
11863488,000002B4,false,Rx,9,3,03,00,02,00,00,00,00,00,
11867325,00000010,false,Rx,9,7,B0,11,22,01,22,0D,00,00,
11868617,00000010,false,Rx,9,3,B0,0B,00,00,00,00,00,00,
11871795,00000008,false,Rx,9,7,B0,01,22,0F,FF,07,00,00,
11878727,000000AA,false,Rx,9,2,AA,04,00,00,00,00,00,00,
11882043,00000040,false,Rx,9,6,B0,01,22,90,80,80,00,00,
11883441,000003AC,false,Rx,9,3,03,00,1D,00,00,00,00,00,
11887278,00000010,false,Rx,9,7,B0,11,22,01,22,0D,00,00,
11888568,00000010,false,Rx,9,3,B0,0B,00,00,00,00,00,00,
11891674,00000008,false,Rx,9,7,B0,01,22,0C,B5,0F,FF,00,
11892777,00000008,false,Rx,9,7,B0,0E,00,07,00,0D,09,00,
11898691,000000AA,false,Rx,9,2,AA,04,00,00,00,00,00,00,
11901792,00000040,false,Rx,9,6,B0,01,22,90,80,80,00,00,
11903190,00000040,false,Rx,9,7,B0,92,FF,FF,93,E5,00,00,
11904165,00000040,false,Rx,9,3,B0,14,00,00,00,00,00,00,
11905457,000003A4,false,Rx,9,3,03,00,2C,00,00,00,00,00,
11908341,00000010,false,Rx,9,7,B0,11,22,01,22,0D,00,00,
11910764,00000010,false,Rx,9,3,B0,0B,00,00,00,00,00,00,
11912645,00000008,false,Rx,9,7,B0,01,22,0F,FF,07,00,00,
11918705,000000AA,false,Rx,9,2,AA,04,00,00,00,00,00,00,
11921958,00000040,false,Rx,9,6,B0,01,22,90,80,80,00,00,
11927280,00000010,false,Rx,9,7,B0,11,22,01,22,0E,00,00,
11928681,00000010,false,Rx,9,5,B0,0D,00,0B,00,00,00,00,
11931779,00000008,false,Rx,9,7,B0,01,22,0F,FF,07,00,00,
11938714,000000AA,false,Rx,9,2,AA,04,00,00,00,00,00,00,
11942019,00000040,false,Rx,9,6,B0,01,22,90,80,80,00,00,
11944859,0000029C,false,Rx,9,3,03,00,1A,00,00,00,00,00,
