Time Stamp,ID,Extended,Dir,Bus,LEN,D1,D2,D3,D4,D5,D6,D7,D8
4297725430,00000040,false,Rx,9,8,20,00,00,08,00,00,00,00,
4297730443,00000040,false,Rx,9,8,20,00,00,08,00,00,00,00,
4297787808,000000AA,false,Rx,9,2,AA,04,00,00,00,00,00,00,
4297789973,000000AA,false,Rx,9,2,AA,04,00,00,00,00,00,00,
4297792522,000000AA,false,Rx,9,2,AA,04,00,00,00,00,00,00,
4297794480,000000AA,false,Rx,9,2,AA,04,00,00,00,00,00,00,
4297796726,000000AA,false,Rx,9,2,AA,04,00,00,00,00,00,00,
4297798975,000000AA,false,Rx,9,2,AA,04,00,00,00,00,00,00,
4297803341,000000AA,false,Rx,9,2,AA,04,00,00,00,00,00,00,
4297804953,00000040,false,Rx,9,8,23,00,00,08,FC,80,00,00,
4297805609,00000008,false,Rx,9,1,A3,00,00,00,00,00,00,00,
4297806161,00000010,false,Rx,9,1,A3,00,00,00,00,00,00,00,
4297809998,00000040,false,Rx,9,8,23,00,00,08,FC,80,00,00,
4297810758,00000008,false,Rx,9,1,A3,00,00,00,00,00,00,00,
4297812544,00000010,false,Rx,9,1,A3,00,00,00,00,00,00,00,
4297816602,000000AA,false,Rx,9,2,AA,04,00,00,00,00,00,00,
4297818227,00000040,false,Rx,9,8,21,00,00,08,FC,80,00,00,
4297818888,00000008,false,Rx,9,1,A1,00,00,00,00,00,00,00,
4297819437,00000010,false,Rx,9,1,A1,00,00,00,00,00,00,00,
4297823275,00000040,false,Rx,9,8,21,00,00,08,FC,80,00,00,
4297824038,00000008,false,Rx,9,1,A1,00,00,00,00,00,00,00,
4297824589,00000010,false,Rx,9,1,A1,00,00,00,00,00,00,00,
4297828957,000000AA,false,Rx,9,2,AA,04,00,00,00,00,00,00,
4297830564,00000040,false,Rx,9,8,24,00,00,08,FC,40,00,00,
4297832560,00000008,false,Rx,9,1,A4,00,00,00,00,00,00,00,
4297832579,00000010,false,Rx,9,1,A4,00,00,00,00,00,00,00,
4297835606,00000040,false,Rx,9,8,24,00,00,08,FC,40,00,00,
4297836378,00000008,false,Rx,9,1,A4,00,00,00,00,00,00,00,
4297836930,00000010,false,Rx,9,1,A4,00,00,00,00,00,00,00,
4297843903,000000AA,false,Rx,9,2,AA,04,00,00,00,00,00,00,
4297847636,000000AA,false,Rx,9,2,AA,04,00,00,00,00,00,00,
4297852634,000000AA,false,Rx,9,2,AA,04,00,00,00,00,00,00,
4297855261,000000AA,false,Rx,9,2,AA,04,00,00,00,00,00,00,
4297859106,000000AA,false,Rx,9,2,AA,04,00,00,00,00,00,00,
4297862859,000000AA,false,Rx,9,2,AA,04,00,00,00,00,00,00,
4297866691,000000AA,false,Rx,9,2,AA,04,00,00,00,00,00,00,
4297870424,000000AA,false,Rx,9,2,AA,04,00,00,00,00,00,00,
4297874248,000000AA,false,Rx,9,2,AA,04,00,00,00,00,00,00,
4297878010,000000AA,false,Rx,9,2,AA,04,00,00,00,00,00,00,
4297881848,000000AA,false,Rx,9,2,AA,04,00,00,00,00,00,00,
4297885683,000000AA,false,Rx,9,2,AA,04,00,00,00,00,00,00,
4297889522,000000AA,false,Rx,9,2,AA,04,00,00,00,00,00,00,
4297893349,000000AA,false,Rx,9,2,AA,04,00,00,00,00,00,00,
4297897176,000000AA,false,Rx,9,2,AA,04,00,00,00,00,00,00,
4297900920,000000AA,false,Rx,9,2,AA,04,00,00,00,00,00,00,
4297904753,000000AA,false,Rx,9,2,AA,04,00,00,00,00,00,00,
4297908588,000000AA,false,Rx,9,2,AA,04,00,00,00,00,00,00,
4297912695,000000AA,false,Rx,9,2,AA,04,00,00,00,00,00,00,
4297916177,000000AA,false,Rx,9,2,AA,04,00,00,00,00,00,00,
4297920021,000000AA,false,Rx,9,2,AA,04,00,00,00,00,00,00,
4297923857,000000AA,false,Rx,9,2,AA,04,00,00,00,00,00,00,
4297927689,000000AA,false,Rx,9,2,AA,04,00,00,00,00,00,00,
4297932756,000000AA,false,Rx,9,2,AA,04,00,00,00,00,00,00,
4297935383,000000AA,false,Rx,9,2,AA,04,00,00,00,00,00,00,
4297939177,000000AA,false,Rx,9,2,AA,04,00,00,00,00,00,00,
4297942971,000000AA,false,Rx,9,2,AA,04,00,00,00,00,00,00,
4297946806,000000AA,false,Rx,9,2,AA,04,00,00,00,00,00,00,
4297950554,000000AA,false,Rx,9,2,AA,04,00,00,00,00,00,00,
4297954376,000000AA,false,Rx,9,2,AA,04,00,00,00,00,00,00,
4297958348,000000AA,false,Rx,9,2,AA,04,00,00,00,00,00,00,
4297962401,000000AA,false,Rx,9,2,AA,04,00,00,00,00,00,00,
4297964753,000000AA,false,Rx,9,2,AA,04,00,00,00,00,00,00,
4297968451,00000040,false,Rx,9,8,27,00,00,FD,00,80,00,00,
4297973444,00000040,false,Rx,9,8,13,01,00,00,00,FF,00,00,
4297989112,000000AA,false,Rx,9,2,AA,04,00,00,00,00,00,00,
4297993145,0000029C,false,Rx,9,3,03,00,1A,00,00,00,00,00,
4297999030,00000010,false,Rx,9,4,30,08,00,01,00,00,00,00,
4298000112,00000040,false,Rx,9,3,B0,01,10,00,00,00,00,00,
4298009351,000000AA,false,Rx,9,2,AA,04,00,00,00,00,00,00,
4298012782,00000040,false,Rx,9,3,B0,01,10,00,00,00,00,00,
4298015549,000002BC,false,Rx,9,3,03,00,0B,00,00,00,00,00,
4298029376,000000AA,false,Rx,9,2,AA,04,00,00,00,00,00,00,
4298032865,00000040,false,Rx,9,3,B0,01,10,00,00,00,00,00,
4298034127,000002B4,false,Rx,9,3,03,00,0A,00,00,00,00,00,
4298035849,00000040,false,Rx,9,5,30,02,00,01,08,00,00,00,
4298037140,00000010,false,Rx,9,3,B0,01,00,00,00,00,00,00,
4298039490,00000010,false,Rx,9,4,30,01,00,01,00,00,00,00,
4298040253,00000008,false,Rx,9,3,B0,01,02,00,00,00,00,00,
4298049557,000000AA,false,Rx,9,2,AA,04,00,00,00,00,00,00,
4298052983,00000040,false,Rx,9,3,B0,01,0C,00,00,00,00,00,
4298053572,000003AC,false,Rx,9,3,03,00,1D,00,00,00,00,00,
4298055517,00000010,false,Rx,9,3,B0,01,02,00,00,00,00,00,
4298062132,00000008,false,Rx,9,5,B0,01,02,0C,B5,00,00,00,
4298063319,00000008,false,Rx,9,8,10,00,00,00,00,FF,00,00,
4298068741,00000040,false,Rx,9,8,90,01,00,00,06,29,00,00,
4298070564,000000AA,false,Rx,9,2,AA,04,00,00,00,00,00,00,
4298073004,00000040,false,Rx,9,3,B0,01,10,00,00,00,00,00,
4298074879,000003A4,false,Rx,9,3,03,00,2C,00,00,00,00,00,
4298075643,00000010,false,Rx,9,3,B0,01,02,00,00,00,00,00,
4298082455,00000008,false,Rx,9,3,B0,01,02,00,00,00,00,00,
4298084084,00000008,false,Rx,9,8,10,00,00,01,06,29,00,00,
4298085588,00000040,false,Rx,9,8,90,01,00,01,47,22,00,00,
4298089320,000000AA,false,Rx,9,2,AA,04,00,00,00,00,00,00,
4298093017,00000040,false,Rx,9,3,B0,01,10,00,00,00,00,00,
4298095417,00000010,false,Rx,9,3,B0,01,02,00,00,00,00,00,
4298102437,00000008,false,Rx,9,3,B0,01,02,00,00,00,00,00,
4298104050,00000008,false,Rx,9,8,12,00,00,00,7F,00,00,00,
4298105769,00000040,false,Rx,9,8,13,02,00,00,00,FF,00,00,
4298106529,00000008,false,Rx,9,4,30,02,00,11,00,00,00,00,
4298108035,00000010,false,Rx,9,3,B0,11,10,00,00,00,00,00,
4298109642,000000AA,false,Rx,9,2,AA,04,00,00,00,00,00,00,
4298113035,00000040,false,Rx,9,3,B0,01,10,00,00,00,00,00,
4298114737,0000029C,false,Rx,9,3,03,00,1A,00,00,00,00,00,
4298116452,00000010,false,Rx,9,5,B0,01,02,11,10,00,00,00,
4298117498,00000010,false,Rx,9,8,10,00,00,00,00,FF,00,00,
4298122609,00000008,false,Rx,9,3,B0,01,10,00,00,00,00,00,
4298124966,00000040,false,Rx,9,8,90,02,00,00,02,7C,00,00,
4298129335,000000AA,false,Rx,9,2,AA,04,00,00,00,00,00,00,
4298132970,00000040,false,Rx,9,3,B0,01,10,00,00,00,00,00,
4298133217,000002BC,false,Rx,9,3,03,00,0B,00,00,00,00,00,
4298137149,00000010,false,Rx,9,5,B0,01,10,11,10,00,00,00,
4298138462,00000010,false,Rx,9,8,10,00,00,01,02,7C,00,00,
4298139968,00000040,false,Rx,9,8,90,02,00,01,47,22,00,00,
4298142531,00000008,false,Rx,9,3,B0,01,10,00,00,00,00,00,
4298149383,000000AA,false,Rx,9,2,AA,04,00,00,00,00,00,00,
4298153130,00000040,false,Rx,9,3,B0,01,10,00,00,00,00,00,
4298153294,000002B4,false,Rx,9,3,03,00,0A,00,00,00,00,00,
4298155549,00000040,false,Rx,9,5,30,02,00,0E,03,00,00,00,
4298156419,00000010,false,Rx,9,5,B0,01,10,11,10,00,00,00,
4298157725,00000010,false,Rx,9,8,12,00,00,00,00,0C,00,00,
4298158517,00000040,false,Rx,9,5,30,02,00,0D,03,00,00,00,
4298159283,00000010,false,Rx,9,3,B0,0E,00,00,00,00,00,00,
4298160257,00000010,false,Rx,9,3,B0,0D,00,00,00,00,00,00,
4298161127,00000010,false,Rx,9,4,30,01,00,0F,00,00,00,00,
4298162100,00000010,false,Rx,9,4,30,01,00,0E,00,00,00,00,
4298162968,00000010,false,Rx,9,4,30,01,00,07,00,00,00,00,
4298163836,00000040,false,Rx,9,5,30,01,00,0D,03,00,00,00,
4298164701,00000010,false,Rx,9,4,30,08,00,14,00,00,00,00,
4298165785,00000008,false,Rx,9,7,B0,01,10,0F,FF,0E,00,00,
4298166547,00000010,false,Rx,9,4,30,08,00,13,00,00,00,00,
4298167416,00000008,false,Rx,9,5,B0,07,00,0D,00,00,00,00,
4298168284,00000010,false,Rx,9,4,30,08,00,12,00,00,00,00,
4298169896,000000AA,false,Rx,9,2,AA,04,00,00,00,00,00,00,
4298173161,00000040,false,Rx,9,6,B0,01,10,92,FF,FF,00,00,
4298174746,00000040,false,Rx,9,6,B0,93,E2,00,14,00,00,00,
4298175836,00000010,false,Rx,9,7,B0,01,10,11,10,0D,00,00,
4298176596,000003AC,false,Rx,9,3,03,00,1D,00,00,00,00,00,
4298183080,00000008,false,Rx,9,7,B0,01,10,0F,FF,07,00,00,
4298188715,000000AA,false,Rx,9,2,AA,04,00,00,00,00,00,00,
4298190963,00000040,false,Rx,9,3,B0,01,10,00,00,00,00,00,
4298196489,00000010,false,Rx,9,7,B0,01,10,11,10,0E,00,00,
4298197372,00000010,false,Rx,9,3,B0,0D,00,00,00,00,00,00,
4298198879,000003A4,false,Rx,9,3,03,00,2C,00,00,00,00,00,
4298202929,00000008,false,Rx,9,7,B0,01,10,0F,FF,07,00,00,
4298208990,000000AA,false,Rx,9,2,AA,04,00,00,00,00,00,00,
4298211240,00000040,false,Rx,9,3,B0,01,10,00,00,00,00,00,
4298216411,00000010,false,Rx,9,7,B0,01,10,11,10,0D,00,00,
4298222858,00000008,false,Rx,9,7,B0,01,10,0F,FF,07,00,00,
4298229348,000000AA,false,Rx,9,2,AA,04,00,00,00,00,00,00,
4298231595,00000040,false,Rx,9,3,B0,01,10,00,00,00,00,00,
4298234680,0000029C,false,Rx,9,3,03,00,1A,00,00,00,00,00,
4298236629,00000010,false,Rx,9,7,B0,01,10,11,10,0D,00,00,
4298242802,00000008,false,Rx,9,7,B0,01,10,0C,B5,0F,FF,00,
4298244093,00000008,false,Rx,9,7,B0,0E,00,07,00,0D,00,00,
4298250303,000000AA,false,Rx,9,2,AA,04,00,00,00,00,00,00,
4298253436,00000040,false,Rx,9,3,B0,01,10,00,00,00,00,00,
4298256423,00000010,false,Rx,9,7,B0,01,10,11,10,0D,00,00,
4298262821,00000008,false,Rx,9,7,B0,01,10,0F,FF,07,00,00,
4298265171,000002BC,false,Rx,9,3,03,00,0B,00,00,00,00,00,
4298268801,000000AA,false,Rx,9,2,AA,04,00,00,00,00,00,00,
4298270941,00000040,false,Rx,9,3,B0,01,10,00,00,00,00,00,
4298276430,00000010,false,Rx,9,7,B0,01,10,11,10,0D,00,00,
4298282845,00000008,false,Rx,9,7,B0,01,10,0F,FF,07,00,00,
4298288907,000002B4,false,Rx,9,3,03,00,0A,00,00,00,00,00,
4298290836,000000AA,false,Rx,9,2,AA,04,00,00,00,00,00,00,
4298293547,00000040,false,Rx,9,3,B0,01,10,00,00,00,00,00,
4298296369,00000010,false,Rx,9,7,B0,01,10,11,10,0D,00,00,
4298302869,00000008,false,Rx,9,7,B0,01,10,0F,FF,07,00,00,
4298308930,000003AC,false,Rx,9,3,03,00,1D,00,00,00,00,00,
4298310857,000000AA,false,Rx,9,2,AA,04,00,00,00,00,00,00,
4298313602,00000040,false,Rx,9,3,B0,01,10,00,00,00,00,00,
4298316331,00000010,false,Rx,9,7,B0,01,10,11,10,0D,00,00,
4298322824,00000008,false,Rx,9,7,B0,01,10,0F,FF,07,00,00,
4298328783,000000AA,false,Rx,9,2,AA,04,00,00,00,00,00,00,
4298333639,00000040,false,Rx,9,3,B0,01,10,00,00,00,00,00,
4298336361,00000010,false,Rx,9,7,B0,01,10,11,10,0D,00,00,
4298337086,000003A4,false,Rx,9,3,03,00,2C,00,00,00,00,00,
4298342923,00000008,false,Rx,9,7,B0,01,10,0F,FF,07,00,00,
4298348789,000000AA,false,Rx,9,2,AA,04,00,00,00,00,00,00,
4298351038,00000040,false,Rx,9,3,B0,01,10,00,00,00,00,00,
4298356418,00000010,false,Rx,9,7,B0,01,10,11,10,0D,00,00,
4298362824,00000008,false,Rx,9,7,B0,01,10,0F,FF,07,00,00,
4298369624,000000AA,false,Rx,9,2,AA,04,00,00,00,00,00,00,
4298373757,00000040,false,Rx,9,6,B0,01,10,92,FF,FF,00,00,
4298373782,00000040,false,Rx,9,6,B0,93,E2,00,14,00,00,00,
4298376152,0000029C,false,Rx,9,3,03,00,1A,00,00,00,00,00,
4298377675,00000010,false,Rx,9,7,B0,01,10,11,10,0D,00,00,
4298382864,00000008,false,Rx,9,7,B0,01,10,0F,FF,07,00,00,
4298388841,000000AA,false,Rx,9,2,AA,04,00,00,00,00,00,00,
4298391085,00000040,false,Rx,9,3,B0,01,10,00,00,00,00,00,
4298393824,000002BC,false,Rx,9,3,03,00,0B,00,00,00,00,00,
4298396345,00000010,false,Rx,9,7,B0,01,10,11,10,0E,00,00,
4298397215,00000010,false,Rx,9,3,B0,0D,00,00,00,00,00,00,
4298402857,00000008,false,Rx,9,7,B0,01,10,0F,FF,07,00,00,
4298409449,000000AA,false,Rx,9,2,AA,04,00,00,00,00,00,00,
4298411693,00000040,false,Rx,9,3,B0,01,10,00,00,00,00,00,
4298413911,000002B4,false,Rx,9,3,03,00,0A,00,00,00,00,00,
4298416478,00000010,false,Rx,9,7,B0,01,10,11,10,0D,00,00,
4298422869,00000008,false,Rx,9,7,B0,01,10,0F,FF,07,00,00,
4298428824,000000AA,false,Rx,9,2,AA,04,00,00,00,00,00,00,
4298431701,00000040,false,Rx,9,3,B0,01,10,00,00,00,00,00,
4298433923,000003AC,false,Rx,9,3,03,00,1D,00,00,00,00,00,
4298436435,00000010,false,Rx,9,7,B0,01,10,11,10,0D,00,00,
4298442709,00000008,false,Rx,9,7,B0,01,10,0C,B5,0F,FF,00,
4298444111,00000008,false,Rx,9,7,B0,0E,00,07,00,0D,00,00,
4298448949,000000AA,false,Rx,9,2,AA,04,00,00,00,00,00,00,
4298451636,00000040,false,Rx,9,3,B0,01,10,00,00,00,00,00,
4298454071,000003A4,false,Rx,9,3,03,00,2C,00,00,00,00,00,
4298456444,00000010,false,Rx,9,7,B0,01,10,11,10,0D,00,00,
4298462868,00000008,false,Rx,9,7,B0,01,10,0F,FF,07,00,00,
4298468878,000000AA,false,Rx,9,2,AA,04,00,00,00,00,00,00,
4298471654,00000040,false,Rx,9,3,B0,01,10,00,00,00,00,00,
4298476468,00000010,false,Rx,9,7,B0,01,10,11,10,0D,00,00,
4298482905,00000008,false,Rx,9,7,B0,01,10,0F,FF,07,00,00,
4298488861,000000AA,false,Rx,9,2,AA,04,00,00,00,00,00,00,
4298491740,00000040,false,Rx,9,3,B0,01,10,00,00,00,00,00,
4298494817,0000029C,false,Rx,9,3,03,00,1A,00,00,00,00,00,
4298496759,00000010,false,Rx,9,7,B0,01,10,11,10,0D,00,00,
4298502824,00000008,false,Rx,9,7,B0,01,10,0F,FF,07,00,00,
4298509519,000000AA,false,Rx,9,2,AA,04,00,00,00,00,00,00,
4298511659,00000040,false,Rx,9,3,B0,01,10,00,00,00,00,00,
4298514073,000002BC,false,Rx,9,3,03,00,0B,00,00,00,00,00,
4298516613,00000010,false,Rx,9,7,B0,01,10,11,10,0D,00,00,
4298522907,00000008,false,Rx,9,7,B0,01,10,0F,FF,07,00,00,
4298528871,000000AA,false,Rx,9,2,AA,04,00,00,00,00,00,00,
4298531747,00000040,false,Rx,9,3,B0,01,10,00,00,00,00,00,
4298534165,000002B4,false,Rx,9,3,03,00,0A,00,00,00,00,00,
4298536477,00000010,false,Rx,9,7,B0,01,10,11,10,0D,00,00,
4298542867,00000008,false,Rx,9,7,B0,01,10,0F,FF,07,00,00,
4298549564,000000AA,false,Rx,9,2,AA,04,00,00,00,00,00,00,
4298551706,00000040,false,Rx,9,3,B0,01,10,00,00,00,00,00,
4298554251,000003AC,false,Rx,9,3,03,00,1D,00,00,00,00,00,
4298556609,00000010,false,Rx,9,7,B0,01,10,11,10,0D,00,00,
4298561159,00000010,false,Rx,9,4,30,08,00,2C,00,00,00,00,
4298562354,00000040,false,Rx,9,3,B0,2C,59,00,00,00,00,00,
4298563435,00000008,false,Rx,9,7,B0,01,10,0F,FF,07,00,00,
4298568863,000000AA,false,Rx,9,2,AA,04,00,00,00,00,00,00,
4298572060,00000040,false,Rx,9,6,B0,01,10,92,FF,FF,00,00,
4298574273,00000040,false,Rx,9,8,B0,93,E2,00,14,00,2C,59,
4298575187,000003A4,false,Rx,9,3,03,00,2C,00,00,00,00,00,
4298577546,00000010,false,Rx,9,7,B0,01,10,11,10,0D,00,00,
4298582869,00000008,false,Rx,9,7,B0,01,10,0F,FF,07,00,00,
4298589564,000000AA,false,Rx,9,2,AA,04,00,00,00,00,00,00,
4298591816,00000040,false,Rx,9,3,B0,01,10,00,00,00,00,00,
4298596494,00000010,false,Rx,9,7,B0,01,10,11,10,0E,00,00,
4298597330,00000010,false,Rx,9,3,B0,0D,00,00,00,00,00,00,
4298602936,00000008,false,Rx,9,7,B0,01,10,0F,FF,07,00,00,
4298608899,000000AA,false,Rx,9,2,AA,04,00,00,00,00,00,00,
4298611888,00000040,false,Rx,9,3,B0,01,10,00,00,00,00,00,
4298614855,0000029C,false,Rx,9,3,03,00,1A,00,00,00,00,00,
4298616685,00000010,false,Rx,9,7,B0,01,10,11,10,0D,00,00,
4298622862,00000008,false,Rx,9,7,B0,01,10,0F,FF,07,00,00,
4298629558,000000AA,false,Rx,9,2,AA,04,00,00,00,00,00,00,
4298631811,00000040,false,Rx,9,3,B0,01,10,00,00,00,00,00,
4298634439,000002BC,false,Rx,9,3,03,00,0B,00,00,00,00,00,
4298636456,00000010,false,Rx,9,7,B0,01,10,11,10,0D,00,00,
4298642842,00000008,false,Rx,9,7,B0,01,10,0C,B5,0F,FF,00,
4298644045,00000008,false,Rx,9,7,B0,0E,00,07,00,0D,00,00,
4298648945,000000AA,false,Rx,9,2,AA,04,00,00,00,00,00,00,
4298651829,00000040,false,Rx,9,3,B0,01,10,00,00,00,00,00,
4298654450,000002B4,false,Rx,9,3,03,00,0A,00,00,00,00,00,
4298656453,00000010,false,Rx,9,7,B0,01,10,11,10,0D,00,00,
4298662983,00000008,false,Rx,9,7,B0,01,10,0F,FF,07,00,00,
4298669641,000000AA,false,Rx,9,2,AA,04,00,00,00,00,00,00,
4298671804,00000040,false,Rx,9,3,B0,01,10,00,00,00,00,00,
4298674551,000003AC,false,Rx,9,3,03,00,1D,00,00,00,00,00,
4298676524,00000010,false,Rx,9,7,B0,01,10,11,10,0D,00,00,
4298682887,00000008,false,Rx,9,7,B0,01,10,0F,FF,07,00,00,
4298688968,000000AA,false,Rx,9,2,AA,04,00,00,00,00,00,00,
4298691849,00000040,false,Rx,9,3,B0,01,10,00,00,00,00,00,
4298694982,000003A4,false,Rx,9,3,03,00,2C,00,00,00,00,00,
4298696483,00000010,false,Rx,9,7,B0,01,10,11,10,0D,00,00,
4298702869,00000008,false,Rx,9,7,B0,01,10,0F,FF,07,00,00,
4298708930,000000AA,false,Rx,9,2,AA,04,00,00,00,00,00,00,
4298711916,00000040,false,Rx,9,3,B0,01,10,00,00,00,00,00,
4298716461,00000010,false,Rx,9,7,B0,01,10,11,10,0D,00,00,
4298722893,00000008,false,Rx,9,7,B0,01,10,0F,FF,07,00,00,
4298728967,000000AA,false,Rx,9,2,AA,04,00,00,00,00,00,00,
4298731850,00000040,false,Rx,9,3,B0,01,10,00,00,00,00,00,
4298734863,0000029C,false,Rx,9,3,03,00,1A,00,00,00,00,00,
4298736656,00000010,false,Rx,9,7,B0,01,10,11,10,0D,00,00,
4298742934,00000008,false,Rx,9,7,B0,01,10,0F,FF,07,00,00,
4298749632,000000AA,false,Rx,9,2,AA,04,00,00,00,00,00,00,
4298751884,00000040,false,Rx,9,3,B0,01,10,00,00,00,00,00,
4298754846,000002BC,false,Rx,9,3,03,00,0B,00,00,00,00,00,
4298756517,00000010,false,Rx,9,7,B0,01,10,11,10,0D,00,00,
4298762912,00000008,false,Rx,9,7,B0,01,10,0F,FF,07,00,00,
4298769037,000000AA,false,Rx,9,2,AA,04,00,00,00,00,00,00,
4298772240,00000040,false,Rx,9,6,B0,01,10,92,FF,FF,00,00,
4298774895,00000040,false,Rx,9,8,B0,93,E2,00,14,00,2C,59,
4298775275,000002B4,false,Rx,9,3,03,00,0A,00,00,00,00,00,
4298777531,00000010,false,Rx,9,7,B0,01,10,11,10,0D,00,00,
4298782856,00000008,false,Rx,9,7,B0,01,10,0F,FF,07,00,00,
4298789021,000000AA,false,Rx,9,2,AA,04,00,00,00,00,00,00,
4298791905,00000040,false,Rx,9,3,B0,01,10,00,00,00,00,00,
4298794984,000003AC,false,Rx,9,3,03,00,1D,00,00,00,00,00,
4298796428,00000010,false,Rx,9,7,B0,01,10,11,10,0E,00,00,
4298797300,00000010,false,Rx,9,3,B0,0D,00,00,00,00,00,00,
4298802950,00000008,false,Rx,9,7,B0,01,10,0F,FF,07,00,00,
4298809665,000000AA,false,Rx,9,2,AA,04,00,00,00,00,00,00,
4298811916,00000040,false,Rx,9,3,B0,01,10,00,00,00,00,00,
4298814975,000003A4,false,Rx,9,3,03,00,2C,00,00,00,00,00,
4298816546,00000010,false,Rx,9,7,B0,01,10,11,10,0D,00,00,
4298822829,00000008,false,Rx,9,7,B0,01,10,0F,FF,07,00,00,
4298828999,000000AA,false,Rx,9,2,AA,04,00,00,00,00,00,00,
4298831989,00000040,false,Rx,9,3,B0,01,10,00,00,00,00,00,
4298836450,00000010,false,Rx,9,7,B0,01,10,11,10,0D,00,00,
4298842843,00000008,false,Rx,9,7,B0,01,10,0C,B5,0F,FF,00,
4298844041,00000008,false,Rx,9,7,B0,0E,00,07,00,0D,00,00,
4298849043,000000AA,false,Rx,9,2,AA,04,00,00,00,00,00,00,
4298851930,00000040,false,Rx,9,3,B0,01,10,00,00,00,00,00,
4298855179,0000029C,false,Rx,9,3,03,00,1A,00,00,00,00,00,
4298856647,00000010,false,Rx,9,7,B0,01,10,11,10,0D,00,00,
4298862925,00000008,false,Rx,9,7,B0,01,10,0F,FF,07,00,00,
4298869679,000000AA,false,Rx,9,2,AA,04,00,00,00,00,00,00,
4298871830,00000040,false,Rx,9,3,B0,01,10,00,00,00,00,00,
4298875162,000002BC,false,Rx,9,3,03,00,0B,00,00,00,00,00,
4298876551,00000010,false,Rx,9,7,B0,01,10,11,10,0D,00,00,
4298882866,00000008,false,Rx,9,7,B0,01,10,0F,FF,07,00,00,
4298889059,000000AA,false,Rx,9,2,AA,04,00,00,00,00,00,00,
4298891945,00000040,false,Rx,9,3,B0,01,10,00,00,00,00,00,
4298895148,000002B4,false,Rx,9,3,03,00,0A,00,00,00,00,00,
4298896513,00000010,false,Rx,9,7,B0,01,10,11,10,0D,00,00,
4298902841,00000008,false,Rx,9,7,B0,01,10,0F,FF,07,00,00,
4298909745,000000AA,false,Rx,9,2,AA,04,00,00,00,00,00,00,
4298911890,00000040,false,Rx,9,3,B0,01,10,00,00,00,00,00,
4298913603,000003AC,false,Rx,9,3,03,00,1D,00,00,00,00,00,
4298916561,00000010,false,Rx,9,7,B0,01,10,11,10,0D,00,00,
4298922889,00000008,false,Rx,9,7,B0,01,10,0F,FF,07,00,00,
4298929072,000000AA,false,Rx,9,2,AA,04,00,00,00,00,00,00,
4298931955,00000040,false,Rx,9,3,B0,01,10,00,00,00,00,00,
4298933669,000003A4,false,Rx,9,3,03,00,2C,00,00,00,00,00,
4298936532,00000010,false,Rx,9,7,B0,01,10,11,10,0D,00,00,
4298942945,00000008,false,Rx,9,7,B0,01,10,0F,FF,07,00,00,
4298949143,000000AA,false,Rx,9,2,AA,04,00,00,00,00,00,00,
4298952044,00000040,false,Rx,9,3,B0,01,10,00,00,00,00,00,
4298956550,00000010,false,Rx,9,7,B0,01,10,11,10,0D,00,00,
4298960739,00000010,false,Rx,9,4,30,08,00,2D,00,00,00,00,
4298961609,00000010,false,Rx,9,4,31,08,00,2C,00,00,00,00,
4298962585,00000040,false,Rx,9,3,B0,2D,66,00,00,00,00,00,
4298963667,00000008,false,Rx,9,7,B0,01,10,0F,FF,07,00,00,
4298969695,000000AA,false,Rx,9,2,AA,04,00,00,00,00,00,00,
4298972302,00000040,false,Rx,9,6,B0,01,10,92,FF,FF,00,00,
4298975419,00000040,false,Rx,9,8,B0,93,E2,00,14,00,2D,66,
4298976658,0000029C,false,Rx,9,3,03,00,1A,00,00,00,00,00,
4298978093,00000010,false,Rx,9,7,B0,01,10,11,10,0D,00,00,
4298982905,00000008,false,Rx,9,7,B0,01,10,0F,FF,07,00,00,
4298989104,000000AA,false,Rx,9,2,AA,04,00,00,00,00,00,00,
4298991995,00000040,false,Rx,9,3,B0,01,10,00,00,00,00,00,
4298993818,000002BC,false,Rx,9,3,03,00,0B,00,00,00,00,00,
4298996541,00000010,false,Rx,9,7,B0,01,10,11,10,0E,00,00,
4298997361,00000010,false,Rx,9,3,B0,0D,00,00,00,00,00,00,
4299002898,00000008,false,Rx,9,7,B0,01,10,0F,FF,07,00,00,
4299009701,000000AA,false,Rx,9,2,AA,04,00,00,00,00,00,00,
4299011951,00000040,false,Rx,9,3,B0,01,10,00,00,00,00,00,
4299013774,000002B4,false,Rx,9,3,03,00,0A,00,00,00,00,00,
4299016627,00000010,false,Rx,9,7,B0,01,10,11,10,0D,00,00,
4299022975,00000008,false,Rx,9,7,B0,01,10,0F,FF,07,00,00,
4299029793,000000AA,false,Rx,9,2,AA,04,00,00,00,00,00,00,
4299032040,00000040,false,Rx,9,3,B0,01,10,00,00,00,00,00,
4299035557,000003AC,false,Rx,9,3,03,00,1D,00,00,00,00,00,
4299036515,00000010,false,Rx,9,7,B0,01,10,11,10,0D,00,00,
4299042834,00000008,false,Rx,9,7,B0,01,10,0C,B5,0F,FF,00,
4299044124,00000008,false,Rx,9,7,B0,0E,00,07,00,0D,00,00,
4299049894,000000AA,false,Rx,9,2,AA,04,00,00,00,00,00,00,
4299052018,00000040,false,Rx,9,3,B0,01,10,00,00,00,00,00,
4299055646,000003A4,false,Rx,9,3,03,00,2C,00,00,00,00,00,
4299056567,00000010,false,Rx,9,7,B0,01,10,11,10,0D,00,00,
4299062847,00000008,false,Rx,9,7,B0,01,10,0F,FF,07,00,00,
4299069793,000000AA,false,Rx,9,2,AA,04,00,00,00,00,00,00,
4299071957,00000040,false,Rx,9,3,B0,01,10,00,00,00,00,00,
4299076504,00000010,false,Rx,9,7,B0,01,10,11,10,0D,00,00,
4299082916,00000008,false,Rx,9,7,B0,01,10,0F,FF,07,00,00,
4299089196,000000AA,false,Rx,9,2,AA,04,00,00,00,00,00,00,
4299092095,00000040,false,Rx,9,3,B0,01,10,00,00,00,00,00,
4299095758,0000029C,false,Rx,9,3,03,00,1A,00,00,00,00,00,
4299096694,00000010,false,Rx,9,7,B0,01,10,11,10,0D,00,00,
4299102869,00000008,false,Rx,9,7,B0,01,10,0F,FF,07,00,00,
4299109140,000000AA,false,Rx,9,2,AA,04,00,00,00,00,00,00,
4299112022,00000040,false,Rx,9,3,B0,01,10,00,00,00,00,00,
4299113845,000002BC,false,Rx,9,3,03,00,0B,00,00,00,00,00,
4299116610,00000010,false,Rx,9,7,B0,01,10,11,10,0D,00,00,
4299122911,00000008,false,Rx,9,7,B0,01,10,0F,FF,07,00,00,
4299129798,000000AA,false,Rx,9,2,AA,04,00,00,00,00,00,00,
4299132058,00000040,false,Rx,9,3,B0,01,10,00,00,00,00,00,
4299133774,000002B4,false,Rx,9,3,03,00,0A,00,00,00,00,00,
4299136643,00000010,false,Rx,9,7,B0,01,10,11,10,0D,00,00,
4299142848,00000008,false,Rx,9,7,B0,01,10,0F,FF,07,00,00,
4299149122,000000AA,false,Rx,9,2,AA,04,00,00,00,00,00,00,
4299152112,00000040,false,Rx,9,3,B0,01,10,00,00,00,00,00,
4299153831,000003AC,false,Rx,9,3,03,00,1D,00,00,00,00,00,
4299156625,00000010,false,Rx,9,7,B0,01,10,11,10,0D,00,00,
4299162949,00000008,false,Rx,9,7,B0,01,10,0F,FF,07,00,00,
4299169131,000000AA,false,Rx,9,2,AA,04,00,00,00,00,00,00,
4299172404,00000040,false,Rx,9,6,B0,01,10,92,FF,FF,00,00,
4299174019,00000040,false,Rx,9,8,B0,93,E2,00,14,00,2D,66,
4299175859,000003A4,false,Rx,9,3,03,00,2C,00,00,00,00,00,
4299177609,00000010,false,Rx,9,7,B0,01,10,11,10,0D,00,00,
4299182934,00000008,false,Rx,9,7,B0,01,10,0F,FF,07,00,00,
4299189209,000000AA,false,Rx,9,2,AA,04,00,00,00,00,00,00,
4299192094,00000040,false,Rx,9,3,B0,01,10,00,00,00,00,00,
4299196609,00000010,false,Rx,9,7,B0,01,10,11,10,0E,00,00,
4299197380,00000010,false,Rx,9,3,B0,0D,00,00,00,00,00,00,
4299202857,00000008,false,Rx,9,7,B0,01,10,0F,FF,07,00,00,
4299209131,000000AA,false,Rx,9,2,AA,04,00,00,00,00,00,00,
4299212119,00000040,false,Rx,9,3,B0,01,10,00,00,00,00,00,
4299216081,0000029C,false,Rx,9,3,03,00,1A,00,00,00,00,00,
4299216723,00000010,false,Rx,9,7,B0,01,10,11,10,0D,00,00,
4299222968,00000008,false,Rx,9,7,B0,01,10,0F,FF,07,00,00,
4299229156,000000AA,false,Rx,9,2,AA,04,00,00,00,00,00,00,
4299232250,00000040,false,Rx,9,3,B0,01,10,00,00,00,00,00,
4299233968,000002BC,false,Rx,9,3,03,00,0B,00,00,00,00,00,
4299236629,00000010,false,Rx,9,7,B0,01,10,11,10,0D,00,00,
4299242828,00000008,false,Rx,9,7,B0,01,10,0C,B5,0F,FF,00,
4299244119,00000008,false,Rx,9,7,B0,0E,00,07,00,0D,09,00,
4299249867,000000AA,false,Rx,9,2,AA,04,00,00,00,00,00,00,
4299252006,00000040,false,Rx,9,3,B0,01,10,00,00,00,00,00,
4299254147,000002B4,false,Rx,9,3,03,00,0A,00,00,00,00,00,
4299256649,00000010,false,Rx,9,7,B0,01,10,11,10,0D,00,00,
4299262908,00000008,false,Rx,9,7,B0,01,10,0F,FF,07,00,00,
4299269195,000000AA,false,Rx,9,2,AA,04,00,00,00,00,00,00,
4299272080,00000040,false,Rx,9,3,B0,01,10,00,00,00,00,00,
4299273864,000003AC,false,Rx,9,3,03,00,1D,00,00,00,00,00,
4299276612,00000010,false,Rx,9,7,B0,01,10,11,10,0D,00,00,
4299282960,00000008,false,Rx,9,7,B0,01,10,0F,FF,07,00,00,
4299289241,000000AA,false,Rx,9,2,AA,04,00,00,00,00,00,00,
4299292127,00000040,false,Rx,9,3,B0,01,10,00,00,00,00,00,
4299293846,000003A4,false,Rx,9,3,03,00,2C,00,00,00,00,00,
4299296619,00000010,false,Rx,9,7,B0,01,10,11,10,0D,00,00,
4299302929,00000008,false,Rx,9,7,B0,01,10,0F,FF,07,00,00,
4299309328,000000AA,false,Rx,9,2,AA,04,00,00,00,00,00,00,
4299312117,00000040,false,Rx,9,3,B0,01,10,00,00,00,00,00,
4299316541,00000010,false,Rx,9,7,B0,01,10,11,10,0D,00,00,
4299322869,00000008,false,Rx,9,7,B0,01,10,0F,FF,07,00,00,
4299329245,000000AA,false,Rx,9,2,AA,04,00,00,00,00,00,00,
4299332127,00000040,false,Rx,9,3,B0,01,10,00,00,00,00,00,
4299336518,0000029C,false,Rx,9,3,03,00,1A,00,00,00,00,00,
4299336708,00000010,false,Rx,9,7,B0,01,10,11,10,0D,00,00,
4299342986,00000008,false,Rx,9,7,B0,01,10,0F,FF,07,00,00,
4299349275,000000AA,false,Rx,9,2,AA,04,00,00,00,00,00,00,
4299352158,00000040,false,Rx,9,3,B0,01,10,00,00,00,00,00,
4299353879,000002BC,false,Rx,9,3,03,00,0B,00,00,00,00,00,
4299356636,00000010,false,Rx,9,7,B0,01,10,11,10,0D,00,00,
4299360742,00000010,false,Rx,9,4,30,08,00,2E,00,00,00,00,
4299361612,00000010,false,Rx,9,4,31,08,00,2D,00,00,00,00,
4299363014,00000008,false,Rx,9,7,B0,01,10,0F,FF,07,00,00,
4299363779,00000040,false,Rx,9,3,B0,2E,80,00,00,00,00,00,
4299369204,000000AA,false,Rx,9,2,AA,04,00,00,00,00,00,00,
4299372513,00000040,false,Rx,9,6,B0,01,10,92,FF,FF,00,00,
4299374124,00000040,false,Rx,9,8,B0,93,E2,00,14,00,2E,80,
4299376702,000002B4,false,Rx,9,3,03,00,0A,00,00,00,00,00,
4299377626,00000010,false,Rx,9,7,B0,01,10,11,10,0D,00,00,
4299382919,00000008,false,Rx,9,7,B0,01,10,0F,FF,07,00,00,
4299389309,000000AA,false,Rx,9,2,AA,04,00,00,00,00,00,00,
4299392298,00000040,false,Rx,9,3,B0,01,10,00,00,00,00,00,
4299394968,000003AC,false,Rx,9,3,03,00,1D,00,00,00,00,00,
4299396688,00000010,false,Rx,9,7,B0,01,10,11,10,0E,00,00,
4299397368,00000010,false,Rx,9,3,B0,0D,00,00,00,00,00,00,
4299402905,00000008,false,Rx,9,7,B0,01,10,0F,FF,07,00,00,
4299409283,000000AA,false,Rx,9,2,AA,04,00,00,00,00,00,00,
4299412273,00000040,false,Rx,9,3,B0,01,10,00,00,00,00,00,
4299413989,000003A4,false,Rx,9,3,03,00,2C,00,00,00,00,00,
4299416825,00000010,false,Rx,9,7,B0,01,10,11,10,0D,00,00,
4299422980,00000008,false,Rx,9,7,B0,01,10,0F,FF,07,00,00,
4299429268,000000AA,false,Rx,9,2,AA,04,00,00,00,00,00,00,
4299432255,00000040,false,Rx,9,3,B0,01,10,00,00,00,00,00,
4299436925,00000010,false,Rx,9,7,B0,01,10,11,10,0D,00,00,
4299442828,00000008,false,Rx,9,7,B0,01,10,0C,B5,0F,FF,00,
4299444122,00000008,false,Rx,9,7,B0,0E,00,07,00,0D,09,00,
4299449344,000000AA,false,Rx,9,2,AA,04,00,00,00,00,00,00,
4299452137,00000040,false,Rx,9,3,B0,01,10,00,00,00,00,00,
4299455189,0000029C,false,Rx,9,3,03,00,1A,00,00,00,00,00,
4299457008,00000010,false,Rx,9,7,B0,01,10,11,10,0D,00,00,
4299462907,00000008,false,Rx,9,7,B0,01,10,0F,FF,07,00,00,
4299469260,000000AA,false,Rx,9,2,AA,04,00,00,00,00,00,00,
4299472150,00000040,false,Rx,9,3,B0,01,10,00,00,00,00,00,
4299473870,000002BC,false,Rx,9,3,03,00,0B,00,00,00,00,00,
4299477015,00000010,false,Rx,9,7,B0,01,10,11,10,0D,00,00,
4299483040,00000008,false,Rx,9,7,B0,01,10,0F,FF,07,00,00,
4299489342,000000AA,false,Rx,9,2,AA,04,00,00,00,00,00,00,
4299492232,00000040,false,Rx,9,3,B0,01,10,00,00,00,00,00,
4299493950,000002B4,false,Rx,9,3,03,00,0A,00,00,00,00,00,
4299497131,00000010,false,Rx,9,7,B0,01,10,11,10,0D,00,00,
4299502929,00000008,false,Rx,9,7,B0,01,10,0F,FF,07,00,00,
4299509316,000000AA,false,Rx,9,2,AA,04,00,00,00,00,00,00,
4299512195,00000040,false,Rx,9,3,B0,01,10,00,00,00,00,00,
4299513916,000003AC,false,Rx,9,3,03,00,1D,00,00,00,00,00,
4299517168,00000010,false,Rx,9,7,B0,01,10,11,10,0D,00,00,
4299522930,00000008,false,Rx,9,7,B0,01,10,0F,FF,07,00,00,
4299529957,000000AA,false,Rx,9,2,AA,04,00,00,00,00,00,00,
4299532201,00000040,false,Rx,9,3,B0,01,10,00,00,00,00,00,
4299533921,000003A4,false,Rx,9,3,03,00,2C,00,00,00,00,00,
4299537197,00000010,false,Rx,9,7,B0,01,10,11,10,0D,00,00,
4299542890,00000008,false,Rx,9,7,B0,01,10,0F,FF,07,00,00,
4299549275,000000AA,false,Rx,9,2,AA,04,00,00,00,00,00,00,
4299552264,00000040,false,Rx,9,3,B0,01,10,00,00,00,00,00,
4299557275,00000010,false,Rx,9,7,B0,01,10,11,10,0D,00,00,
4299562969,00000008,false,Rx,9,7,B0,01,10,0F,FF,07,00,00,
4299569368,000000AA,false,Rx,9,2,AA,04,00,00,00,00,00,00,
4299572568,00000040,false,Rx,9,6,B0,01,10,92,FF,FF,00,00,
4299574178,00000040,false,Rx,9,8,B0,93,E2,00,14,00,2E,80,
4299577417,0000029C,false,Rx,9,3,03,00,1A,00,00,00,00,00,
4299578007,00000010,false,Rx,9,7,B0,01,10,11,10,0D,00,00,
4299582979,00000008,false,Rx,9,7,B0,01,10,0F,FF,07,00,00,
4299590011,000000AA,false,Rx,9,2,AA,04,00,00,00,00,00,00,
4299592278,00000040,false,Rx,9,3,B0,01,10,00,00,00,00,00,
4299593996,000002BC,false,Rx,9,3,03,00,0F,00,00,00,00,00,
4299597409,00000010,false,Rx,9,7,B0,01,10,11,10,0E,00,00,
4299597436,00000010,false,Rx,9,3,B0,0D,00,00,00,00,00,00,
4299602979,00000008,false,Rx,9,7,B0,01,10,0F,FF,07,00,00,
4299609374,000000AA,false,Rx,9,2,AA,04,00,00,00,00,00,00,
4299612574,00000040,false,Rx,9,3,B0,01,20,00,00,00,00,00,
4299614715,000002B4,false,Rx,9,3,03,00,0A,00,00,00,00,00,
4299617442,00000010,false,Rx,9,7,B0,01,10,11,20,0D,00,00,
4299623048,00000008,false,Rx,9,7,B0,01,20,0F,FF,07,00,00,
4299629330,000000AA,false,Rx,9,2,AA,04,00,00,00,00,00,00,
4299632319,00000040,false,Rx,9,3,B0,01,20,00,00,00,00,00,
4299634035,000003AC,false,Rx,9,3,03,00,1D,00,00,00,00,00,
4299637441,00000010,false,Rx,9,7,B0,01,20,11,20,0D,00,00,
4299643057,00000008,false,Rx,9,7,B0,01,20,0C,B5,0F,FF,00,
4299644258,00000008,false,Rx,9,7,B0,0E,00,07,00,0D,09,00,
4299650109,000000AA,false,Rx,9,2,AA,04,00,00,00,00,00,00,
4299652250,00000040,false,Rx,9,3,B0,01,20,00,00,00,00,00,
4299653968,000003A4,false,Rx,9,3,03,00,2C,00,00,00,00,00,
4299657563,00000010,false,Rx,9,7,B0,01,20,11,20,0D,00,00,
4299663152,00000008,false,Rx,9,7,B0,01,20,0F,FF,07,00,00,
4299669432,000000AA,false,Rx,9,2,AA,04,00,00,00,00,00,00,
4299672316,00000040,false,Rx,9,3,B0,01,20,00,00,00,00,00,
4299677599,00000010,false,Rx,9,7,B0,01,20,11,20,0D,00,00,
4299683202,00000008,false,Rx,9,7,B0,01,20,0F,FF,07,00,00,
4299689432,000000AA,false,Rx,9,2,AA,04,00,00,00,00,00,00,
4299692324,00000040,false,Rx,9,3,B0,01,20,00,00,00,00,00,
4299695521,0000029C,false,Rx,9,3,03,00,1A,00,00,00,00,00,
4299697669,00000010,false,Rx,9,7,B0,01,20,11,20,0D,00,00,
4299703167,00000008,false,Rx,9,7,B0,01,20,0F,FF,07,00,00,
4299709363,000000AA,false,Rx,9,2,AA,04,00,00,00,00,00,00,
4299712354,00000040,false,Rx,9,3,B0,01,20,00,00,00,00,00,
4299714072,000002BC,false,Rx,9,3,03,00,0F,00,00,00,00,00,
4299717779,00000010,false,Rx,9,7,B0,01,20,11,20,0D,00,00,
4299723176,00000008,false,Rx,9,7,B0,01,20,0F,FF,07,00,00,
4299729467,000000AA,false,Rx,9,2,AA,04,00,00,00,00,00,00,
4299732420,00000040,false,Rx,9,3,B0,01,20,00,00,00,00,00,
4299734140,000002B4,false,Rx,9,3,03,00,0A,00,00,00,00,00,
4299737862,00000010,false,Rx,9,7,B0,01,20,11,20,0D,00,00,
4299743140,00000008,false,Rx,9,7,B0,01,20,0F,FF,07,00,00,
4299749432,000000AA,false,Rx,9,2,AA,04,00,00,00,00,00,00,
4299752422,00000040,false,Rx,9,3,B0,01,20,00,00,00,00,00,
4299754140,000003AC,false,Rx,9,3,03,00,1D,00,00,00,00,00,
4299757853,00000010,false,Rx,9,7,B0,01,20,11,20,0D,00,00,
4299761371,00000010,false,Rx,9,4,30,08,00,2F,00,00,00,00,
4299762254,00000010,false,Rx,9,4,31,08,00,2E,00,00,00,00,
4299763337,00000008,false,Rx,9,7,B0,01,20,0F,FF,07,00,00,
4299764100,00000040,false,Rx,9,3,B0,2F,66,00,00,00,00,00,
4299770163,000000AA,false,Rx,9,2,AA,04,00,00,00,00,00,00,
4299772724,00000040,false,Rx,9,6,B0,01,20,92,FF,FF,00,00,
4299774230,00000040,false,Rx,9,8,B0,93,E2,00,14,00,2F,66,
4299775735,000003A4,false,Rx,9,3,03,00,2C,00,00,00,00,00,
4299777968,00000010,false,Rx,9,7,B0,01,20,11,20,0D,00,00,
4299783115,00000008,false,Rx,9,7,B0,01,20,0F,FF,07,00,00,
4299789456,000000AA,false,Rx,9,2,AA,04,00,00,00,00,00,00,
4299792558,00000040,false,Rx,9,3,B0,01,20,00,00,00,00,00,
4299797898,00000010,false,Rx,9,7,B0,01,20,11,20,0E,00,00,
4299797918,00000010,false,Rx,9,3,B0,0D,00,00,00,00,00,00,
4299803136,00000008,false,Rx,9,7,B0,01,20,0F,FF,07,00,00,
4299810174,000000AA,false,Rx,9,2,AA,04,00,00,00,00,00,00,
4299812422,00000040,false,Rx,9,3,B0,01,20,00,00,00,00,00,
4299815472,0000029C,false,Rx,9,3,03,00,1A,00,00,00,00,00,
4299817925,00000010,false,Rx,9,7,B0,01,20,11,20,0D,00,00,
4299823201,00000008,false,Rx,9,7,B0,01,20,0F,FF,07,00,00,
4299829499,000000AA,false,Rx,9,2,AA,04,00,00,00,00,00,00,
4299832490,00000040,false,Rx,9,3,B0,01,20,00,00,00,00,00,
4299834101,000002BC,false,Rx,9,3,03,00,0F,00,00,00,00,00,
4299838012,00000010,false,Rx,9,7,B0,01,20,11,20,0D,00,00,
4299843071,00000008,false,Rx,9,7,B0,01,20,0C,B5,0F,FF,00,
4299844278,00000008,false,Rx,9,7,B0,0E,00,07,00,0D,09,00,
4299849490,000000AA,false,Rx,9,2,AA,04,00,00,00,00,00,00,
4299852373,00000040,false,Rx,9,3,B0,01,20,00,00,00,00,00,
4299854090,000002B4,false,Rx,9,3,03,00,0A,00,00,00,00,00,
4299858096,00000010,false,Rx,9,7,B0,01,20,11,20,0D,00,00,
4299863178,00000008,false,Rx,9,7,B0,01,20,0F,FF,07,00,00,
4299870200,000000AA,false,Rx,9,2,AA,04,00,00,00,00,00,00,
4299872338,00000040,false,Rx,9,3,B0,01,20,00,00,00,00,00,
4299874056,000003AC,false,Rx,9,3,03,00,1D,00,00,00,00,00,
4299878155,00000010,false,Rx,9,7,B0,01,20,11,20,0D,00,00,
4299883211,00000008,false,Rx,9,7,B0,01,20,0F,FF,07,00,00,
4299889468,000000AA,false,Rx,9,2,AA,04,00,00,00,00,00,00,
4299892396,00000040,false,Rx,9,3,B0,01,20,00,00,00,00,00,
4299894122,000003A4,false,Rx,9,3,03,00,2C,00,00,00,00,00,
4299898235,00000010,false,Rx,9,7,B0,01,20,11,20,0D,00,00,
4299903206,00000008,false,Rx,9,7,B0,01,20,0F,FF,07,00,00,
4299909485,000000AA,false,Rx,9,2,AA,04,00,00,00,00,00,00,
4299912475,00000040,false,Rx,9,3,B0,01,20,00,00,00,00,00,
4299918317,00000010,false,Rx,9,7,B0,01,20,11,20,0D,00,00,
4299923167,00000008,false,Rx,9,7,B0,01,20,0F,FF,07,00,00,
4299930200,000000AA,false,Rx,9,2,AA,04,00,00,00,00,00,00,
4299932449,00000040,false,Rx,9,3,B0,01,20,00,00,00,00,00,
4299935498,0000029C,false,Rx,9,3,03,00,1A,00,00,00,00,00,
4299938367,00000010,false,Rx,9,7,B0,01,20,11,20,0D,00,00,
4299943106,00000008,false,Rx,9,7,B0,01,20,0F,FF,07,00,00,
4299949588,000000AA,false,Rx,9,2,AA,04,00,00,00,00,00,00,
4299952491,00000040,false,Rx,9,3,B0,01,20,00,00,00,00,00,
4299954206,000002BC,false,Rx,9,3,03,00,0F,00,00,00,00,00,
4299958403,00000010,false,Rx,9,7,B0,01,20,11,20,0D,00,00,
4299963159,00000008,false,Rx,9,7,B0,01,20,0F,FF,07,00,00,
4299969488,000000AA,false,Rx,9,2,AA,04,00,00,00,00,00,00,
4299972810,00000040,false,Rx,9,6,B0,01,20,92,FF,FF,00,00,
4299974422,00000040,false,Rx,9,8,B0,93,E2,00,14,00,2F,66,
4299975823,000002B4,false,Rx,9,3,03,00,0A,00,00,00,00,00,
4299978419,00000010,false,Rx,9,7,B0,01,20,11,20,0D,00,00,
4299983187,00000008,false,Rx,9,7,B0,01,20,0F,FF,07,00,00,
4299990311,000000AA,false,Rx,9,2,AA,04,00,00,00,00,00,00,
4299992478,00000040,false,Rx,9,3,B0,01,20,00,00,00,00,00,
4299994226,000003AC,false,Rx,9,3,03,00,1D,00,00,00,00,00,
4299996796,00000010,false,Rx,9,7,B0,01,20,11,20,0E,00,00,
4299998491,00000010,false,Rx,9,3,B0,0D,00,00,00,00,00,00,
4300003112,00000008,false,Rx,9,7,B0,01,20,0F,FF,07,00,00,
4300010240,000000AA,false,Rx,9,2,AA,04,00,00,00,00,00,00,
4300012485,00000040,false,Rx,9,3,B0,01,20,00,00,00,00,00,
4300014204,000003A4,false,Rx,9,3,03,00,2C,00,00,00,00,00,
4300016879,00000010,false,Rx,9,7,B0,01,20,11,20,0D,00,00,
4300023182,00000008,false,Rx,9,7,B0,01,20,0F,FF,07,00,00,
4300030227,000000AA,false,Rx,9,2,AA,04,00,00,00,00,00,00,
4300032475,00000040,false,Rx,9,3,B0,01,20,00,00,00,00,00,
4300036735,00000010,false,Rx,9,7,B0,01,20,11,20,0D,00,00,
4300043089,00000008,false,Rx,9,7,B0,01,20,0C,B5,0F,FF,00,
4300044306,00000008,false,Rx,9,7,B0,0E,00,07,00,0D,09,00,
4300050323,000000AA,false,Rx,9,2,AA,04,00,00,00,00,00,00,
4300052748,00000040,false,Rx,9,3,B0,01,20,00,00,00,00,00,
4300055504,0000029C,false,Rx,9,3,03,00,1A,00,00,00,00,00,
4300057029,00000010,false,Rx,9,7,B0,01,20,11,20,0D,00,00,
4300063262,00000008,false,Rx,9,7,B0,01,20,0F,FF,07,00,00,
4300069568,000000AA,false,Rx,9,2,AA,04,00,00,00,00,00,00,
4300072453,00000040,false,Rx,9,3,B0,01,20,00,00,00,00,00,
4300074171,000002BC,false,Rx,9,3,03,00,0F,00,00,00,00,00,
4300076845,00000010,false,Rx,9,7,B0,01,20,11,20,0D,00,00,
4300083177,00000008,false,Rx,9,7,B0,01,20,0F,FF,07,00,00,
4300089590,000000AA,false,Rx,9,2,AA,04,00,00,00,00,00,00,
4300092529,00000040,false,Rx,9,3,B0,01,20,00,00,00,00,00,
4300094256,000002B4,false,Rx,9,3,03,00,0A,00,00,00,00,00,
4300096855,00000010,false,Rx,9,7,B0,01,20,11,20,0D,00,00,
4300103265,00000008,false,Rx,9,7,B0,01,20,0F,FF,07,00,00,
4300109573,000000AA,false,Rx,9,2,AA,04,00,00,00,00,00,00,
4300112564,00000040,false,Rx,9,3,B0,01,20,00,00,00,00,00,
4300114283,000003AC,false,Rx,9,3,03,00,1D,00,00,00,00,00,
4300116850,00000010,false,Rx,9,7,B0,01,20,11,20,0D,00,00,
4300123246,00000008,false,Rx,9,7,B0,01,20,0F,FF,07,00,00,
4300129549,000000AA,false,Rx,9,2,AA,04,00,00,00,00,00,00,
4300132537,00000040,false,Rx,9,3,B0,01,20,00,00,00,00,00,
4300134255,000003A4,false,Rx,9,3,03,00,2C,00,00,00,00,00,
4300136825,00000010,false,Rx,9,7,B0,01,20,11,20,0D,00,00,
4300143201,00000008,false,Rx,9,7,B0,01,20,0F,FF,07,00,00,
4300149609,000000AA,false,Rx,9,2,AA,04,00,00,00,00,00,00,
4300152595,00000040,false,Rx,9,3,B0,01,20,00,00,00,00,00,
4300156858,00000010,false,Rx,9,7,B0,01,20,11,20,0D,00,00,
4300161012,00000010,false,Rx,9,4,30,08,00,30,00,00,00,00,
4300161872,00000010,false,Rx,9,4,31,08,00,2F,00,00,00,00,
4300163399,00000008,false,Rx,9,7,B0,01,20,0F,FF,07,00,00,
4300164057,00000040,false,Rx,9,3,B0,30,66,00,00,00,00,00,
4300170328,000000AA,false,Rx,9,2,AA,04,00,00,00,00,00,00,
4300172893,00000040,false,Rx,9,6,B0,01,20,92,FF,FF,00,00,
4300174399,00000040,false,Rx,9,8,B0,93,E2,00,14,00,30,66,
4300177135,0000029C,false,Rx,9,3,03,00,1A,00,00,00,00,00,
4300179041,00000010,false,Rx,9,7,B0,01,20,11,20,0D,00,00,
4300183160,00000008,false,Rx,9,7,B0,01,20,0F,FF,07,00,00,
4300190284,000000AA,false,Rx,9,2,AA,04,00,00,00,00,00,00,
4300192529,00000040,false,Rx,9,3,B0,01,20,00,00,00,00,00,
4300194248,000002BC,false,Rx,9,3,03,00,0F,00,00,00,00,00,
4300196948,00000010,false,Rx,9,7,B0,01,20,11,20,0E,00,00,
4300199141,00000010,false,Rx,9,3,B0,0D,00,00,00,00,00,00,
4300203240,00000008,false,Rx,9,7,B0,01,20,0F,FF,07,00,00,
4300210367,000000AA,false,Rx,9,2,AA,04,00,00,00,00,00,00,
4300212614,00000040,false,Rx,9,3,B0,01,20,00,00,00,00,00,
4300214333,000002B4,false,Rx,9,3,03,00,02,00,00,00,00,00,
4300216899,00000010,false,Rx,9,7,B0,01,20,11,20,0D,00,00,
4300223385,00000008,false,Rx,9,7,B0,01,20,0F,FF,07,00,00,
4300229654,000000AA,false,Rx,9,2,AA,04,00,00,00,00,00,00,
4300232645,00000040,false,Rx,9,3,B0,01,20,00,00,00,00,00,
4300234365,000003AC,false,Rx,9,3,03,00,1D,00,00,00,00,00,
4300236932,00000010,false,Rx,9,7,B0,01,20,11,20,0D,00,00,
4300243171,00000008,false,Rx,9,7,B0,01,20,0C,B5,0F,FF,00,
4300244283,00000008,false,Rx,9,7,B0,0E,00,07,00,0D,09,00,
4300249603,000000AA,false,Rx,9,2,AA,04,00,00,00,00,00,00,
4300252590,00000040,false,Rx,9,3,B0,01,20,00,00,00,00,00,
4300254311,000003A4,false,Rx,9,3,03,00,2C,00,00,00,00,00,
4300256879,00000010,false,Rx,9,7,B0,01,20,11,20,0D,00,00,
4300263230,00000008,false,Rx,9,7,B0,01,20,0F,FF,07,00,00,
4300269610,000000AA,false,Rx,9,2,AA,04,00,00,00,00,00,00,
4300272618,00000040,false,Rx,9,3,B0,01,20,00,00,00,00,00,
4300276884,00000010,false,Rx,9,7,B0,01,20,11,20,0D,00,00,
4300283245,00000008,false,Rx,9,7,B0,01,20,0F,FF,07,00,00,
4300290399,000000AA,false,Rx,9,2,AA,04,00,00,00,00,00,00,
4300292646,00000040,false,Rx,9,3,B0,01,20,00,00,00,00,00,
4300295591,0000029C,false,Rx,9,3,03,00,1A,00,00,00,00,00,
4300297168,00000010,false,Rx,9,7,B0,01,20,11,20,0D,00,00,
4300303268,00000008,false,Rx,9,7,B0,01,20,0F,FF,07,00,00,
4300309673,000000AA,false,Rx,9,2,AA,04,00,00,00,00,00,00,
4300312675,00000040,false,Rx,9,3,B0,01,20,00,00,00,00,00,
4300314393,000002BC,false,Rx,9,3,03,00,0F,00,00,00,00,00,
4300316856,00000010,false,Rx,9,7,B0,01,20,11,20,0D,00,00,
4300323193,00000008,false,Rx,9,7,B0,01,20,0F,FF,07,00,00,
4300329714,000000AA,false,Rx,9,2,AA,04,00,00,00,00,00,00,
4300332595,00000040,false,Rx,9,3,B0,01,20,00,00,00,00,00,
4300334419,000002B4,false,Rx,9,3,03,00,02,00,00,00,00,00,
4300336879,00000010,false,Rx,9,7,B0,01,20,11,20,0D,00,00,
4300343294,00000008,false,Rx,9,7,B0,01,20,0F,FF,07,00,00,
4300349701,000000AA,false,Rx,9,2,AA,04,00,00,00,00,00,00,
4300352689,00000040,false,Rx,9,3,B0,01,20,00,00,00,00,00,
4300354408,000003AC,false,Rx,9,3,03,00,1D,00,00,00,00,00,
4300356869,00000010,false,Rx,9,7,B0,01,20,11,20,0D,00,00,
4300363247,00000008,false,Rx,9,7,B0,01,20,0F,FF,07,00,00,
4300369645,000000AA,false,Rx,9,2,AA,04,00,00,00,00,00,00,
4300372955,00000040,false,Rx,9,6,B0,01,20,92,FF,FF,00,00,
4300374564,00000040,false,Rx,9,8,B0,93,E2,00,14,00,30,66,
4300375966,000003A4,false,Rx,9,3,03,00,2C,00,00,00,00,00,
4300379535,00000010,false,Rx,9,7,B0,01,20,11,20,0D,00,00,
4300383230,00000008,false,Rx,9,7,B0,01,20,0F,FF,07,00,00,
4300389735,000000AA,false,Rx,9,2,AA,04,00,00,00,00,00,00,
4300392739,00000040,false,Rx,9,3,B0,01,20,00,00,00,00,00,
4300396794,00000010,false,Rx,9,7,B0,01,20,11,20,0E,00,00,
4300397659,00000010,false,Rx,9,3,B0,0D,00,00,00,00,00,00,
4300403208,00000008,false,Rx,9,7,B0,01,20,0F,FF,07,00,00,
4300409714,000000AA,false,Rx,9,2,AA,04,00,00,00,00,00,00,
4300412816,00000040,false,Rx,9,3,B0,01,20,00,00,00,00,00,
4300415863,0000029C,false,Rx,9,3,03,00,1A,00,00,00,00,00,
4300417385,00000010,false,Rx,9,7,B0,01,20,11,20,0D,00,00,
4300423279,00000008,false,Rx,9,7,B0,01,20,0F,FF,07,00,00,
4300429775,000000AA,false,Rx,9,2,AA,04,00,00,00,00,00,00,
4300432879,00000040,false,Rx,9,3,B0,01,20,00,00,00,00,00,
4300434596,000002BC,false,Rx,9,3,03,00,0F,00,00,00,00,00,
4300436951,00000010,false,Rx,9,7,B0,01,20,11,20,0D,00,00,
4300443102,00000008,false,Rx,9,7,B0,01,20,0C,B5,0F,FF,00,
4300444321,00000008,false,Rx,9,7,B0,0E,00,07,00,0D,09,00,
4300450492,000000AA,false,Rx,9,2,AA,04,00,00,00,00,00,00,
4300452648,00000040,false,Rx,9,3,B0,01,20,00,00,00,00,00,
4300454368,000002B4,false,Rx,9,3,03,00,0A,00,00,00,00,00,
4300456935,00000010,false,Rx,9,7,B0,01,20,11,20,0D,00,00,
4300463293,00000008,false,Rx,9,7,B0,01,20,0F,FF,07,00,00,
4300469725,000000AA,false,Rx,9,2,AA,04,00,00,00,00,00,00,
4300472621,00000040,false,Rx,9,3,B0,01,20,00,00,00,00,00,
4300474338,000003AC,false,Rx,9,3,03,00,1D,00,00,00,00,00,
4300476905,00000010,false,Rx,9,7,B0,01,20,11,20,0D,00,00,
4300483221,00000008,false,Rx,9,7,B0,01,20,0F,FF,07,00,00,
4300489724,000000AA,false,Rx,9,2,AA,04,00,00,00,00,00,00,
4300492714,00000040,false,Rx,9,3,B0,01,20,00,00,00,00,00,
4300494431,000003A4,false,Rx,9,3,03,00,2C,00,00,00,00,00,
4300496890,00000010,false,Rx,9,7,B0,01,20,11,20,0D,00,00,
4300503298,00000008,false,Rx,9,7,B0,01,20,0F,FF,07,00,00,
4300509729,000000AA,false,Rx,9,2,AA,04,00,00,00,00,00,00,
4300512723,00000040,false,Rx,9,3,B0,01,20,00,00,00,00,00,
4300516884,00000010,false,Rx,9,7,B0,01,20,11,20,0D,00,00,
4300523242,00000008,false,Rx,9,7,B0,01,20,0F,FF,07,00,00,
4300529804,000000AA,false,Rx,9,2,AA,04,00,00,00,00,00,00,
4300532696,00000040,false,Rx,9,3,B0,01,20,00,00,00,00,00,
4300535748,0000029C,false,Rx,9,3,03,00,1A,00,00,00,00,00,
4300537277,00000010,false,Rx,9,7,B0,01,20,11,20,0D,00,00,
4300543208,00000008,false,Rx,9,7,B0,01,20,0F,FF,07,00,00,
4300549730,000000AA,false,Rx,9,2,AA,04,00,00,00,00,00,00,
4300552719,00000040,false,Rx,9,3,B0,01,20,00,00,00,00,00,
4300554426,000002BC,false,Rx,9,3,03,00,0F,00,00,00,00,00,
4300556896,00000010,false,Rx,9,7,B0,01,20,11,20,0D,00,00,
4300561053,00000010,false,Rx,9,4,30,08,00,31,00,00,00,00,
4300561819,00000010,false,Rx,9,4,31,08,00,30,00,00,00,00,
4300562571,00000040,false,Rx,9,3,B0,31,99,00,00,00,00,00,
4300563661,00000008,false,Rx,9,7,B0,01,20,0F,FF,07,00,00,
4300569866,000000AA,false,Rx,9,2,AA,04,00,00,00,00,00,00,
4300573090,00000040,false,Rx,9,6,B0,01,20,92,FF,FF,00,00,
4300574596,00000040,false,Rx,9,8,B0,93,E2,00,14,00,31,99,
4300576100,000002B4,false,Rx,9,3,03,00,02,00,00,00,00,00,
4300578558,00000010,false,Rx,9,7,B0,01,20,11,20,0D,00,00,
4300583305,00000008,false,Rx,9,7,B0,01,20,0F,FF,07,00,00,
4300589824,000000AA,false,Rx,9,2,AA,04,00,00,00,00,00,00,
4300592811,00000040,false,Rx,9,3,B0,01,20,00,00,00,00,00,
4300594525,000003AC,false,Rx,9,3,03,00,1D,00,00,00,00,00,
4300596879,00000010,false,Rx,9,7,B0,01,20,11,20,0E,00,00,
4300597745,00000010,false,Rx,9,3,B0,0D,00,00,00,00,00,00,
4300603203,00000008,false,Rx,9,7,B0,01,20,0F,FF,07,00,00,
4300610478,000000AA,false,Rx,9,2,AA,04,00,00,00,00,00,00,
4300612735,00000040,false,Rx,9,3,B0,01,20,00,00,00,00,00,
4300614453,000003A4,false,Rx,9,3,03,00,2C,00,00,00,00,00,
4300616916,00000010,false,Rx,9,7,B0,01,20,11,20,0D,00,00,
4300623294,00000008,false,Rx,9,7,B0,01,20,0F,FF,07,00,00,
4300629806,000000AA,false,Rx,9,2,AA,04,00,00,00,00,00,00,
4300632795,00000040,false,Rx,9,3,B0,01,20,00,00,00,00,00,
4300636845,00000010,false,Rx,9,7,B0,01,20,11,20,0D,00,00,
4300643099,00000008,false,Rx,9,7,B0,01,20,0C,B5,0F,FF,00,
4300644314,00000008,false,Rx,9,7,B0,0E,00,07,00,0D,09,00,
4300649847,000000AA,false,Rx,9,2,AA,04,00,00,00,00,00,00,
4300652724,00000040,false,Rx,9,3,B0,01,20,00,00,00,00,00,
4300655780,0000029C,false,Rx,9,3,03,00,1A,00,00,00,00,00,
4300657306,00000010,false,Rx,9,7,B0,01,20,11,20,0D,00,00,
4300663212,00000008,false,Rx,9,7,B0,01,20,0F,FF,07,00,00,
4300669845,000000AA,false,Rx,9,2,AA,04,00,00,00,00,00,00,
4300672724,00000040,false,Rx,9,3,B0,01,20,00,00,00,00,00,
4300674443,000002BC,false,Rx,9,3,03,00,0F,00,00,00,00,00,
4300676905,00000010,false,Rx,9,7,B0,01,20,11,20,0D,00,00,
4300683313,00000008,false,Rx,9,7,B0,01,20,0F,FF,07,00,00,
4300689853,000000AA,false,Rx,9,2,AA,04,00,00,00,00,00,00,
4300692842,00000040,false,Rx,9,3,B0,01,20,00,00,00,00,00,
4300694575,000002B4,false,Rx,9,3,03,00,02,00,00,00,00,00,
4300696990,00000010,false,Rx,9,7,B0,01,20,11,20,0D,00,00,
4300703223,00000008,false,Rx,9,7,B0,01,20,0F,FF,07,00,00,
4300709891,000000AA,false,Rx,9,2,AA,04,00,00,00,00,00,00,
4300712815,00000040,false,Rx,9,3,B0,01,20,00,00,00,00,00,
4300714535,000003AC,false,Rx,9,3,03,00,1D,00,00,00,00,00,
4300716995,00000010,false,Rx,9,7,B0,01,20,11,20,0D,00,00,
4300723294,00000008,false,Rx,9,7,B0,01,20,0F,FF,07,00,00,
4300729894,000000AA,false,Rx,9,2,AA,04,00,00,00,00,00,00,
4300732829,00000040,false,Rx,9,3,B0,01,20,00,00,00,00,00,
4300734546,000003A4,false,Rx,9,3,03,00,2C,00,00,00,00,00,
4300736901,00000010,false,Rx,9,7,B0,01,20,11,20,0D,00,00,
4300743237,00000008,false,Rx,9,7,B0,01,20,0F,FF,07,00,00,
4300750604,000000AA,false,Rx,9,2,AA,04,00,00,00,00,00,00,
4300752855,00000040,false,Rx,9,3,B0,01,20,00,00,00,00,00,
4300756905,00000010,false,Rx,9,7,B0,01,20,11,20,0D,00,00,
4300763284,00000008,false,Rx,9,7,B0,01,20,0F,FF,07,00,00,
4300769889,000000AA,false,Rx,9,2,AA,04,00,00,00,00,00,00,
4300773101,00000040,false,Rx,9,6,B0,01,20,92,FF,FF,00,00,
4300774710,00000040,false,Rx,9,8,B0,93,E2,00,14,00,31,99,
4300777447,0000029C,false,Rx,9,3,03,00,1A,00,00,00,00,00,
4300778975,00000010,false,Rx,9,7,B0,01,20,11,20,0D,00,00,
4300783293,00000008,false,Rx,9,7,B0,01,20,0F,FF,07,00,00,
4300790554,000000AA,false,Rx,9,2,AA,04,00,00,00,00,00,00,
4300792803,00000040,false,Rx,9,3,B0,01,20,00,00,00,00,00,
4300794519,000002BC,false,Rx,9,3,03,00,0F,00,00,00,00,00,
4300796980,00000010,false,Rx,9,7,B0,01,20,11,20,0E,00,00,
4300797849,00000010,false,Rx,9,3,B0,0D,00,00,00,00,00,00,
4300803477,00000008,false,Rx,9,7,B0,01,20,0F,FF,07,00,00,
4300810630,000000AA,false,Rx,9,2,AA,04,00,00,00,00,00,00,
4300812812,00000040,false,Rx,9,3,B0,01,20,00,00,00,00,00,
4300814540,000002B4,false,Rx,9,3,03,00,0A,00,00,00,00,00,
4300817001,00000010,false,Rx,9,7,B0,01,20,11,20,0D,00,00,
4300823284,00000008,false,Rx,9,7,B0,01,20,0F,FF,07,00,00,
4300829906,000000AA,false,Rx,9,2,AA,04,00,00,00,00,00,00,
4300832896,00000040,false,Rx,9,3,B0,01,20,00,00,00,00,00,
4300834611,000003AC,false,Rx,9,3,03,00,1D,00,00,00,00,00,
4300836968,00000010,false,Rx,9,7,B0,01,20,11,20,0D,00,00,
4300843123,00000008,false,Rx,9,7,B0,01,20,0C,B5,0F,FF,00,
4300844340,00000008,false,Rx,9,7,B0,0E,00,07,00,0D,09,00,
4300849976,000000AA,false,Rx,9,2,AA,04,00,00,00,00,00,00,
4300852869,00000040,false,Rx,9,3,B0,01,20,00,00,00,00,00,
4300854584,000003A4,false,Rx,9,3,03,00,2C,00,00,00,00,00,
4300856939,00000010,false,Rx,9,7,B0,01,20,11,20,0D,00,00,
4300863300,00000008,false,Rx,9,7,B0,01,20,0F,FF,07,00,00,
4300869925,000000AA,false,Rx,9,2,AA,04,00,00,00,00,00,00,
4300872809,00000040,false,Rx,9,3,B0,01,20,00,00,00,00,00,
4300876962,00000010,false,Rx,9,7,B0,01,20,11,20,0D,00,00,
4300883307,00000008,false,Rx,9,7,B0,01,20,0F,FF,07,00,00,
4300889872,000000AA,false,Rx,9,2,AA,04,00,00,00,00,00,00,
4300892869,00000040,false,Rx,9,3,B0,01,20,00,00,00,00,00,
4300895921,0000029C,false,Rx,9,3,03,00,1A,00,00,00,00,00,
4300897446,00000010,false,Rx,9,7,B0,01,20,11,20,0D,00,00,
4300903253,00000008,false,Rx,9,7,B0,01,20,0F,FF,07,00,00,
4300909884,000000AA,false,Rx,9,2,AA,04,00,00,00,00,00,00,
4300912912,00000040,false,Rx,9,3,B0,01,20,00,00,00,00,00,
4300914640,000002BC,false,Rx,9,3,03,00,0F,00,00,00,00,00,
4300917021,00000010,false,Rx,9,7,B0,01,20,11,20,0D,00,00,
4300923265,00000008,false,Rx,9,7,B0,01,20,0F,FF,07,00,00,
4300929935,000000AA,false,Rx,9,2,AA,04,00,00,00,00,00,00,
4300932925,00000040,false,Rx,9,3,B0,01,20,00,00,00,00,00,
4300934640,000002B4,false,Rx,9,3,03,00,0A,00,00,00,00,00,
4300936996,00000010,false,Rx,9,7,B0,01,20,11,20,0D,00,00,
4300943257,00000008,false,Rx,9,7,B0,01,20,0F,FF,07,00,00,
4300949997,000000AA,false,Rx,9,2,AA,04,00,00,00,00,00,00,
4300952896,00000040,false,Rx,9,3,B0,01,20,00,00,00,00,00,
4300954611,000003AC,false,Rx,9,3,03,00,1D,00,00,00,00,00,
4300956966,00000010,false,Rx,9,7,B0,01,20,11,20,0D,00,00,
4300961091,00000010,false,Rx,9,4,30,08,00,32,00,00,00,00,
4300961809,00000010,false,Rx,9,4,31,08,00,31,00,00,00,00,
4300962632,00000040,false,Rx,9,3,B0,32,CC,00,00,00,00,00,
4300963730,00000008,false,Rx,9,7,B0,01,20,0F,FF,07,00,00,
4300970696,000000AA,false,Rx,9,2,AA,04,00,00,00,00,00,00,
4300973167,00000040,false,Rx,9,6,B0,01,20,92,FF,FF,00,00,
4300974780,00000040,false,Rx,9,8,B0,93,E2,00,14,00,32,CC,
4300976177,000003A4,false,Rx,9,3,03,00,2C,00,00,00,00,00,
4300978740,00000010,false,Rx,9,7,B0,01,20,11,20,0D,00,00,
4300983310,00000008,false,Rx,9,7,B0,01,20,0F,FF,07,00,00,
4300989939,000000AA,false,Rx,9,2,AA,04,00,00,00,00,00,00,
4300992929,00000040,false,Rx,9,3,B0,01,20,00,00,00,00,00,
4300996869,00000010,false,Rx,9,7,B0,01,20,11,20,0E,00,00,
4300997735,00000010,false,Rx,9,3,B0,0D,00,00,00,00,00,00,
4301003419,00000008,false,Rx,9,7,B0,01,20,0F,FF,07,00,00,
4301009953,000000AA,false,Rx,9,2,AA,04,00,00,00,00,00,00,
4301012956,00000040,false,Rx,9,3,B0,01,20,00,00,00,00,00,
4301015982,0000029C,false,Rx,9,3,03,00,1A,00,00,00,00,00,
4301017520,00000010,false,Rx,9,7,B0,01,20,11,20,0D,00,00,
4301023278,00000008,false,Rx,9,7,B0,01,20,0F,FF,07,00,00,
4301030006,000000AA,false,Rx,9,2,AA,04,00,00,00,00,00,00,
4301033101,00000040,false,Rx,9,3,B0,01,20,00,00,00,00,00,
4301034819,000002BC,false,Rx,9,3,03,00,0F,00,00,00,00,00,
4301037066,00000010,false,Rx,9,7,B0,01,20,11,20,0D,00,00,
4301043347,00000008,false,Rx,9,7,B0,01,20,0C,B5,0F,FF,00,
4301044389,00000008,false,Rx,9,7,B0,0E,00,07,00,0D,09,00,
4301050065,000000AA,false,Rx,9,2,AA,04,00,00,00,00,00,00,
4301052930,00000040,false,Rx,9,3,B0,01,20,00,00,00,00,00,
4301054700,000002B4,false,Rx,9,3,03,00,02,00,00,00,00,00,
4301056967,00000010,false,Rx,9,7,B0,01,20,11,20,0D,00,00,
4301063242,00000008,false,Rx,9,7,B0,01,20,0F,FF,07,00,00,
4301070774,000000AA,false,Rx,9,2,AA,04,00,00,00,00,00,00,
4301072925,00000040,false,Rx,9,3,B0,01,20,00,00,00,00,00,
4301074640,000003AC,false,Rx,9,3,03,00,1D,00,00,00,00,00,
4301076995,00000010,false,Rx,9,7,B0,01,20,11,20,0D,00,00,
4301083327,00000008,false,Rx,9,7,B0,01,20,0F,FF,07,00,00,
4301089953,000000AA,false,Rx,9,2,AA,04,00,00,00,00,00,00,
4301092945,00000040,false,Rx,9,3,B0,01,20,00,00,00,00,00,
4301094659,000003A4,false,Rx,9,3,03,00,2C,00,00,00,00,00,
4301097014,00000010,false,Rx,9,7,B0,01,20,11,20,0D,00,00,
4301103246,00000008,false,Rx,9,7,B0,01,20,0F,FF,07,00,00,
4301110034,000000AA,false,Rx,9,2,AA,04,00,00,00,00,00,00,
4301113034,00000040,false,Rx,9,3,B0,01,20,00,00,00,00,00,
4301116953,00000010,false,Rx,9,7,B0,01,20,11,20,0D,00,00,
4301123294,00000008,false,Rx,9,7,B0,01,20,0F,FF,07,00,00,
4301130012,000000AA,false,Rx,9,2,AA,04,00,00,00,00,00,00,
4301133001,00000040,false,Rx,9,3,B0,01,20,00,00,00,00,00,
4301135948,0000029C,false,Rx,9,3,03,00,1A,00,00,00,00,00,
4301137472,00000010,false,Rx,9,7,B0,01,20,11,20,0D,00,00,
4301143267,00000008,false,Rx,9,7,B0,01,20,0F,FF,07,00,00,
4301150051,000000AA,false,Rx,9,2,AA,04,00,00,00,00,00,00,
4301153161,00000040,false,Rx,9,3,B0,01,20,00,00,00,00,00,
4301154879,000002BC,false,Rx,9,3,03,00,0F,00,00,00,00,00,
4301157126,00000010,false,Rx,9,7,B0,01,20,11,20,0D,00,00,
4301163254,00000008,false,Rx,9,7,B0,01,20,0F,FF,07,00,00,
4301169984,000000AA,false,Rx,9,2,AA,04,00,00,00,00,00,00,
4301173291,00000040,false,Rx,9,6,B0,01,20,92,FF,FF,00,00,
4301174901,00000040,false,Rx,9,8,B0,93,E2,00,14,00,32,CC,
4301176300,000002B4,false,Rx,9,3,03,00,0A,00,00,00,00,00,
4301178865,00000010,false,Rx,9,7,B0,01,20,11,20,0D,00,00,
4301183324,00000008,false,Rx,9,7,B0,01,20,0F,FF,07,00,00,
4301190101,000000AA,false,Rx,9,2,AA,04,00,00,00,00,00,00,
4301192999,00000040,false,Rx,9,3,B0,01,20,00,00,00,00,00,
4301194714,000003AC,false,Rx,9,3,03,00,1D,00,00,00,00,00,
4301197069,00000010,false,Rx,9,7,B0,01,20,11,20,0E,00,00,
4301197847,00000010,false,Rx,9,3,B0,0D,00,00,00,00,00,00,
4301203239,00000008,false,Rx,9,7,B0,01,20,0F,FF,07,00,00,
4301210819,000000AA,false,Rx,9,2,AA,04,00,00,00,00,00,00,
4301213066,00000040,false,Rx,9,3,B0,01,20,00,00,00,00,00,
4301214785,000003A4,false,Rx,9,3,03,00,2C,00,00,00,00,00,
4301217030,00000010,false,Rx,9,7,B0,01,20,11,20,0D,00,00,
4301223294,00000008,false,Rx,9,7,B0,01,20,0F,FF,07,00,00,
4301230135,000000AA,false,Rx,9,2,AA,04,00,00,00,00,00,00,
4301233030,00000040,false,Rx,9,3,B0,01,20,00,00,00,00,00,
4301236975,00000010,false,Rx,9,7,B0,01,20,11,20,0D,00,00,
4301243142,00000008,false,Rx,9,7,B0,01,20,0C,B5,0F,FF,00,
4301244359,00000008,false,Rx,9,7,B0,0E,00,07,00,0D,09,00,
4301249999,000000AA,false,Rx,9,2,AA,04,00,00,00,00,00,00,
4301252989,00000040,false,Rx,9,3,B0,01,20,00,00,00,00,00,
4301256037,0000029C,false,Rx,9,3,03,00,1A,00,00,00,00,00,
4301257562,00000010,false,Rx,9,7,B0,01,20,11,20,0D,00,00,
4301263296,00000008,false,Rx,9,7,B0,01,20,0F,FF,07,00,00,
4301270099,000000AA,false,Rx,9,2,AA,04,00,00,00,00,00,00,
4301272995,00000040,false,Rx,9,3,B0,01,20,00,00,00,00,00,
4301274709,000002BC,false,Rx,9,3,03,00,0F,00,00,00,00,00,
4301277066,00000010,false,Rx,9,7,B0,01,20,11,20,0D,00,00,
4301283322,00000008,false,Rx,9,7,B0,01,20,0F,FF,07,00,00,
4301290799,000000AA,false,Rx,9,2,AA,04,00,00,00,00,00,00,
4301293043,00000040,false,Rx,9,3,B0,01,20,00,00,00,00,00,
4301294759,000002B4,false,Rx,9,3,03,00,0A,00,00,00,00,00,
4301297012,00000010,false,Rx,9,7,B0,01,20,11,20,0D,00,00,
4301303250,00000008,false,Rx,9,7,B0,01,20,0F,FF,07,00,00,
4301310121,000000AA,false,Rx,9,2,AA,04,00,00,00,00,00,00,
4301313121,00000040,false,Rx,9,3,B0,01,20,00,00,00,00,00,
4301314840,000003AC,false,Rx,9,3,03,00,1D,00,00,00,00,00,
4301317190,00000010,false,Rx,9,7,B0,01,20,11,20,0D,00,00,
4301323324,00000008,false,Rx,9,7,B0,01,20,0F,FF,07,00,00,
4301330923,000000AA,false,Rx,9,2,AA,04,00,00,00,00,00,00,
4301333173,00000040,false,Rx,9,3,B0,01,20,00,00,00,00,00,
4301334893,000003A4,false,Rx,9,3,03,00,2C,00,00,00,00,00,
4301337140,00000010,false,Rx,9,7,B0,01,20,11,20,0D,00,00,
4301343305,00000008,false,Rx,9,7,B0,01,20,0F,FF,07,00,00,
4301350893,000000AA,false,Rx,9,2,AA,04,00,00,00,00,00,00,
4301353050,00000040,false,Rx,9,3,B0,01,20,00,00,00,00,00,
4301356995,00000010,false,Rx,9,7,B0,01,20,11,20,0D,00,00,
4301362098,00000010,false,Rx,9,4,30,08,00,33,00,00,00,00,
4301362120,00000010,false,Rx,9,4,31,08,00,32,00,00,00,00,
4301362515,00000040,false,Rx,9,3,B0,33,B3,00,00,00,00,00,
4301363600,00000008,false,Rx,9,7,B0,01,20,0F,FF,07,00,00,
4301370090,000000AA,false,Rx,9,2,AA,04,00,00,00,00,00,00,
4301373504,00000040,false,Rx,9,6,B0,01,20,92,FF,FF,00,00,
4301375115,00000040,false,Rx,9,8,B0,93,E2,00,14,00,33,B3,
4301377848,0000029C,false,Rx,9,3,03,00,1A,00,00,00,00,00,
4301379373,00000010,false,Rx,9,7,B0,01,20,11,20,0D,00,00,
4301383389,00000008,false,Rx,9,7,B0,01,20,0F,FF,07,00,00,
4301391044,000000AA,false,Rx,9,2,AA,04,00,00,00,00,00,00,
4301393195,00000040,false,Rx,9,3,B0,01,20,00,00,00,00,00,
4301394916,000002BC,false,Rx,9,3,03,00,0F,00,00,00,00,00,
4301397161,00000010,false,Rx,9,7,B0,01,20,11,20,0E,00,00,
4301398029,00000010,false,Rx,9,3,B0,0D,00,00,00,00,00,00,
4301403339,00000008,false,Rx,9,7,B0,01,20,0F,FF,07,00,00,
4301410068,000000AA,false,Rx,9,2,AA,04,00,00,00,00,00,00,
4301413163,00000040,false,Rx,9,3,B0,01,20,00,00,00,00,00,
4301414879,000002B4,false,Rx,9,3,03,00,02,00,00,00,00,00,
4301417127,00000010,false,Rx,9,7,B0,01,20,11,20,0D,00,00,
4301423322,00000008,false,Rx,9,7,B0,01,20,0F,FF,07,00,00,
4301430208,000000AA,false,Rx,9,2,AA,04,00,00,00,00,00,00,
4301433101,00000040,false,Rx,9,3,B0,01,20,00,00,00,00,00,
4301434819,000003AC,false,Rx,9,3,03,00,1D,00,00,00,00,00,
4301437062,00000010,false,Rx,9,7,B0,01,20,11,20,0D,00,00,
4301443227,00000008,false,Rx,9,7,B0,01,20,0C,B5,0F,FF,00,
4301444443,00000008,false,Rx,9,7,B0,0E,00,07,00,0D,09,00,
4301450865,000000AA,false,Rx,9,2,AA,04,00,00,00,00,00,00,
4301453029,00000040,false,Rx,9,3,B0,01,20,00,00,00,00,00,
4301454742,000003A4,false,Rx,9,3,03,00,2C,00,00,00,00,00,
4301457095,00000010,false,Rx,9,7,B0,01,20,11,20,0D,00,00,
4301463348,00000008,false,Rx,9,7,B0,01,20,0F,FF,07,00,00,
4301470880,000000AA,false,Rx,9,2,AA,04,00,00,00,00,00,00,
4301473026,00000040,false,Rx,9,3,B0,01,20,00,00,00,00,00,
4301476974,00000010,false,Rx,9,7,B0,01,20,11,20,0D,00,00,
4301483304,00000008,false,Rx,9,7,B0,01,20,0F,FF,07,00,00,
4301490177,000000AA,false,Rx,9,2,AA,04,00,00,00,00,00,00,
4301493183,00000040,false,Rx,9,3,B0,01,20,00,00,00,00,00,
4301496127,0000029C,false,Rx,9,3,03,00,1A,00,00,00,00,00,
4301497648,00000010,false,Rx,9,7,B0,01,20,11,20,0D,00,00,
4301503261,00000008,false,Rx,9,7,B0,01,20,0F,FF,07,00,00,
4301510842,000000AA,false,Rx,9,2,AA,04,00,00,00,00,00,00,
4301513090,00000040,false,Rx,9,3,B0,01,20,00,00,00,00,00,
4301514811,000002BC,false,Rx,9,3,03,00,0F,00,00,00,00,00,
4301517056,00000010,false,Rx,9,7,B0,01,20,11,20,0D,00,00,
4301523321,00000008,false,Rx,9,7,B0,01,20,0F,FF,07,00,00,
4301531022,000000AA,false,Rx,9,2,AA,04,00,00,00,00,00,00,
4301533156,00000040,false,Rx,9,3,B0,01,20,00,00,00,00,00,
4301534879,000002B4,false,Rx,9,3,03,00,02,00,00,00,00,00,
4301537127,00000010,false,Rx,9,7,B0,01,20,11,20,0D,00,00,
4301543281,00000008,false,Rx,9,7,B0,01,20,0F,FF,07,00,00,
4301550223,000000AA,false,Rx,9,2,AA,04,00,00,00,00,00,00,
4301553211,00000040,false,Rx,9,3,B0,01,20,00,00,00,00,00,
4301554872,000003AC,false,Rx,9,3,03,00,1D,00,00,00,00,00,
4301557122,00000010,false,Rx,9,7,B0,01,20,11,20,0D,00,00,
4301563332,00000008,false,Rx,9,7,B0,01,20,0F,FF,07,00,00,
4301571115,000000AA,false,Rx,9,2,AA,04,00,00,00,00,00,00,
4301573584,00000040,false,Rx,9,6,B0,01,20,92,FF,FF,00,00,
4301575194,00000040,false,Rx,9,8,B0,93,E2,00,14,00,33,B3,
4301576595,000003A4,false,Rx,9,3,03,00,2C,00,00,00,00,00,
4301578951,00000010,false,Rx,9,7,B0,01,20,11,20,0D,00,00,
4301583324,00000008,false,Rx,9,7,B0,01,20,0F,FF,07,00,00,
4301590241,000000AA,false,Rx,9,2,AA,04,00,00,00,00,00,00,
4301593232,00000040,false,Rx,9,3,B0,01,20,00,00,00,00,00,
4301597068,00000010,false,Rx,9,7,B0,01,20,11,20,0E,00,00,
4301597938,00000010,false,Rx,9,3,B0,0D,00,00,00,00,00,00,
4301603343,00000008,false,Rx,9,7,B0,01,20,0F,FF,07,00,00,
4301610959,000000AA,false,Rx,9,2,AA,04,00,00,00,00,00,00,
4301613214,00000040,false,Rx,9,3,B0,01,20,00,00,00,00,00,
4301616164,0000029C,false,Rx,9,3,03,00,1A,00,00,00,00,00,
4301617689,00000010,false,Rx,9,7,B0,01,20,11,20,0D,00,00,
4301623315,00000008,false,Rx,9,7,B0,01,20,0F,FF,07,00,00,
4301630197,000000AA,false,Rx,9,2,AA,04,00,00,00,00,00,00,
4301633330,00000040,false,Rx,9,3,B0,01,20,00,00,00,00,00,
4301635052,000002BC,false,Rx,9,3,03,00,0F,00,00,00,00,00,
4301637304,00000010,false,Rx,9,7,B0,01,20,11,20,0D,00,00,
4301643173,00000008,false,Rx,9,7,B0,01,20,0C,B5,0F,FF,00,
4301644392,00000008,false,Rx,9,7,B0,0E,00,07,00,0D,09,00,
4301650972,000000AA,false,Rx,9,2,AA,04,00,00,00,00,00,00,
4301653127,00000040,false,Rx,9,3,B0,01,20,00,00,00,00,00,
4301654846,000002B4,false,Rx,9,3,03,00,0A,00,00,00,00,00,
4301657090,00000010,false,Rx,9,7,B0,01,20,11,20,0D,00,00,
4301663343,00000008,false,Rx,9,7,B0,01,20,0F,FF,07,00,00,
4301670291,000000AA,false,Rx,9,2,AA,04,00,00,00,00,00,00,
4301673277,00000040,false,Rx,9,3,B0,01,20,00,00,00,00,00,
4301674995,000003AC,false,Rx,9,3,03,00,1D,00,00,00,00,00,
4301677239,00000010,false,Rx,9,7,B0,01,20,11,20,0D,00,00,
4301683287,00000008,false,Rx,9,7,B0,01,20,0F,FF,07,00,00,
4301691188,000000AA,false,Rx,9,2,AA,04,00,00,00,00,00,00,
4301693343,00000040,false,Rx,9,3,B0,01,20,00,00,00,00,00,
4301695076,000003A4,false,Rx,9,3,03,00,2C,00,00,00,00,00,
4301697312,00000010,false,Rx,9,7,B0,01,20,11,20,0D,00,00,
4301703363,00000008,false,Rx,9,7,B0,01,20,0F,FF,07,00,00,
4301710306,000000AA,false,Rx,9,2,AA,04,00,00,00,00,00,00,
4301713184,00000040,false,Rx,9,3,B0,01,20,00,00,00,00,00,
4301717127,00000010,false,Rx,9,7,B0,01,20,11,20,0D,00,00,
4301723345,00000008,false,Rx,9,7,B0,01,20,0F,FF,07,00,00,
4301731013,000000AA,false,Rx,9,2,AA,04,00,00,00,00,00,00,
4301733291,00000040,false,Rx,9,3,B0,01,20,00,00,00,00,00,
4301736205,0000029C,false,Rx,9,3,03,00,1A,00,00,00,00,00,
4301737727,00000010,false,Rx,9,7,B0,01,20,11,20,0D,00,00,
4301743350,00000008,false,Rx,9,7,B0,01,20,0F,FF,07,00,00,
4301750306,000000AA,false,Rx,9,2,AA,04,00,00,00,00,00,00,
4301753399,00000040,false,Rx,9,3,B0,01,20,00,00,00,00,00,
4301755117,000002BC,false,Rx,9,3,03,00,0F,00,00,00,00,00,
4301757364,00000010,false,Rx,9,7,B0,01,20,11,20,0D,00,00,
4301761624,00000010,false,Rx,9,4,30,08,00,34,00,00,00,00,
4301763245,00000010,false,Rx,9,4,31,08,00,33,00,00,00,00,
4301763792,00000008,false,Rx,9,7,B0,01,20,0F,FF,07,00,00,
4301764459,00000040,false,Rx,9,3,B0,34,33,00,00,00,00,00,
4301770282,000000AA,false,Rx,9,2,AA,04,00,00,00,00,00,00,
4301773611,00000040,false,Rx,9,6,B0,01,20,92,FF,FF,00,00,
4301775118,00000040,false,Rx,9,8,B0,93,E2,00,14,00,34,33,
4301776621,000002B4,false,Rx,9,3,03,00,02,00,00,00,00,00,
4301778975,00000010,false,Rx,9,7,B0,01,20,11,20,0D,00,00,
4301783420,00000008,false,Rx,9,7,B0,01,20,0F,FF,07,00,00,
4301790275,000000AA,false,Rx,9,2,AA,04,00,00,00,00,00,00,
4301793475,00000040,false,Rx,9,3,B0,01,20,00,00,00,00,00,
4301795088,000003AC,false,Rx,9,3,03,00,1D,00,00,00,00,00,
4301797335,00000010,false,Rx,9,7,B0,01,20,11,20,0E,00,00,
4301798522,00000010,false,Rx,9,3,B0,0D,00,00,00,00,00,00,
4301803484,00000008,false,Rx,9,7,B0,01,20,0F,FF,07,00,00,
4301812025,000000AA,false,Rx,9,2,AA,04,00,00,00,00,00,00,
4301815036,00000040,false,Rx,9,3,B0,01,23,00,00,00,00,00,
4301817495,000003A4,false,Rx,9,3,03,00,2C,00,00,00,00,00,
4301818575,00000010,false,Rx,9,7,B0,01,20,11,23,0D,00,00,
4301823541,00000008,false,Rx,9,7,B0,01,20,0F,FF,07,00,00,
4301826071,00000008,false,Rx,9,4,30,02,00,0B,00,00,00,00,
4301827475,00000010,false,Rx,9,3,B0,0B,00,00,00,00,00,00,
4301830360,000000AA,false,Rx,9,2,AA,04,00,00,00,00,00,00,
4301834146,00000040,false,Rx,9,3,B0,01,23,00,00,00,00,00,
4301836915,00000010,false,Rx,9,7,B0,01,20,11,23,0D,00,00,
4301837916,00000010,false,Rx,9,3,B0,0B,00,00,00,00,00,00,
4301841033,00000010,false,Rx,9,4,30,08,00,10,00,00,00,00,
4301843586,00000040,false,Rx,9,4,B0,90,8B,80,00,00,00,00,
4301843606,00000008,false,Rx,9,7,B0,01,20,0C,B5,0F,FF,00,
4301844517,00000008,false,Rx,9,7,B0,0E,00,07,00,0D,09,00,
4301850348,000000AA,false,Rx,9,2,AA,04,00,00,00,00,00,00,
4301854201,00000040,false,Rx,9,6,B0,01,23,90,8B,80,00,00,
4301857464,00000010,false,Rx,9,7,B0,01,20,11,23,0D,00,00,
4301858122,0000029C,false,Rx,9,3,03,00,1A,00,00,00,00,00,
4301858888,00000010,false,Rx,9,3,B0,0B,00,00,00,00,00,00,
4301863662,00000008,false,Rx,9,7,B0,01,20,0F,FF,07,00,00,
4301870296,000000AA,false,Rx,9,2,AA,04,00,00,00,00,00,00,
4301874354,00000040,false,Rx,9,6,B0,01,23,90,8D,80,00,00,
4301875966,000002BC,false,Rx,9,3,03,00,0F,00,00,00,00,00,
4301877470,00000010,false,Rx,9,7,B0,01,20,11,23,0D,00,00,
4301878657,00000010,false,Rx,9,3,B0,0B,00,00,00,00,00,00,
4301883731,00000008,false,Rx,9,7,B0,01,20,0F,FF,07,00,00,
4301890342,000000AA,false,Rx,9,2,AA,04,00,00,00,00,00,00,
4301894724,00000040,false,Rx,9,6,B0,01,23,90,8E,7F,00,00,
4301896548,000002B4,false,Rx,9,3,03,00,02,00,00,00,00,00,
4301897630,00000010,false,Rx,9,7,B0,01,20,11,23,0D,00,00,
4301898604,00000010,false,Rx,9,3,B0,0B,00,00,00,00,00,00,
4301903798,00000008,false,Rx,9,7,B0,01,23,0F,FF,07,00,00,
4301910351,000000AA,false,Rx,9,2,AA,04,00,00,00,00,00,00,
4301914719,00000040,false,Rx,9,6,B0,01,23,90,8E,80,00,00,
4301916756,000003AC,false,Rx,9,3,03,00,1D,00,00,00,00,00,
4301918263,00000010,false,Rx,9,7,B0,01,23,11,23,0D,00,00,
4301919134,00000010,false,Rx,9,3,B0,0B,00,00,00,00,00,00,
4301923911,00000008,false,Rx,9,7,B0,01,25,0F,FF,07,00,00,
4301932425,000000AA,false,Rx,9,2,AA,04,00,00,00,00,00,00,
4301934793,00000040,false,Rx,9,6,B0,01,23,90,8E,7F,00,00,
4301936579,000003A4,false,Rx,9,3,03,00,2C,00,00,00,00,00,
4301938410,00000010,false,Rx,9,7,B0,01,25,11,23,0D,00,00,
4301939524,00000010,false,Rx,9,3,B0,0B,00,00,00,00,00,00,
4301943996,00000008,false,Rx,9,7,B0,01,25,0F,FF,07,00,00,
4301951990,000000AA,false,Rx,9,2,AA,04,00,00,00,00,00,00,
4301954569,00000040,false,Rx,9,6,B0,01,24,90,8E,80,00,00,
4301958304,00000010,false,Rx,9,7,B0,01,25,11,24,0D,00,00,
4301959490,00000010,false,Rx,9,3,B0,0B,00,00,00,00,00,00,
4301964040,00000008,false,Rx,9,7,B0,01,25,0F,FF,07,00,00,
4301970437,000000AA,false,Rx,9,2,AA,04,00,00,00,00,00,00,
4301974924,00000040,false,Rx,9,6,B0,01,25,90,8E,7F,00,00,
4301976852,00000040,false,Rx,9,7,B0,92,FF,FF,93,E2,00,00,
4301978041,00000040,false,Rx,9,5,B0,14,00,34,33,00,00,00,
4301980984,00000010,false,Rx,9,7,B0,01,25,11,25,0D,00,00,
4301981745,0000029C,false,Rx,9,3,03,00,1A,00,00,00,00,00,
4301982406,00000010,false,Rx,9,3,B0,0B,00,00,00,00,00,00,
4301985244,00000008,false,Rx,9,7,B0,01,25,0F,FF,07,00,00,
4301991732,000000AA,false,Rx,9,2,AA,04,00,00,00,00,00,00,
4301994090,00000040,false,Rx,9,6,B0,01,25,90,8E,7F,00,00,
4301995701,000002BC,false,Rx,9,3,03,00,0F,00,00,00,00,00,
4301999326,00000010,false,Rx,9,7,B0,01,25,11,25,0E,00,00,
4302000834,00000010,false,Rx,9,5,B0,0D,00,0B,00,00,00,00,
4302004349,00000008,false,Rx,9,7,B0,01,25,0F,FF,07,00,00,
4302011640,000000AA,false,Rx,9,2,AA,04,00,00,00,00,00,00,
4302014006,00000040,false,Rx,9,6,B0,01,25,90,8E,80,00,00,
4302015616,000002B4,false,Rx,9,3,03,00,0A,00,00,00,00,00,
4302019453,00000010,false,Rx,9,7,B0,01,25,11,25,0D,00,00,
4302020640,00000010,false,Rx,9,3,B0,0B,00,00,00,00,00,00,
4302024287,00000008,false,Rx,9,7,B0,01,25,0F,FF,07,00,00,
4302030354,000000AA,false,Rx,9,2,AA,04,00,00,00,00,00,00,
4302033774,00000040,false,Rx,9,6,B0,01,25,90,8E,80,00,00,
4302035277,000003AC,false,Rx,9,3,03,00,1D,00,00,00,00,00,
4302039378,00000010,false,Rx,9,7,B0,01,25,11,25,0D,00,00,
4302040567,00000010,false,Rx,9,3,B0,0B,01,00,00,00,00,00,
4302044213,00000008,false,Rx,9,7,B0,01,25,0C,B5,0F,FF,00,
4302050095,00000008,false,Rx,9,7,B0,0E,00,07,00,0D,09,00,
4302050539,000000AA,false,Rx,9,2,AA,04,00,00,00,00,00,00,
4302053999,00000040,false,Rx,9,6,B0,01,25,90,8E,80,00,00,
4302055622,000003A4,false,Rx,9,3,03,00,2C,00,00,00,00,00,
4302059350,00000010,false,Rx,9,7,B0,01,25,11,25,0D,00,00,
4302060537,00000010,false,Rx,9,3,B0,0B,01,00,00,00,00,00,
4302064348,00000008,false,Rx,9,7,B0,01,25,0F,FF,07,00,00,
4302071303,000000AA,false,Rx,9,2,AA,04,00,00,00,00,00,00,
4302073779,00000040,false,Rx,9,6,B0,01,25,90,8E,80,00,00,
4302079311,00000010,false,Rx,9,7,B0,01,25,11,25,0D,00,00,
4302080179,00000010,false,Rx,9,3,B0,0B,01,00,00,00,00,00,
4302084324,00000008,false,Rx,9,7,B0,01,25,0F,FF,07,00,00,
4302091054,000000AA,false,Rx,9,2,AA,04,00,00,00,00,00,00,
4302093618,00000040,false,Rx,9,6,B0,01,25,90,8E,80,00,00,
4302096354,0000029C,false,Rx,9,3,03,00,1A,00,00,00,00,00,
4302099895,00000010,false,Rx,9,7,B0,01,25,11,25,0D,00,00,
4302100762,00000010,false,Rx,9,3,B0,0B,02,00,00,00,00,00,
4302104486,00000008,false,Rx,9,7,B0,01,25,0F,FF,07,00,00,
4302110484,000000AA,false,Rx,9,2,AA,04,00,00,00,00,00,00,
4302113590,00000040,false,Rx,9,6,B0,01,25,90,8E,80,00,00,
4302115098,000002BC,false,Rx,9,3,03,00,0F,00,00,00,00,00,
4302119363,00000010,false,Rx,9,7,B0,01,25,11,25,0D,00,00,
4302120549,00000010,false,Rx,9,3,B0,0B,02,00,00,00,00,00,
4302124455,00000008,false,Rx,9,7,B0,01,25,0F,FF,07,00,00,
4302130486,000000AA,false,Rx,9,2,AA,04,00,00,00,00,00,00,
4302133580,00000040,false,Rx,9,6,B0,01,25,90,8E,80,00,00,
4302135087,000002B4,false,Rx,9,3,03,00,0A,00,00,00,00,00,
4302139348,00000010,false,Rx,9,7,B0,01,25,11,25,0D,00,00,
4302140582,00000010,false,Rx,9,3,B0,0B,02,00,00,00,00,00,
4302145021,00000008,false,Rx,9,7,B0,01,25,0F,FF,07,00,00,
4302150589,000000AA,false,Rx,9,2,AA,04,00,00,00,00,00,00,
4302153710,00000040,false,Rx,9,6,B0,01,25,90,8E,80,00,00,
4302155111,000003AC,false,Rx,9,3,03,00,1D,00,00,00,00,00,
4302159373,00000010,false,Rx,9,7,B0,01,25,11,25,0D,00,00,
4302160558,00000010,false,Rx,9,3,B0,0B,02,00,00,00,00,00,
4302161745,00000010,false,Rx,9,4,30,08,00,35,00,00,00,00,
4302162831,00000040,false,Rx,9,3,B0,35,80,00,00,00,00,00,
4302164513,00000008,false,Rx,9,7,B0,01,25,0F,FF,07,00,00,
4302165107,00000010,false,Rx,9,4,31,08,00,34,00,00,00,00,
4302170435,000000AA,false,Rx,9,2,AA,04,00,00,00,00,00,00,
4302173634,00000040,false,Rx,9,6,B0,01,25,90,8E,80,00,00,
4302175035,00000040,false,Rx,9,7,B0,92,FF,FF,93,E2,00,00,
4302176222,00000040,false,Rx,9,5,B0,14,00,35,80,00,00,00,
4302177620,000003A4,false,Rx,9,3,03,00,2C,00,00,00,00,00,
4302180930,00000010,false,Rx,9,7,B0,01,25,11,25,0D,00,00,
4302181799,00000010,false,Rx,9,3,B0,0B,03,00,00,00,00,00,
4302184538,00000008,false,Rx,9,7,B0,01,25,0F,FF,07,00,00,
4302191275,000000AA,false,Rx,9,2,AA,04,00,00,00,00,00,00,
4302193645,00000040,false,Rx,9,6,B0,01,25,90,8F,80,00,00,
4302199291,00000010,false,Rx,9,7,B0,01,25,11,25,0E,00,00,
4302200421,00000010,false,Rx,9,5,B0,0D,00,0B,03,00,00,00,
4302204580,00000008,false,Rx,9,7,B0,01,25,0F,FF,07,00,00,
4302210491,000000AA,false,Rx,9,2,AA,04,00,00,00,00,00,00,
4302213693,00000040,false,Rx,9,6,B0,01,25,90,90,80,00,00,
4302216535,0000029C,false,Rx,9,3,03,00,1A,00,00,00,00,00,
4302219928,00000010,false,Rx,9,7,B0,01,25,11,25,0D,00,00,
4302220810,00000010,false,Rx,9,3,B0,0B,03,00,00,00,00,00,
4302224622,00000008,false,Rx,9,7,B0,01,25,0F,FF,07,00,00,
4302230485,000000AA,false,Rx,9,2,AA,04,00,00,00,00,00,00,
4302233700,00000040,false,Rx,9,6,B0,01,25,90,90,80,00,00,
4302235205,000002BC,false,Rx,9,3,03,00,0F,00,00,00,00,00,
4302239362,00000010,false,Rx,9,7,B0,01,25,11,25,0D,00,00,
4302240654,00000010,false,Rx,9,3,B0,0B,04,00,00,00,00,00,
4302244628,00000008,false,Rx,9,7,B0,01,25,0C,B5,0F,FF,00,
4302245436,00000008,false,Rx,9,7,B0,0E,00,07,00,0D,09,00,
4302250476,000000AA,false,Rx,9,2,AA,04,00,00,00,00,00,00,
4302253688,00000040,false,Rx,9,6,B0,01,25,90,90,80,00,00,
4302255089,000002B4,false,Rx,9,3,03,00,02,00,00,00,00,00,
4302259353,00000010,false,Rx,9,7,B0,01,25,11,25,0D,00,00,
4302260646,00000010,false,Rx,9,3,B0,0B,04,00,00,00,00,00,
4302264650,00000008,false,Rx,9,7,B0,01,25,0F,FF,07,00,00,
4302271189,000000AA,false,Rx,9,2,AA,04,00,00,00,00,00,00,
4302273669,00000040,false,Rx,9,6,B0,01,25,90,90,80,00,00,
4302275071,000003AC,false,Rx,9,3,03,00,1D,00,00,00,00,00,
4302279437,00000010,false,Rx,9,7,B0,01,25,11,25,0D,00,00,
4302280621,00000010,false,Rx,9,3,B0,0B,04,00,00,00,00,00,
4302284767,00000008,false,Rx,9,7,B0,01,25,0F,FF,07,00,00,
4302290465,000000AA,false,Rx,9,2,AA,04,00,00,00,00,00,00,
4302294625,00000040,false,Rx,9,6,B0,01,25,90,92,80,00,00,
4302296236,000003A4,false,Rx,9,3,03,00,2C,00,00,00,00,00,
4302299332,00000010,false,Rx,9,7,B0,01,25,11,25,0D,00,00,
4302300624,00000010,false,Rx,9,3,B0,0B,05,00,00,00,00,00,
4302304756,00000008,false,Rx,9,7,B0,01,25,0F,FF,07,00,00,
4302310582,000000AA,false,Rx,9,2,AA,04,00,00,00,00,00,00,
4302313907,00000040,false,Rx,9,6,B0,01,25,90,93,80,00,00,
4302319331,00000010,false,Rx,9,7,B0,01,25,11,25,0D,00,00,
4302320199,00000010,false,Rx,9,3,B0,0B,05,00,00,00,00,00,
4302324876,00000008,false,Rx,9,7,B0,01,25,0F,FF,07,00,00,
4302331845,000000AA,false,Rx,9,2,AA,04,00,00,00,00,00,00,
4302334200,00000040,false,Rx,9,6,B0,01,25,90,94,80,00,00,
4302337143,0000029C,false,Rx,9,3,03,00,1A,00,00,00,00,00,
4302339839,00000010,false,Rx,9,7,B0,01,25,11,25,0D,00,00,
4302340816,00000010,false,Rx,9,3,B0,0B,05,00,00,00,00,00,
4302344985,00000008,false,Rx,9,7,B0,01,25,0F,FF,07,00,00,
4302350724,000000AA,false,Rx,9,2,AA,04,00,00,00,00,00,00,
4302353789,00000040,false,Rx,9,6,B0,01,25,90,94,80,00,00,
4302355293,000002BC,false,Rx,9,3,03,00,0F,00,00,00,00,00,
4302359338,00000010,false,Rx,9,7,B0,01,25,11,25,0D,00,00,
4302360629,00000010,false,Rx,9,3,B0,0B,05,00,00,00,00,00,
4302364988,00000008,false,Rx,9,7,B0,01,25,0F,FF,07,00,00,
4302370566,000000AA,false,Rx,9,2,AA,04,00,00,00,00,00,00,
4302374195,00000040,false,Rx,9,6,B0,01,25,90,94,80,00,00,
4302375595,00000040,false,Rx,9,7,B0,92,FF,FF,93,E2,00,00,
4302376889,00000040,false,Rx,9,5,B0,14,00,35,80,00,00,00,
4302378284,000002B4,false,Rx,9,3,03,00,0A,00,00,00,00,00,
4302380955,00000010,false,Rx,9,7,B0,01,25,11,25,0D,00,00,
4302381824,00000010,false,Rx,9,3,B0,0B,06,00,00,00,00,00,
4302384970,00000008,false,Rx,9,7,B0,01,25,0F,FF,07,00,00,
4302390554,000000AA,false,Rx,9,2,AA,04,00,00,00,00,00,00,
4302393774,00000040,false,Rx,9,6,B0,01,25,90,94,80,00,00,
4302395277,000003AC,false,Rx,9,3,03,00,1D,00,00,00,00,00,
4302399326,00000010,false,Rx,9,7,B0,01,25,11,25,0E,00,00,
4302400834,00000010,false,Rx,9,5,B0,0D,00,0B,06,00,00,00,
4302405056,00000008,false,Rx,9,7,B0,01,25,0F,FF,07,00,00,
4302410552,000000AA,false,Rx,9,2,AA,04,00,00,00,00,00,00,
4302413975,00000040,false,Rx,9,6,B0,01,25,90,94,80,00,00,
4302415373,000003A4,false,Rx,9,3,03,00,2C,00,00,00,00,00,
4302419421,00000010,false,Rx,9,7,B0,01,25,11,25,0D,00,00,
4302420605,00000010,false,Rx,9,3,B0,0B,06,00,00,00,00,00,
4302425083,00000008,false,Rx,9,7,B0,01,25,0F,FF,07,00,00,
4302431337,000000AA,false,Rx,9,2,AA,04,00,00,00,00,00,00,
4302433701,00000040,false,Rx,9,6,B0,01,25,90,94,80,00,00,
4302439338,00000010,false,Rx,9,7,B0,01,25,11,25,0D,00,00,
4302440206,00000010,false,Rx,9,3,B0,0B,07,00,00,00,00,00,
4302445102,00000008,false,Rx,9,7,B0,01,25,0C,B5,0F,FF,00,
4302445460,00000008,false,Rx,9,7,B0,0E,00,07,00,0D,09,00,
4302450615,000000AA,false,Rx,9,2,AA,04,00,00,00,00,00,00,
4302453758,00000040,false,Rx,9,6,B0,01,25,90,94,80,00,00,
4302456498,0000029C,false,Rx,9,3,03,00,1A,00,00,00,00,00,
4302459935,00000010,false,Rx,9,7,B0,01,25,11,25,0D,00,00,
4302460806,00000010,false,Rx,9,3,B0,0B,07,00,00,00,00,00,
4302465237,00000008,false,Rx,9,7,B0,01,25,0F,FF,07,00,00,
4302470552,000000AA,false,Rx,9,2,AA,04,00,00,00,00,00,00,
4302474046,00000040,false,Rx,9,6,B0,01,25,90,94,80,00,00,
4302475466,000002BC,false,Rx,9,3,03,00,0F,00,00,00,00,00,
4302479410,00000010,false,Rx,9,7,B0,01,25,11,25,0D,00,00,
4302480701,00000010,false,Rx,9,3,B0,0B,07,00,00,00,00,00,
4302485195,00000008,false,Rx,9,7,B0,01,25,0F,FF,07,00,00,
4302490610,000000AA,false,Rx,9,2,AA,04,00,00,00,00,00,00,
4302493827,00000040,false,Rx,9,6,B0,01,25,90,94,80,00,00,
4302495331,000002B4,false,Rx,9,3,03,00,0A,00,00,00,00,00,
4302499378,00000010,false,Rx,9,7,B0,01,25,11,25,0D,00,00,
4302500669,00000010,false,Rx,9,3,B0,0B,08,00,00,00,00,00,
4302505290,00000008,false,Rx,9,7,B0,01,25,0F,FF,07,00,00,
4302511295,000000AA,false,Rx,9,2,AA,04,00,00,00,00,00,00,
4302513774,00000040,false,Rx,9,6,B0,01,25,90,96,80,00,00,
4302515276,000003AC,false,Rx,9,3,03,00,1D,00,00,00,00,00,
4302519430,00000010,false,Rx,9,7,B0,01,25,11,25,0D,00,00,
4302520616,00000010,false,Rx,9,3,B0,0B,08,00,00,00,00,00,
4302525385,00000008,false,Rx,9,7,B0,01,25,0F,FF,07,00,00,
4302530638,000000AA,false,Rx,9,2,AA,04,00,00,00,00,00,00,
4302534373,00000040,false,Rx,9,6,B0,01,25,90,98,80,00,00,
4302535985,000003A4,false,Rx,9,3,03,00,2C,00,00,00,00,00,
4302539399,00000010,false,Rx,9,7,B0,01,25,11,25,0D,00,00,
4302540692,00000010,false,Rx,9,3,B0,0B,08,00,00,00,00,00,
4302545414,00000008,false,Rx,9,7,B0,01,25,0F,FF,07,00,00,
4302550642,000000AA,false,Rx,9,2,AA,04,00,00,00,00,00,00,
4302553809,00000040,false,Rx,9,6,B0,01,25,90,98,80,00,00,
4302559400,00000010,false,Rx,9,7,B0,01,25,11,25,0D,00,00,
4302560174,00000010,false,Rx,9,3,B0,0B,08,00,00,00,00,00,
4302561048,00000010,false,Rx,9,4,31,08,00,35,00,00,00,00,
4302565480,00000008,false,Rx,9,7,B0,01,25,0F,FF,07,00,00,
4302570639,000000AA,false,Rx,9,2,AA,04,00,00,00,00,00,00,
4302573735,00000040,false,Rx,9,6,B0,01,25,90,99,80,00,00,
4302575135,00000040,false,Rx,9,7,B0,92,FF,FF,93,E2,00,00,
4302576006,00000040,false,Rx,9,3,B0,14,00,00,00,00,00,00,
4302578738,0000029C,false,Rx,9,3,03,00,1A,00,00,00,00,00,
4302581115,00000010,false,Rx,9,7,B0,01,25,11,25,0D,00,00,
4302581984,00000010,false,Rx,9,3,B0,0B,09,00,00,00,00,00,
4302585542,00000008,false,Rx,9,7,B0,01,25,0F,FF,07,00,00,
4302590628,000000AA,false,Rx,9,2,AA,04,00,00,00,00,00,00,
4302594573,00000040,false,Rx,9,6,B0,01,25,90,9B,80,00,00,
4302596240,000002BC,false,Rx,9,3,03,00,0F,00,00,00,00,00,
4302599379,00000010,false,Rx,9,7,B0,01,25,11,25,0E,00,00,
4302600884,00000010,false,Rx,9,5,B0,0D,00,0B,09,00,00,00,
4302605644,00000008,false,Rx,9,7,B0,01,25,0F,FF,07,00,00,
4302611977,000000AA,false,Rx,9,2,AA,04,00,00,00,00,00,00,
4302614333,00000040,false,Rx,9,6,B0,01,25,90,9C,80,00,00,
4302615945,000002B4,false,Rx,9,3,03,00,02,00,00,00,00,00,
4302619462,00000010,false,Rx,9,7,B0,01,25,11,25,0D,00,00,
4302620225,00000010,false,Rx,9,3,B0,0B,09,00,00,00,00,00,
4302625704,00000008,false,Rx,9,7,B0,01,25,0F,FF,07,00,00,
4302630673,000000AA,false,Rx,9,2,AA,04,00,00,00,00,00,00,
4302633779,00000040,false,Rx,9,6,B0,01,25,90,9C,80,00,00,
4302635283,000003AC,false,Rx,9,3,03,00,1D,00,00,00,00,00,
4302639437,00000010,false,Rx,9,7,B0,01,25,11,25,0D,00,00,
4302640624,00000010,false,Rx,9,3,B0,0B,0A,00,00,00,00,00,
4302645713,00000008,false,Rx,9,7,B0,01,25,0C,B4,0F,FF,00,
4302645733,00000008,false,Rx,9,7,B0,0E,00,07,00,0D,09,00,
4302650617,000000AA,false,Rx,9,2,AA,04,00,00,00,00,00,00,
4302653767,00000040,false,Rx,9,6,B0,01,25,90,9C,80,00,00,
4302655275,000003A4,false,Rx,9,3,03,00,2C,00,00,00,00,00,
4302659460,00000010,false,Rx,9,7,B0,01,25,11,25,0D,00,00,
4302660653,00000010,false,Rx,9,3,B0,0B,0A,00,00,00,00,00,
4302665865,00000008,false,Rx,9,7,B0,01,25,0F,FF,07,00,00,
4302670753,000000AA,false,Rx,9,2,AA,04,00,00,00,00,00,00,
4302673762,00000040,false,Rx,9,6,B0,01,25,90,9C,80,00,00,
4302679403,00000010,false,Rx,9,7,B0,01,25,11,25,0D,00,00,
4302680166,00000010,false,Rx,9,3,B0,0B,0A,00,00,00,00,00,
4302684216,00000008,false,Rx,9,7,B0,01,25,0F,FF,07,00,00,
4302691442,000000AA,false,Rx,9,2,AA,04,00,00,00,00,00,00,
4302693821,00000040,false,Rx,9,6,B0,01,25,90,9E,80,00,00,
4302696536,0000029C,false,Rx,9,3,03,00,1A,00,00,00,00,00,
4302699972,00000010,false,Rx,9,7,B0,01,25,11,25,0D,00,00,
4302700841,00000010,false,Rx,9,3,B0,0B,0A,00,00,00,00,00,
4302705918,00000008,false,Rx,9,7,B0,01,25,0F,FF,07,00,00,
4302712233,000000AA,false,Rx,9,2,AA,04,00,00,00,00,00,00,
4302714590,00000040,false,Rx,9,6,B0,01,25,90,A0,80,00,00,
4302716204,000002BC,false,Rx,9,3,03,00,0F,00,00,00,00,00,
4302719460,00000010,false,Rx,9,7,B0,01,25,11,25,0D,00,00,
4302720659,00000010,false,Rx,9,3,B0,0B,0B,00,00,00,00,00,
4302724291,00000008,false,Rx,9,7,B0,01,25,0F,FF,07,00,00,
4302730709,000000AA,false,Rx,9,2,AA,04,00,00,00,00,00,00,
4302733882,00000040,false,Rx,9,6,B0,01,25,90,A0,80,00,00,
4302735389,000002B4,false,Rx,9,3,03,00,02,00,00,00,00,00,
4302739493,00000010,false,Rx,9,7,B0,01,25,11,25,0D,00,00,
4302740694,00000010,false,Rx,9,3,B0,0B,0B,00,00,00,00,00,
4302744325,00000008,false,Rx,9,7,B0,01,25,0F,FF,07,00,00,
4302751380,000000AA,false,Rx,9,2,AA,04,00,00,00,00,00,00,
4302753851,00000040,false,Rx,9,6,B0,01,25,90,A1,81,00,00,
4302755298,000003AC,false,Rx,9,3,03,00,1D,00,00,00,00,00,
4302759458,00000010,false,Rx,9,7,B0,01,25,11,25,0D,00,00,
4302760751,00000010,false,Rx,9,3,B0,0B,0B,00,00,00,00,00,
4302764378,00000008,false,Rx,9,7,B0,01,25,0F,FF,07,00,00,
4302771414,000000AA,false,Rx,9,2,AA,04,00,00,00,00,00,00,
4302773790,00000040,false,Rx,9,6,B0,01,25,90,A2,81,00,00,
4302775242,00000040,false,Rx,9,7,B0,92,FF,FF,93,E2,00,00,
4302776147,00000040,false,Rx,9,3,B0,14,00,00,00,00,00,00,
4302777443,000003A4,false,Rx,9,3,03,00,2C,00,00,00,00,00,
4302780431,00000010,false,Rx,9,7,B0,01,25,11,25,0D,00,00,
4302781616,00000010,false,Rx,9,3,B0,0B,0C,00,00,00,00,00,
4302784504,00000008,false,Rx,9,7,B0,01,25,0F,FF,07,00,00,
4302791610,000000AA,false,Rx,9,2,AA,04,00,00,00,00,00,00,
4302794104,00000040,false,Rx,9,6,B0,01,25,90,A4,81,00,00,
4302799426,00000010,false,Rx,9,7,B0,01,25,11,25,0E,00,00,
4302800401,00000010,false,Rx,9,5,B0,0D,00,0B,0C,00,00,00,
4302804346,00000008,false,Rx,9,7,B0,01,25,0F,FF,07,00,00,
4302810815,000000AA,false,Rx,9,2,AA,04,00,00,00,00,00,00,
4302814145,00000040,false,Rx,9,6,B0,01,25,90,A5,81,00,00,
4302816879,0000029C,false,Rx,9,3,03,00,1A,00,00,00,00,00,
4302819995,00000010,false,Rx,9,7,B0,01,25,11,25,0D,00,00,
4302820865,00000010,false,Rx,9,3,B0,0B,0C,00,00,00,00,00,
4302824490,00000008,false,Rx,9,7,B0,01,25,0F,FF,07,00,00,
4302830827,000000AA,false,Rx,9,2,AA,04,00,00,00,00,00,00,
4302835122,00000040,false,Rx,9,6,B0,01,25,90,A6,82,00,00,
4302837157,000002BC,false,Rx,9,3,03,00,0F,00,00,00,00,00,
4302839513,00000010,false,Rx,9,7,B0,01,25,11,25,0D,00,00,
4302840701,00000010,false,Rx,9,3,B0,0B,0D,00,00,00,00,00,
4302844327,00000008,false,Rx,9,7,B0,01,25,0C,B4,0F,FF,00,
4302846335,00000008,false,Rx,9,7,B0,0E,00,07,00,0D,09,00,
4302850741,000000AA,false,Rx,9,2,AA,04,00,00,00,00,00,00,
4302854168,00000040,false,Rx,9,6,B0,01,25,90,A7,82,00,00,
4302855675,000002B4,false,Rx,9,3,03,00,0A,00,00,00,00,00,
4302859586,00000010,false,Rx,9,7,B0,01,25,11,25,0D,00,00,
4302860802,00000010,false,Rx,9,3,B0,0B,0D,00,00,00,00,00,
4302864343,00000008,false,Rx,9,7,B0,01,25,0F,FF,07,00,00,
4302871447,000000AA,false,Rx,9,2,AA,04,00,00,00,00,00,00,
4302873833,00000040,false,Rx,9,6,B0,01,25,90,A7,82,00,00,
4302875338,000003AC,false,Rx,9,3,03,00,1D,00,00,00,00,00,
4302879490,00000010,false,Rx,9,7,B0,01,25,11,25,0D,00,00,
4302880675,00000010,false,Rx,9,3,B0,0B,0D,00,00,00,00,00,
4302884303,00000008,false,Rx,9,7,B0,01,25,0F,FF,07,00,00,
4302890845,000000AA,false,Rx,9,2,AA,04,00,00,00,00,00,00,
4302893951,00000040,false,Rx,9,6,B0,01,25,90,A7,82,00,00,
4302895348,000003A4,false,Rx,9,3,03,00,2C,00,00,00,00,00,
4302899504,00000010,false,Rx,9,7,B0,01,25,11,25,0D,00,00,
4302900691,00000010,false,Rx,9,3,B0,0B,0D,00,00,00,00,00,
4302904319,00000008,false,Rx,9,7,B0,01,25,0F,FF,07,00,00,
4302911527,000000AA,false,Rx,9,2,AA,04,00,00,00,00,00,00,
4302913916,00000040,false,Rx,9,6,B0,01,25,90,A7,82,00,00,
4302919443,00000010,false,Rx,9,7,B0,01,25,11,25,0D,00,00,
4302920313,00000010,false,Rx,9,3,B0,0B,0E,00,00,00,00,00,
4302924254,00000008,false,Rx,9,7,B0,01,25,0F,FF,07,00,00,
4302931463,000000AA,false,Rx,9,2,AA,04,00,00,00,00,00,00,
4302933951,00000040,false,Rx,9,6,B0,01,25,90,A7,82,00,00,
4302936681,0000029C,false,Rx,9,3,03,00,1A,00,00,00,00,00,
4302940009,00000010,false,Rx,9,7,B0,01,25,11,25,0D,00,00,
4302940879,00000010,false,Rx,9,3,B0,0B,0E,00,00,00,00,00,
4302944587,00000008,false,Rx,9,7,B0,01,25,0F,FF,07,00,00,
4302951459,000000AA,false,Rx,9,2,AA,04,00,00,00,00,00,00,
4302953957,00000040,false,Rx,9,6,B0,01,25,90,A8,82,00,00,
4302955357,000002BC,false,Rx,9,3,03,00,0F,00,00,00,00,00,
4302959557,00000010,false,Rx,9,7,B0,01,25,11,25,0D,00,00,
4302960753,00000010,false,Rx,9,3,B0,0B,0E,00,00,00,00,00,
4302964411,00000008,false,Rx,9,7,B0,01,25,0F,FF,07,00,00,
4302970881,000000AA,false,Rx,9,2,AA,04,00,00,00,00,00,00,
4302973891,00000040,false,Rx,9,6,B0,01,25,90,A8,82,00,00,
4302975290,00000040,false,Rx,9,7,B0,92,FF,FF,93,E2,00,00,
4302976264,00000040,false,Rx,9,3,B0,14,00,00,00,00,00,00,
4302977559,000002B4,false,Rx,9,3,03,00,02,00,00,00,00,00,
4302980549,00000010,false,Rx,9,7,B0,01,25,11,25,0D,00,00,
4302981739,00000010,false,Rx,9,3,B0,0B,0F,00,00,00,00,00,
4302984414,00000008,false,Rx,9,7,B0,01,25,0F,FF,07,00,00,
4302992370,000000AA,false,Rx,9,2,AA,04,00,00,00,00,00,00,
4302994648,00000040,false,Rx,9,6,B0,01,25,90,A8,82,00,00,
4302996261,000003AC,false,Rx,9,3,03,00,1D,00,00,00,00,00,
4302999462,00000010,false,Rx,9,7,B0,01,25,11,25,0E,00,00,
4303000968,00000010,false,Rx,9,5,B0,0D,00,0B,0F,00,00,00,
4303004378,00000008,false,Rx,9,7,B0,01,25,0F,FF,07,00,00,
4303010842,000000AA,false,Rx,9,2,AA,04,00,00,00,00,00,00,
4303013966,00000040,false,Rx,9,6,B0,01,25,90,A9,82,00,00,
4303015470,000003A4,false,Rx,9,3,03,00,2C,00,00,00,00,00,
4303019519,00000010,false,Rx,9,7,B0,01,25,11,25,0D,00,00,
4303020705,00000010,false,Rx,9,3,B0,0B,0F,00,00,00,00,00,
4303024332,00000008,false,Rx,9,7,B0,01,25,0F,FF,07,00,00,
4303030919,000000AA,false,Rx,9,2,AA,04,00,00,00,00,00,00,
4303034040,00000040,false,Rx,9,6,B0,01,25,90,A9,82,00,00,
4303039468,00000010,false,Rx,9,7,B0,01,25,11,25,0D,00,00,
4303040339,00000010,false,Rx,9,3,B0,0B,10,00,00,00,00,00,
4303044284,00000008,false,Rx,9,7,B0,01,25,0C,B4,0F,FF,00,
4303049506,00000008,false,Rx,9,7,B0,0E,00,07,00,0D,09,00,
4303051120,000000AA,false,Rx,9,2,AA,04,00,00,00,00,00,00,
4303054996,00000040,false,Rx,9,6,B0,01,25,90,AB,82,00,00,
4303057783,0000029C,false,Rx,9,3,03,00,1A,00,00,00,00,00,
4303060051,00000010,false,Rx,9,7,B0,01,25,11,25,0D,00,00,
4303060921,00000010,false,Rx,9,3,B0,0B,10,00,00,00,00,00,
4303064500,00000008,false,Rx,9,7,B0,01,25,0F,FF,07,00,00,
4303071329,000000AA,false,Rx,9,2,AA,04,00,00,00,00,00,00,
4303074728,00000040,false,Rx,9,6,B0,01,25,90,AE,82,00,00,
4303076248,000002BC,false,Rx,9,3,03,00,0F,00,00,00,00,00,
4303079554,00000010,false,Rx,9,7,B0,01,25,11,25,0D,00,00,
4303080739,00000010,false,Rx,9,3,B0,0B,10,00,00,00,00,00,
4303084367,00000008,false,Rx,9,7,B0,01,25,0F,FF,07,00,00,
4303091569,000000AA,false,Rx,9,2,AA,04,00,00,00,00,00,00,
4303093960,00000040,false,Rx,9,6,B0,01,25,90,B0,82,00,00,
4303095464,000002B4,false,Rx,9,3,03,00,02,00,00,00,00,00,
4303099513,00000010,false,Rx,9,7,B0,01,25,11,25,0D,00,00,
4303100810,00000010,false,Rx,9,3,B0,0B,10,00,00,00,00,00,
4303104431,00000008,false,Rx,9,7,B0,01,25,0F,FF,07,00,00,
4303111394,000000AA,false,Rx,9,2,AA,04,00,00,00,00,00,00,
4303114344,00000040,false,Rx,9,6,B0,01,25,90,B2,82,00,00,
4303115754,000003AC,false,Rx,9,3,03,00,1D,00,00,00,00,00,
4303119485,00000010,false,Rx,9,7,B0,01,25,11,25,0D,00,00,
4303120783,00000010,false,Rx,9,3,B0,0B,11,00,00,00,00,00,
4303124408,00000008,false,Rx,9,7,B0,01,25,0F,FF,07,00,00,
4303131501,000000AA,false,Rx,9,2,AA,04,00,00,00,00,00,00,
4303134220,00000040,false,Rx,9,6,B0,01,25,90,B3,82,00,00,
4303135730,000003A4,false,Rx,9,3,03,00,2C,00,00,00,00,00,
4303139569,00000010,false,Rx,9,7,B0,01,25,11,25,0D,00,00,
4303140757,00000010,false,Rx,9,3,B0,0B,11,00,00,00,00,00,
4303144385,00000008,false,Rx,9,7,B0,01,25,0F,FF,07,00,00,
4303151560,000000AA,false,Rx,9,2,AA,04,00,00,00,00,00,00,
4303154097,00000040,false,Rx,9,6,B0,01,25,90,B3,82,00,00,
4303159475,00000010,false,Rx,9,7,B0,01,25,11,25,0D,00,00,
4303160365,00000010,false,Rx,9,3,B0,0B,11,00,00,00,00,00,
4303164369,00000008,false,Rx,9,7,B0,01,25,0F,FF,07,00,00,
4303171617,000000AA,false,Rx,9,2,AA,04,00,00,00,00,00,00,
4303174751,00000040,false,Rx,9,6,B0,01,25,90,B3,83,00,00,
4303176157,00000040,false,Rx,9,7,B0,92,FF,FF,93,E2,00,00,
4303177131,00000040,false,Rx,9,3,B0,14,00,00,00,00,00,00,
4303179759,0000029C,false,Rx,9,3,03,00,1A,00,00,00,00,00,
4303181284,00000010,false,Rx,9,7,B0,01,25,11,25,0D,00,00,
4303182152,00000010,false,Rx,9,3,B0,0B,12,00,00,00,00,00,
4303184609,00000008,false,Rx,9,7,B0,01,25,0F,FF,07,00,00,
4303191702,000000AA,false,Rx,9,2,AA,04,00,00,00,00,00,00,
4303194108,00000040,false,Rx,9,6,B0,01,25,90,B3,83,00,00,
4303195580,000002BC,false,Rx,9,3,03,00,0F,00,00,00,00,00,
4303199558,00000010,false,Rx,9,7,B0,01,25,11,25,0E,00,00,
4303200973,00000010,false,Rx,9,5,B0,0D,00,0B,12,00,00,00,
4303204385,00000008,false,Rx,9,7,B0,01,25,0F,FF,07,00,00,
4303211790,000000AA,false,Rx,9,2,AA,04,00,00,00,00,00,00,
4303214296,00000040,false,Rx,9,6,B0,01,25,90,B2,83,00,00,
4303215806,000002B4,false,Rx,9,3,03,00,0A,00,00,00,00,00,
4303219547,00000010,false,Rx,9,7,B0,01,25,11,25,0D,00,00,
4303220746,00000010,false,Rx,9,3,B0,0B,12,00,00,00,00,00,
4303224373,00000008,false,Rx,9,7,B0,01,25,0F,FF,07,00,00,
4303231888,000000AA,false,Rx,9,2,AA,04,00,00,00,00,00,00,
4303234419,00000040,false,Rx,9,6,B0,01,25,90,B3,83,00,00,
4303235826,000003AC,false,Rx,9,3,03,00,1D,00,00,00,00,00,
4303239606,00000010,false,Rx,9,7,B0,01,25,11,25,0D,00,00,
4303240815,00000010,false,Rx,9,3,B0,0B,13,00,00,00,00,00,
4303244335,00000008,false,Rx,9,7,B0,01,25,0C,B4,0F,FF,00,
4303245627,00000008,false,Rx,9,7,B0,0E,00,07,00,0D,09,00,
4303251924,000000AA,false,Rx,9,2,AA,04,00,00,00,00,00,00,
4303253972,00000040,false,Rx,9,6,B0,01,25,90,B3,83,00,00,
4303255475,000003A4,false,Rx,9,3,03,00,2C,00,00,00,00,00,
4303259524,00000010,false,Rx,9,7,B0,01,25,11,25,0D,00,00,
4303260819,00000010,false,Rx,9,3,B0,0B,13,00,00,00,00,00,
4303264443,00000008,false,Rx,9,7,B0,01,25,0F,FF,07,00,00,
4303272539,000000AA,false,Rx,9,2,AA,04,00,00,00,00,00,00,
4303274804,00000040,false,Rx,9,6,B0,01,25,90,B4,83,00,00,
4303279526,00000010,false,Rx,9,7,B0,01,25,11,25,0D,00,00,
4303280390,00000010,false,Rx,9,3,B0,0B,13,00,00,00,00,00,
4303284354,00000008,false,Rx,9,7,B0,01,25,0F,FF,07,00,00,
4303292175,000000AA,false,Rx,9,2,AA,04,00,00,00,00,00,00,
4303294468,00000040,false,Rx,9,6,B0,01,25,90,B4,84,00,00,
4303297198,0000029C,false,Rx,9,3,03,00,1A,00,00,00,00,00,
4303300104,00000010,false,Rx,9,7,B0,01,25,11,25,0D,00,00,
4303300974,00000010,false,Rx,9,3,B0,0B,13,00,00,00,00,00,
4303304490,00000008,false,Rx,9,7,B0,01,25,0F,FF,07,00,00,
4303312212,000000AA,false,Rx,9,2,AA,04,00,00,00,00,00,00,
4303314090,00000040,false,Rx,9,6,B0,01,25,90,B5,84,00,00,
4303315580,000002BC,false,Rx,9,3,03,00,0F,00,00,00,00,00,
4303319539,00000010,false,Rx,9,7,B0,01,25,11,25,0D,00,00,
4303320836,00000010,false,Rx,9,3,B0,0B,14,00,00,00,00,00,
4303324458,00000008,false,Rx,9,7,B0,01,25,0F,FF,07,00,00,
4303332282,000000AA,false,Rx,9,2,AA,04,00,00,00,00,00,00,
4303334075,00000040,false,Rx,9,6,B0,01,25,90,B5,84,00,00,
4303335584,000002B4,false,Rx,9,3,03,00,0A,00,00,00,00,00,
4303339527,00000010,false,Rx,9,7,B0,01,25,11,25,0D,00,00,
4303340821,00000010,false,Rx,9,3,B0,0B,14,00,00,00,00,00,
4303344443,00000008,false,Rx,9,7,B0,01,25,0F,FF,07,00,00,
4303352373,000000AA,false,Rx,9,2,AA,04,00,00,00,00,00,00,
4303354140,00000040,false,Rx,9,6,B0,01,25,90,B5,84,00,00,
4303355646,000003AC,false,Rx,9,3,03,00,1D,00,00,00,00,00,
4303359622,00000010,false,Rx,9,7,B0,01,25,11,25,0D,00,00,
4303360861,00000010,false,Rx,9,3,B0,0B,14,00,00,00,00,00,
4303364380,00000008,false,Rx,9,7,B0,01,25,0F,FF,07,00,00,
4303372419,000000AA,false,Rx,9,2,AA,04,00,00,00,00,00,00,
4303374060,00000040,false,Rx,9,6,B0,01,25,90,B5,85,00,00,
4303375462,00000040,false,Rx,9,7,B0,92,FF,FF,93,E2,00,00,
4303376437,00000040,false,Rx,9,3,B0,14,00,00,00,00,00,00,
4303377840,000003A4,false,Rx,9,3,03,00,2C,00,00,00,00,00,
4303380614,00000010,false,Rx,9,7,B0,01,25,11,25,0D,00,00,
4303381806,00000010,false,Rx,9,3,B0,0B,15,00,00,00,00,00,
4303384475,00000008,false,Rx,9,7,B0,01,25,0F,FF,07,00,00,
4303392517,000000AA,false,Rx,9,2,AA,04,00,00,00,00,00,00,
4303394942,00000040,false,Rx,9,6,B0,01,25,90,B5,86,00,00,
4303399548,00000010,false,Rx,9,7,B0,01,25,11,25,0E,00,00,
4303400962,00000010,false,Rx,9,5,B0,0D,00,0B,15,00,00,00,
4303404375,00000008,false,Rx,9,7,B0,01,25,0F,FF,07,00,00,
4303412498,000000AA,false,Rx,9,2,AA,04,00,00,00,00,00,00,
4303414178,00000040,false,Rx,9,6,B0,01,25,90,B5,86,00,00,
4303416920,0000029C,false,Rx,9,3,03,00,1A,00,00,00,00,00,
4303420037,00000010,false,Rx,9,7,B0,01,25,11,25,0D,00,00,
4303420909,00000010,false,Rx,9,3,B0,0B,15,00,00,00,00,00,
4303424426,00000008,false,Rx,9,7,B0,01,25,0F,FF,07,00,00,
4303432558,000000AA,false,Rx,9,2,AA,04,00,00,00,00,00,00,
4303434133,00000040,false,Rx,9,6,B0,01,25,90,B5,86,00,00,
4303435726,000002BC,false,Rx,9,3,03,00,0F,00,00,00,00,00,
4303439581,00000010,false,Rx,9,7,B0,01,25,11,25,0D,00,00,
4303440774,00000010,false,Rx,9,3,B0,0B,15,00,00,00,00,00,
4303444401,00000008,false,Rx,9,7,B0,01,25,0C,B4,0F,FF,00,
4303445719,00000008,false,Rx,9,7,B0,0E,00,07,00,0D,09,00,
4303452602,000000AA,false,Rx,9,2,AA,04,00,00,00,00,00,00,
4303454809,00000040,false,Rx,9,6,B0,01,25,90,B5,87,00,00,
4303456419,000002B4,false,Rx,9,3,03,00,02,00,00,00,00,00,
4303459618,00000010,false,Rx,9,7,B0,01,25,11,25,0D,00,00,
4303460811,00000010,false,Rx,9,3,B0,0B,16,00,00,00,00,00,
4303464432,00000008,false,Rx,9,7,B0,01,25,0F,FF,07,00,00,
4303470979,000000AA,false,Rx,9,2,AA,04,00,00,00,00,00,00,
4303474259,00000040,false,Rx,9,6,B0,01,25,90,B5,88,00,00,
4303475703,000003AC,false,Rx,9,3,03,00,1D,00,00,00,00,00,
4303479552,00000010,false,Rx,9,7,B0,01,25,11,25,0D,00,00,
4303480325,00000010,false,Rx,9,3,B0,0B,16,00,00,00,00,00,
4303484375,00000008,false,Rx,9,7,B0,01,25,0F,FF,07,00,00,
4303490968,000000AA,false,Rx,9,2,AA,04,00,00,00,00,00,00,
4303494988,00000040,false,Rx,9,6,B0,01,25,90,B4,89,00,00,
4303496525,000003A4,false,Rx,9,3,03,00,2C,00,00,00,00,00,
4303499619,00000010,false,Rx,9,7,B0,01,25,11,25,0D,00,00,
4303500811,00000010,false,Rx,9,3,B0,0B,16,00,00,00,00,00,
4303504432,00000008,false,Rx,9,7,B0,01,25,0F,FF,07,00,00,
4303511026,000000AA,false,Rx,9,2,AA,04,00,00,00,00,00,00,
4303514662,00000040,false,Rx,9,6,B0,01,25,90,B4,8A,00,00,
4303519450,00000010,false,Rx,9,7,B0,01,25,11,25,0D,00,00,
4303520338,00000010,false,Rx,9,3,B0,0B,16,00,00,00,00,00,
4303524282,00000008,false,Rx,9,7,B0,01,25,0F,FF,07,00,00,
4303531085,000000AA,false,Rx,9,2,AA,04,00,00,00,00,00,00,
4303534281,00000040,false,Rx,9,6,B0,01,25,90,B4,8B,00,00,
4303536935,0000029C,false,Rx,9,3,03,00,1A,00,00,00,00,00,
4303539945,00000010,false,Rx,9,7,B0,01,25,11,25,0D,00,00,
4303540921,00000010,false,Rx,9,3,B0,0B,16,00,00,00,00,00,
4303544543,00000008,false,Rx,9,7,B0,01,25,0F,FF,07,00,00,
4303552917,000000AA,false,Rx,9,2,AA,04,00,00,00,00,00,00,
4303554432,00000040,false,Rx,9,6,B0,01,25,90,B3,8C,00,00,
4303555841,000002BC,false,Rx,9,3,03,00,0F,00,00,00,00,00,
4303559584,00000010,false,Rx,9,7,B0,01,25,11,25,0D,00,00,
4303560879,00000010,false,Rx,9,3,B0,0B,15,00,00,00,00,00,
4303564504,00000008,false,Rx,9,7,B0,01,25,0F,FF,07,00,00,
4303570994,000000AA,false,Rx,9,2,AA,04,00,00,00,00,00,00,
4303574959,00000040,false,Rx,9,6,B0,01,25,90,B3,8D,00,00,
4303576283,00000040,false,Rx,9,7,B0,92,FF,FF,93,E2,00,00,
4303577256,00000040,false,Rx,9,3,B0,14,00,00,00,00,00,00,
4303578685,000002B4,false,Rx,9,3,03,00,0A,00,00,00,00,00,
4303580516,00000010,false,Rx,9,7,B0,01,25,11,25,0D,00,00,
4303581385,00000010,false,Rx,9,3,B0,0B,15,00,00,00,00,00,
4303584479,00000008,false,Rx,9,7,B0,01,25,0F,FF,07,00,00,
4303593069,000000AA,false,Rx,9,2,AA,04,00,00,00,00,00,00,
4303594628,00000040,false,Rx,9,6,B0,01,25,90,B2,8E,00,00,
4303596268,000003AC,false,Rx,9,3,03,00,1D,00,00,00,00,00,
4303599634,00000010,false,Rx,9,7,B0,01,25,11,25,0E,00,00,
4303601036,00000010,false,Rx,9,5,B0,0D,00,0B,15,00,00,00,
4303604554,00000008,false,Rx,9,7,B0,01,25,0F,FF,07,00,00,
4303611043,000000AA,false,Rx,9,2,AA,04,00,00,00,00,00,00,
4303614953,00000040,false,Rx,9,6,B0,01,25,90,B2,90,00,00,
4303616595,000003A4,false,Rx,9,3,03,00,2C,00,00,00,00,00,
4303619479,00000010,false,Rx,9,7,B0,01,25,11,25,0D,00,00,
4303620348,00000010,false,Rx,9,3,B0,0B,15,00,00,00,00,00,
4303624398,00000008,false,Rx,9,7,B0,01,25,0F,FF,07,00,00,
4303631095,000000AA,false,Rx,9,2,AA,04,00,00,00,00,00,00,
4303635608,00000040,false,Rx,9,6,B0,01,25,90,B1,92,00,00,
4303639441,00000010,false,Rx,9,7,B0,01,25,11,25,0D,00,00,
4303640313,00000010,false,Rx,9,3,B0,0B,15,00,00,00,00,00,
4303644255,00000008,false,Rx,9,7,B0,01,25,0C,B4,0F,FF,00,
4303645549,00000008,false,Rx,9,7,B0,0E,00,07,00,0D,09,00,
4303653270,000000AA,false,Rx,9,2,AA,04,00,00,00,00,00,00,
4303654956,00000040,false,Rx,9,6,B0,01,25,90,B2,94,00,00,
4303657802,0000029C,false,Rx,9,3,03,00,1A,00,00,00,00,00,
4303660068,00000010,false,Rx,9,7,B0,01,25,11,25,0D,00,00,
4303660939,00000010,false,Rx,9,3,B0,0B,15,00,00,00,00,00,
4303664459,00000008,false,Rx,9,7,B0,01,25,0F,FF,07,00,00,
4303673298,000000AA,false,Rx,9,2,AA,04,00,00,00,00,00,00,
4303675328,00000040,false,Rx,9,6,B0,01,25,90,B4,95,00,00,
4303676984,000002BC,false,Rx,9,3,03,00,0F,00,00,00,00,00,
4303679501,00000010,false,Rx,9,7,B0,01,25,11,25,0D,00,00,
4303680439,00000010,false,Rx,9,3,B0,0B,15,00,00,00,00,00,
4303684362,00000008,false,Rx,9,7,B0,01,25,0F,FF,07,00,00,
4303693351,000000AA,false,Rx,9,2,AA,04,00,00,00,00,00,00,
4303695032,00000040,false,Rx,9,6,B0,01,25,90,B4,97,00,00,
4303696654,000002B4,false,Rx,9,3,03,00,0A,00,00,00,00,00,
4303699642,00000010,false,Rx,9,7,B0,01,25,11,25,0D,00,00,
4303700834,00000010,false,Rx,9,3,B0,0B,15,00,00,00,00,00,
4303704458,00000008,false,Rx,9,7,B0,01,25,0F,FF,07,00,00,
4303711158,000000AA,false,Rx,9,2,AA,04,00,00,00,00,00,00,
4303715297,00000040,false,Rx,9,6,B0,01,25,90,B3,99,00,00,
4303717193,000003AC,false,Rx,9,3,03,00,1D,00,00,00,00,00,
4303719661,00000010,false,Rx,9,7,B0,01,25,11,25,0D,00,00,
4303720857,00000010,false,Rx,9,3,B0,0B,15,00,00,00,00,00,
4303724481,00000008,false,Rx,9,7,B0,01,25,0F,FF,07,00,00,
4303731178,000000AA,false,Rx,9,2,AA,04,00,00,00,00,00,00,
4303735031,00000040,false,Rx,9,6,B0,01,25,90,B2,9A,00,00,
4303736669,000003A4,false,Rx,9,3,03,00,2C,00,00,00,00,00,
4303739659,00000010,false,Rx,9,7,B0,01,25,11,25,0D,00,00,
4303740850,00000010,false,Rx,9,3,B0,0B,15,00,00,00,00,00,
4303744499,00000008,false,Rx,9,7,B0,01,25,0F,FF,07,00,00,
4303751133,000000AA,false,Rx,9,2,AA,04,00,00,00,00,00,00,
4303755094,00000040,false,Rx,9,6,B0,01,25,90,B2,9B,00,00,
4303759468,00000010,false,Rx,9,7,B0,01,25,11,25,0D,00,00,
4303760337,00000010,false,Rx,9,3,B0,0B,15,00,00,00,00,00,
4303764385,00000008,false,Rx,9,7,B0,01,25,0F,FF,07,00,00,
4303771185,000000AA,false,Rx,9,2,AA,04,00,00,00,00,00,00,
4303774453,00000040,false,Rx,9,6,B0,01,25,90,B2,9C,00,00,
4303775863,00000040,false,Rx,9,7,B0,92,FF,FF,93,E2,00,00,
4303776726,00000040,false,Rx,9,3,B0,14,00,00,00,00,00,00,
4303779411,0000029C,false,Rx,9,3,03,00,1A,00,00,00,00,00,
4303780941,00000010,false,Rx,9,7,B0,01,25,11,25,0D,00,00,
4303781916,00000010,false,Rx,9,3,B0,0B,15,00,00,00,00,00,
4303784510,00000008,false,Rx,9,7,B0,01,25,0F,FF,07,00,00,
4303791114,000000AA,false,Rx,9,2,AA,04,00,00,00,00,00,00,
4303794925,00000040,false,Rx,9,6,B0,01,25,90,B2,9E,00,00,
4303796458,000002BC,false,Rx,9,3,03,00,0F,00,00,00,00,00,
4303799554,00000010,false,Rx,9,7,B0,01,25,11,25,0E,00,00,
4303800635,00000010,false,Rx,9,5,B0,0D,00,0B,15,00,00,00,
4303804473,00000008,false,Rx,9,7,B0,01,25,0F,FF,07,00,00,
4303811171,000000AA,false,Rx,9,2,AA,04,00,00,00,00,00,00,
4303815198,00000040,false,Rx,9,6,B0,01,25,90,B1,9F,00,00,
4303816845,000002B4,false,Rx,9,3,03,00,02,00,00,00,00,00,
4303819529,00000010,false,Rx,9,7,B0,01,25,11,25,0D,00,00,
4303820309,00000010,false,Rx,9,3,B0,0B,15,00,00,00,00,00,
4303824357,00000008,false,Rx,9,7,B0,01,25,0F,FF,07,00,00,
4303832012,000000AA,false,Rx,9,2,AA,04,00,00,00,00,00,00,
4303834569,00000040,false,Rx,9,6,B0,01,25,90,B1,A0,00,00,
4303835996,000003AC,false,Rx,9,3,03,00,1D,00,00,00,00,00,
4303839724,00000010,false,Rx,9,7,B0,01,25,11,25,0D,00,00,
