Time Stamp,ID,Extended,Dir,Bus,LEN,D1,D2,D3,D4,D5,D6,D7,D8
755577,00001000,true,Rx,9,8,00,00,00,2A,00,00,1D,0F,
757004,00001001,true,Rx,9,8,00,00,00,88,00,00,00,00,
758368,00001002,true,Rx,9,8,00,00,00,00,00,00,00,00,
1755611,00001000,true,Rx,9,8,00,00,00,2B,00,00,1D,0F,
1757022,00001001,true,Rx,9,8,00,00,00,88,00,00,00,00,
1758382,00001002,true,Rx,9,8,00,00,00,00,00,00,00,00,
2755628,00001000,true,Rx,9,8,00,00,00,2C,00,00,1D,0F,
2757032,00001001,true,Rx,9,8,00,00,00,88,00,00,00,00,
2758446,00001002,true,Rx,9,8,00,00,00,00,00,00,00,00,
3755695,00001000,true,Rx,9,8,00,00,00,2D,00,00,1D,0F,
3757117,00001001,true,Rx,9,8,00,00,00,88,00,00,00,00,
3758503,00001002,true,Rx,9,8,00,00,00,00,00,00,00,00,
4755736,00001000,true,Rx,9,8,00,00,00,2E,00,00,1D,0F,
4757173,00001001,true,Rx,9,8,00,00,00,88,00,00,00,00,
4758542,00001002,true,Rx,9,8,00,00,00,00,00,00,00,00,
5755739,00001000,true,Rx,9,8,00,00,00,2F,00,00,1D,0F,
5757064,00001001,true,Rx,9,8,00,00,00,88,00,00,00,00,
5758582,00001002,true,Rx,9,8,00,00,00,00,00,00,00,00,
6755435,00001000,true,Rx,9,8,00,00,00,30,00,00,1D,0F,
6756815,00001001,true,Rx,9,8,00,00,00,88,00,00,00,00,
6758131,00001002,true,Rx,9,8,00,00,00,00,00,00,00,00,
7755517,00001000,true,Rx,9,8,00,00,00,31,00,00,1D,0F,
7756910,00001001,true,Rx,9,8,00,00,00,88,00,00,00,00,
7758288,00001002,true,Rx,9,8,00,00,00,00,00,00,00,00,
8584114,00000040,false,Rx,9,8,20,00,00,08,00,40,00,00,
8589144,00000040,false,Rx,9,8,20,00,00,08,00,40,00,00,
8646415,000000AA,false,Rx,9,2,AA,04,00,00,00,00,00,00,
8648690,000000AA,false,Rx,9,2,AA,04,00,00,00,00,00,00,
8650936,000000AA,false,Rx,9,2,AA,04,00,00,00,00,00,00,
8653224,000000AA,false,Rx,9,2,AA,04,00,00,00,00,00,00,
8655537,000000AA,false,Rx,9,2,AA,04,00,00,00,00,00,00,
8657718,000000AA,false,Rx,9,2,AA,04,00,00,00,00,00,00,
8661988,000000AA,false,Rx,9,2,AA,04,00,00,00,00,00,00,
8664245,00000040,false,Rx,9,8,23,00,00,08,FC,80,00,00,
8664406,00000008,false,Rx,9,1,A3,00,00,00,00,00,00,00,
8664954,00000010,false,Rx,9,1,A3,00,00,00,00,00,00,00,
8668722,00000040,false,Rx,9,8,23,00,00,08,FC,80,00,00,
8669399,00000008,false,Rx,9,1,A3,00,00,00,00,00,00,00,
8669951,00000010,false,Rx,9,1,A3,00,00,00,00,00,00,00,
8675271,000000AA,false,Rx,9,2,AA,04,00,00,00,00,00,00,
8676883,00000040,false,Rx,9,8,21,00,00,08,FC,80,00,00,
8677542,00000008,false,Rx,9,1,A1,00,00,00,00,00,00,00,
8678195,00000010,false,Rx,9,1,A1,00,00,00,00,00,00,00,
8681927,00000040,false,Rx,9,8,21,00,00,08,FC,80,00,00,
8683925,00000008,false,Rx,9,1,A1,00,00,00,00,00,00,00,
8683944,00000010,false,Rx,9,1,A1,00,00,00,00,00,00,00,
8687672,000000AA,false,Rx,9,2,AA,04,00,00,00,00,00,00,
8689188,00000040,false,Rx,9,8,24,00,00,08,FC,00,00,00,
8689950,00000008,false,Rx,9,1,A4,00,00,00,00,00,00,00,
8690505,00000010,false,Rx,9,1,A4,00,00,00,00,00,00,00,
8694339,00000040,false,Rx,9,8,24,00,00,08,FC,00,00,00,
8694997,00000008,false,Rx,9,1,A4,00,00,00,00,00,00,00,
8695550,00000010,false,Rx,9,1,A4,00,00,00,00,00,00,00,
8704020,000000AA,false,Rx,9,2,AA,04,00,00,00,00,00,00,
8706316,000000AA,false,Rx,9,2,AA,04,00,00,00,00,00,00,
8710160,000000AA,false,Rx,9,2,AA,04,00,00,00,00,00,00,
8713888,000000AA,false,Rx,9,2,AA,04,00,00,00,00,00,00,
8717720,000000AA,false,Rx,9,2,AA,04,00,00,00,00,00,00,
8721558,000000AA,false,Rx,9,2,AA,04,00,00,00,00,00,00,
8725444,000000AA,false,Rx,9,2,AA,04,00,00,00,00,00,00,
8729204,000000AA,false,Rx,9,2,AA,04,00,00,00,00,00,00,
8732948,000000AA,false,Rx,9,2,AA,04,00,00,00,00,00,00,
8736681,000000AA,false,Rx,9,2,AA,04,00,00,00,00,00,00,
8740518,000000AA,false,Rx,9,2,AA,04,00,00,00,00,00,00,
8755679,00001000,true,Rx,9,8,00,00,00,32,00,00,1D,3A,
8757083,00001001,true,Rx,9,8,00,00,00,88,00,00,00,00,
8758440,00001002,true,Rx,9,8,00,00,00,00,00,00,00,00,
8744331,000000AA,false,Rx,9,2,AA,04,00,00,00,00,00,00,
8748204,000000AA,false,Rx,9,2,AA,04,00,00,00,00,00,00,
8751930,000000AA,false,Rx,9,2,AA,04,00,00,00,00,00,00,
8760892,000000AA,false,Rx,9,2,AA,04,00,00,00,00,00,00,
8760918,000000AA,false,Rx,9,2,AA,04,00,00,00,00,00,00,
8764085,000000AA,false,Rx,9,2,AA,04,00,00,00,00,00,00,
8767208,000000AA,false,Rx,9,2,AA,04,00,00,00,00,00,00,
8771074,000000AA,false,Rx,9,2,AA,04,00,00,00,00,00,00,
8774926,000000AA,false,Rx,9,2,AA,04,00,00,00,00,00,00,
8778660,000000AA,false,Rx,9,2,AA,04,00,00,00,00,00,00,
8782493,000000AA,false,Rx,9,2,AA,04,00,00,00,00,00,00,
8786400,000000AA,false,Rx,9,2,AA,04,00,00,00,00,00,00,
8790259,000000AA,false,Rx,9,2,AA,04,00,00,00,00,00,00,
8793999,000000AA,false,Rx,9,2,AA,04,00,00,00,00,00,00,
8797837,000000AA,false,Rx,9,2,AA,04,00,00,00,00,00,00,
8801566,000000AA,false,Rx,9,2,AA,04,00,00,00,00,00,00,
8805487,000000AA,false,Rx,9,2,AA,04,00,00,00,00,00,00,
8809244,000000AA,false,Rx,9,2,AA,04,00,00,00,00,00,00,
8812976,000000AA,false,Rx,9,2,AA,04,00,00,00,00,00,00,
8817027,000000AA,false,Rx,9,2,AA,04,00,00,00,00,00,00,
8821075,000000AA,false,Rx,9,2,AA,04,00,00,00,00,00,00,
8824170,000000AA,false,Rx,9,2,AA,04,00,00,00,00,00,00,
8827156,00000040,false,Rx,9,8,27,00,00,FD,00,80,00,00,
8832098,00000040,false,Rx,9,8,13,01,00,00,00,FF,00,00,
8847388,000000AA,false,Rx,9,2,AA,04,00,00,00,00,00,00,
8851842,0000029C,false,Rx,9,3,03,00,1A,00,00,00,00,00,
8857647,00000010,false,Rx,9,4,30,08,00,01,00,00,00,00,
8858739,00000040,false,Rx,9,3,B0,01,10,00,00,00,00,00,
8867418,000000AA,false,Rx,9,2,AA,04,00,00,00,00,00,00,
8870222,00000040,false,Rx,9,3,B0,01,10,00,00,00,00,00,
8874267,000002BC,false,Rx,9,3,03,00,0B,00,00,00,00,00,
8888029,000000AA,false,Rx,9,2,AA,04,00,00,00,00,00,00,
8890099,00000040,false,Rx,9,3,B0,01,10,00,00,00,00,00,
8892872,000002B4,false,Rx,9,3,03,00,0A,00,00,00,00,00,
8894481,00000040,false,Rx,9,5,30,02,00,01,08,00,00,00,
8895883,00000010,false,Rx,9,3,B0,01,00,00,00,00,00,00,
8897810,00000008,false,Rx,9,3,B0,01,02,00,00,00,00,00,
8898572,00000010,false,Rx,9,4,30,01,00,01,00,00,00,00,
8907420,000000AA,false,Rx,9,2,AA,04,00,00,00,00,00,00,
8910222,00000040,false,Rx,9,3,B0,01,0C,00,00,00,00,00,
8912258,000003AC,false,Rx,9,3,03,00,1D,00,00,00,00,00,
8914182,00000010,false,Rx,9,3,B0,01,02,00,00,00,00,00,
8919701,00000008,false,Rx,9,5,B0,01,02,0C,B6,00,00,00,
8920912,00000008,false,Rx,9,8,10,00,00,00,00,FF,00,00,
8927506,00000040,false,Rx,9,8,90,01,00,00,06,29,00,00,
8929252,000000AA,false,Rx,9,2,AA,04,00,00,00,00,00,00,
8930967,00000040,false,Rx,9,3,B0,01,10,00,00,00,00,00,
8933535,000003A4,false,Rx,9,3,03,00,2C,00,00,00,00,00,
8934295,00000010,false,Rx,9,3,B0,01,02,00,00,00,00,00,
8939931,00000008,false,Rx,9,3,B0,01,02,00,00,00,00,00,
8941652,00000008,false,Rx,9,8,10,00,00,01,06,29,00,00,
8944574,00000040,false,Rx,9,8,90,01,00,01,47,22,00,00,
8947406,000000AA,false,Rx,9,2,AA,04,00,00,00,00,00,00,
8950200,00000040,false,Rx,9,3,B0,01,10,00,00,00,00,00,
8954037,00000010,false,Rx,9,3,B0,01,02,00,00,00,00,00,
8960034,00000008,false,Rx,9,3,B0,01,02,00,00,00,00,00,
8961670,00000008,false,Rx,9,8,12,00,00,00,80,00,00,00,
8965476,00000008,false,Rx,9,4,30,02,00,11,00,00,00,00,
8965511,00000040,false,Rx,9,8,13,02,00,00,00,FF,00,00,
8965528,00000010,false,Rx,9,3,B0,11,10,00,00,00,00,00,
8967449,000000AA,false,Rx,9,2,AA,04,00,00,00,00,00,00,
8970129,00000040,false,Rx,9,3,B0,01,10,00,00,00,00,00,
8973179,0000029C,false,Rx,9,3,03,00,1A,00,00,00,00,00,
8974915,00000010,false,Rx,9,5,B0,01,02,11,10,00,00,00,
8976101,00000010,false,Rx,9,8,10,00,00,00,00,FF,00,00,
8980150,00000008,false,Rx,9,3,B0,01,10,00,00,00,00,00,
8984685,00000040,false,Rx,9,8,90,02,00,00,02,7C,00,00,
8988122,000000AA,false,Rx,9,2,AA,04,00,00,00,00,00,00,
8990168,00000040,false,Rx,9,3,B0,01,10,00,00,00,00,00,
8991885,000002BC,false,Rx,9,3,03,00,0B,00,00,00,00,00,
8995726,00000010,false,Rx,9,5,B0,01,10,11,10,00,00,00,
8997020,00000010,false,Rx,9,8,10,00,00,01,02,7C,00,00,
8998527,00000040,false,Rx,9,8,90,02,00,01,47,22,00,00,
9000348,00000008,false,Rx,9,3,B0,01,10,00,00,00,00,00,
9007449,000000AA,false,Rx,9,2,AA,04,00,00,00,00,00,00,
9010257,00000040,false,Rx,9,3,B0,01,10,00,00,00,00,00,
9011973,000002B4,false,Rx,9,3,03,00,0A,00,00,00,00,00,
9014219,00000040,false,Rx,9,5,30,02,00,0E,03,00,00,00,
9015090,00000010,false,Rx,9,5,B0,01,10,11,10,00,00,00,
9016382,00000010,false,Rx,9,8,12,00,00,00,00,11,00,00,
9017251,00000040,false,Rx,9,5,30,02,00,0D,03,00,00,00,
9018018,00000010,false,Rx,9,3,B0,0E,00,00,00,00,00,00,
9018991,00000010,false,Rx,9,3,B0,0D,00,00,00,00,00,00,
9019860,00000010,false,Rx,9,4,30,01,00,0F,00,00,00,00,
9021048,00000010,false,Rx,9,4,30,01,00,0E,00,00,00,00,
9021916,00000008,false,Rx,9,5,B0,01,10,0F,FF,00,00,00,
9022681,00000010,false,Rx,9,4,30,01,00,07,00,00,00,00,
9024914,00000040,false,Rx,9,5,30,01,00,0D,03,00,00,00,
9024933,00000010,false,Rx,9,4,30,08,00,14,00,00,00,00,
9025541,00000010,false,Rx,9,4,30,08,00,13,00,00,00,00,
9027959,00000040,false,Rx,9,6,B0,93,E5,00,14,00,00,00,
9029693,00000010,false,Rx,9,4,30,08,00,12,00,00,00,00,
9030348,000000AA,false,Rx,9,2,AA,04,00,00,00,00,00,00,
9031853,00000040,false,Rx,9,6,B0,01,10,92,FF,FF,00,00,
9033147,00000040,false,Rx,9,6,B0,93,E5,00,14,00,00,00,
9034437,000003AC,false,Rx,9,3,03,00,1D,00,00,00,00,00,
9036156,00000010,false,Rx,9,7,B0,01,10,11,10,0D,00,00,
9040630,00000008,false,Rx,9,7,B0,01,10,0F,FF,0E,00,00,
9041711,00000008,false,Rx,9,5,B0,07,00,0D,00,00,00,00,
9047466,000000AA,false,Rx,9,2,AA,04,00,00,00,00,00,00,
9049720,00000040,false,Rx,9,3,B0,01,10,00,00,00,00,00,
9055146,00000010,false,Rx,9,7,B0,01,10,11,10,0E,00,00,
9055910,00000010,false,Rx,9,3,B0,0D,00,00,00,00,00,00,
9060384,00000008,false,Rx,9,7,B0,01,10,0F,FF,07,00,00,
9061150,000003A4,false,Rx,9,3,03,00,2C,00,00,00,00,00,
9067703,000000AA,false,Rx,9,2,AA,04,00,00,00,00,00,00,
9069845,00000040,false,Rx,9,3,B0,01,10,00,00,00,00,00,
9075088,00000010,false,Rx,9,7,B0,01,10,11,10,0D,00,00,
9080480,00000008,false,Rx,9,7,B0,01,10,0F,FF,07,00,00,
9088029,000000AA,false,Rx,9,2,AA,04,00,00,00,00,00,00,
9090201,00000040,false,Rx,9,3,B0,01,10,00,00,00,00,00,
9093252,0000029C,false,Rx,9,3,03,00,1A,00,00,00,00,00,
9095306,00000010,false,Rx,9,7,B0,01,10,11,10,0D,00,00,
9100309,00000008,false,Rx,9,7,B0,01,10,0C,B6,0F,FF,00,
9101605,00000008,false,Rx,9,7,B0,0E,00,07,00,0D,00,00,
9108964,000000AA,false,Rx,9,2,AA,04,00,00,00,00,00,00,
9111342,00000040,false,Rx,9,3,B0,01,10,00,00,00,00,00,
9115075,00000010,false,Rx,9,7,B0,01,10,11,10,0D,00,00,
9120390,00000008,false,Rx,9,7,B0,01,10,0F,FF,07,00,00,
9125131,000002BC,false,Rx,9,3,03,00,0B,00,00,00,00,00,
9127462,000000AA,false,Rx,9,2,AA,04,00,00,00,00,00,00,
9129613,00000040,false,Rx,9,3,B0,01,10,00,00,00,00,00,
9134930,00000010,false,Rx,9,7,B0,01,10,11,10,0D,00,00,
9140460,00000008,false,Rx,9,7,B0,01,10,0F,FF,07,00,00,
9147669,000002B4,false,Rx,9,3,03,00,0A,00,00,00,00,00,
9149597,000000AA,false,Rx,9,2,AA,04,00,00,00,00,00,00,
9150796,00000040,false,Rx,9,3,B0,01,10,00,00,00,00,00,
9154948,00000010,false,Rx,9,7,B0,01,10,11,10,0D,00,00,
9160373,00000008,false,Rx,9,7,B0,01,10,0F,FF,07,00,00,
9167638,000003AC,false,Rx,9,3,03,00,1D,00,00,00,00,00,
9169517,000000AA,false,Rx,9,2,AA,04,00,00,00,00,00,00,
9170810,00000040,false,Rx,9,3,B0,01,10,00,00,00,00,00,
9174963,00000010,false,Rx,9,7,B0,01,10,11,10,0D,00,00,
9180388,00000008,false,Rx,9,7,B0,01,10,0F,FF,07,00,00,
9187598,000000AA,false,Rx,9,2,AA,04,00,00,00,00,00,00,
9191183,00000040,false,Rx,9,3,B0,01,10,00,00,00,00,00,
9195024,00000010,false,Rx,9,7,B0,01,10,11,10,0D,00,00,
9195690,000003A4,false,Rx,9,3,03,00,2C,00,00,00,00,00,
9200478,00000008,false,Rx,9,7,B0,01,10,0F,FF,07,00,00,
9207574,000000AA,false,Rx,9,2,AA,04,00,00,00,00,00,00,
9209743,00000040,false,Rx,9,3,B0,01,10,00,00,00,00,00,
9214956,00000010,false,Rx,9,7,B0,01,10,11,10,0D,00,00,
9220382,00000008,false,Rx,9,7,B0,01,10,0F,FF,07,00,00,
9228385,000000AA,false,Rx,9,2,AA,04,00,00,00,00,00,00,
9230867,00000040,false,Rx,9,6,B0,01,10,92,FF,FF,00,00,
9232160,00000040,false,Rx,9,6,B0,93,E5,00,14,00,00,00,
9234787,0000029C,false,Rx,9,3,03,00,1A,00,00,00,00,00,
9236312,00000010,false,Rx,9,7,B0,01,10,11,10,0D,00,00,
9240466,00000008,false,Rx,9,7,B0,01,10,0F,FF,07,00,00,
9247577,000000AA,false,Rx,9,2,AA,04,00,00,00,00,00,00,
9249746,00000040,false,Rx,9,3,B0,01,10,00,00,00,00,00,
9251460,000002BC,false,Rx,9,3,03,00,0B,00,00,00,00,00,
9254982,00000010,false,Rx,9,7,B0,01,10,11,10,0E,00,00,
9255851,00000010,false,Rx,9,3,B0,0D,00,00,00,00,00,00,
9260428,00000008,false,Rx,9,7,B0,01,10,0F,FF,07,00,00,
9268345,000000AA,false,Rx,9,2,AA,04,00,00,00,00,00,00,
9270398,00000040,false,Rx,9,3,B0,01,10,00,00,00,00,00,
9272159,000002B4,false,Rx,9,3,03,00,0A,00,00,00,00,00,
9275053,00000010,false,Rx,9,7,B0,01,10,11,10,0D,00,00,
9280474,00000008,false,Rx,9,7,B0,01,10,0F,FF,07,00,00,
9288208,000000AA,false,Rx,9,2,AA,04,00,00,00,00,00,00,
9290371,00000040,false,Rx,9,3,B0,01,10,00,00,00,00,00,
9292090,000003AC,false,Rx,9,3,03,00,1D,00,00,00,00,00,
9295080,00000010,false,Rx,9,7,B0,01,10,11,10,0D,00,00,
9300292,00000008,false,Rx,9,7,B0,01,10,0C,B6,0F,FF,00,
9301588,00000008,false,Rx,9,7,B0,0E,00,07,00,0D,00,00,
9307533,000000AA,false,Rx,9,2,AA,04,00,00,00,00,00,00,
9310392,00000040,false,Rx,9,3,B0,01,10,00,00,00,00,00,
9312125,000003A4,false,Rx,9,3,03,00,2C,00,00,00,00,00,
9315114,00000010,false,Rx,9,7,B0,01,10,11,10,0D,00,00,
9320430,00000008,false,Rx,9,7,B0,01,10,0F,FF,07,00,00,
9327639,000000AA,false,Rx,9,2,AA,04,00,00,00,00,00,00,
9330554,00000040,false,Rx,9,3,B0,01,10,00,00,00,00,00,
9335020,00000010,false,Rx,9,7,B0,01,10,11,10,0D,00,00,
9340445,00000008,false,Rx,9,7,B0,01,10,0F,FF,07,00,00,
9348270,000000AA,false,Rx,9,2,AA,04,00,00,00,00,00,00,
9350366,00000040,false,Rx,9,3,B0,01,10,00,00,00,00,00,
9353419,0000029C,false,Rx,9,3,03,00,1A,00,00,00,00,00,
9355263,00000010,false,Rx,9,7,B0,01,10,11,10,0D,00,00,
9360473,00000008,false,Rx,9,7,B0,01,10,0F,FF,07,00,00,
9367582,000000AA,false,Rx,9,2,AA,04,00,00,00,00,00,00,
9370435,00000040,false,Rx,9,3,B0,01,10,00,00,00,00,00,
9372160,000002BC,false,Rx,9,3,03,00,0B,00,00,00,00,00,
9375069,00000010,false,Rx,9,7,B0,01,10,11,10,0D,00,00,
9380390,00000008,false,Rx,9,7,B0,01,10,0F,FF,07,00,00,
9388318,000000AA,false,Rx,9,2,AA,04,00,00,00,00,00,00,
9390387,00000040,false,Rx,9,3,B0,01,10,00,00,00,00,00,
9392107,000002B4,false,Rx,9,3,03,00,0A,00,00,00,00,00,
9395096,00000010,false,Rx,9,7,B0,01,10,11,10,0D,00,00,
9400414,00000008,false,Rx,9,7,B0,01,10,0F,FF,07,00,00,
9407608,000000AA,false,Rx,9,2,AA,04,00,00,00,00,00,00,
9410411,00000040,false,Rx,9,3,B0,01,10,00,00,00,00,00,
9412128,000003AC,false,Rx,9,3,03,00,1D,00,00,00,00,00,
9415116,00000010,false,Rx,9,7,B0,01,10,11,10,0D,00,00,
9419793,00000010,false,Rx,9,4,30,08,00,2C,00,00,00,00,
9420880,00000008,false,Rx,9,7,B0,01,10,0F,FF,07,00,00,
9421540,00000040,false,Rx,9,3,B0,2C,B3,00,00,00,00,00,
9427606,000000AA,false,Rx,9,2,AA,04,00,00,00,00,00,00,
9430940,00000040,false,Rx,9,6,B0,01,10,92,FF,FF,00,00,
9432444,00000040,false,Rx,9,8,B0,93,E5,00,14,00,2C,B3,
9433951,000003A4,false,Rx,9,3,03,00,2C,00,00,00,00,00,
9436093,00000010,false,Rx,9,7,B0,01,10,11,10,0D,00,00,
9440460,00000008,false,Rx,9,7,B0,01,10,0F,FF,07,00,00,
9447681,000000AA,false,Rx,9,2,AA,04,00,00,00,00,00,00,
9450540,00000040,false,Rx,9,3,B0,01,10,00,00,00,00,00,
9455012,00000010,false,Rx,9,7,B0,01,10,11,10,0E,00,00,
9455881,00000010,false,Rx,9,3,B0,0D,00,00,00,00,00,00,
9460461,00000008,false,Rx,9,7,B0,01,10,0F,FF,07,00,00,
9467679,000000AA,false,Rx,9,2,AA,04,00,00,00,00,00,00,
9470483,00000040,false,Rx,9,3,B0,01,10,00,00,00,00,00,
9473587,0000029C,false,Rx,9,3,03,00,1A,00,00,00,00,00,
9475217,00000010,false,Rx,9,7,B0,01,10,11,10,0D,00,00,
9480453,00000008,false,Rx,9,7,B0,01,10,0F,FF,07,00,00,
9488344,000000AA,false,Rx,9,2,AA,04,00,00,00,00,00,00,
9490564,00000040,false,Rx,9,3,B0,01,10,00,00,00,00,00,
9492279,000002BC,false,Rx,9,3,03,00,0B,00,00,00,00,00,
9495057,00000010,false,Rx,9,7,B0,01,10,11,10,0D,00,00,
9500373,00000008,false,Rx,9,7,B0,01,10,0C,B6,0F,FF,00,
9501669,00000008,false,Rx,9,7,B0,0E,00,07,00,0D,00,00,
9508344,000000AA,false,Rx,9,2,AA,04,00,00,00,00,00,00,
9510411,00000040,false,Rx,9,3,B0,01,10,00,00,00,00,00,
9512235,000002B4,false,Rx,9,3,03,00,0A,00,00,00,00,00,
9515121,00000010,false,Rx,9,7,B0,01,10,11,10,0D,00,00,
9520436,00000008,false,Rx,9,7,B0,01,10,0F,FF,07,00,00,
9528492,000000AA,false,Rx,9,2,AA,04,00,00,00,00,00,00,
9530486,00000040,false,Rx,9,3,B0,01,10,00,00,00,00,00,
9532206,000003AC,false,Rx,9,3,03,00,1D,00,00,00,00,00,
9535090,00000010,false,Rx,9,7,B0,01,10,11,10,0D,00,00,
9540408,00000008,false,Rx,9,7,B0,01,10,0F,FF,07,00,00,
9548343,000000AA,false,Rx,9,2,AA,04,00,00,00,00,00,00,
9550521,00000040,false,Rx,9,3,B0,01,10,00,00,00,00,00,
9552235,000003A4,false,Rx,9,3,03,00,2C,00,00,00,00,00,
9555121,00000010,false,Rx,9,7,B0,01,10,11,10,0D,00,00,
9560437,00000008,false,Rx,9,7,B0,01,10,0F,FF,07,00,00,
9567743,000000AA,false,Rx,9,2,AA,04,00,00,00,00,00,00,
9570554,00000040,false,Rx,9,3,B0,01,10,00,00,00,00,00,
9575112,00000010,false,Rx,9,7,B0,01,10,11,10,0D,00,00,
9580468,00000008,false,Rx,9,7,B0,01,10,0F,FF,07,00,00,
9587664,000000AA,false,Rx,9,2,AA,04,00,00,00,00,00,00,
9590580,00000040,false,Rx,9,3,B0,01,10,00,00,00,00,00,
9593630,0000029C,false,Rx,9,3,03,00,1A,00,00,00,00,00,
9595261,00000010,false,Rx,9,7,B0,01,10,11,10,0D,00,00,
9600473,00000008,false,Rx,9,7,B0,01,10,0F,FF,07,00,00,
9607695,000000AA,false,Rx,9,2,AA,04,00,00,00,00,00,00,
9610651,00000040,false,Rx,9,3,B0,01,10,00,00,00,00,00,
9612270,000002BC,false,Rx,9,3,03,00,0B,00,00,00,00,00,
9615153,00000010,false,Rx,9,7,B0,01,10,11,10,0D,00,00,
9620471,00000008,false,Rx,9,7,B0,01,10,0F,FF,07,00,00,
9627691,000000AA,false,Rx,9,2,AA,04,00,00,00,00,00,00,
9630921,00000040,false,Rx,9,6,B0,01,10,92,FF,FF,00,00,
9632535,00000040,false,Rx,9,8,B0,93,E5,00,14,00,2C,B3,
9633931,000002B4,false,Rx,9,3,03,00,0A,00,00,00,00,00,
9636179,00000010,false,Rx,9,7,B0,01,10,11,10,0D,00,00,
9640436,00000008,false,Rx,9,7,B0,01,10,0F,FF,07,00,00,
9648352,000000AA,false,Rx,9,2,AA,04,00,00,00,00,00,00,
9650616,00000040,false,Rx,9,3,B0,01,10,00,00,00,00,00,
9652340,000003AC,false,Rx,9,3,03,00,1D,00,00,00,00,00,
9655121,00000010,false,Rx,9,7,B0,01,10,11,10,0E,00,00,
9655989,00000010,false,Rx,9,3,B0,0D,00,00,00,00,00,00,
9660513,00000008,false,Rx,9,7,B0,01,10,0F,FF,07,00,00,
9667710,000000AA,false,Rx,9,2,AA,04,00,00,00,00,00,00,
9670615,00000040,false,Rx,9,3,B0,01,10,00,00,00,00,00,
9672331,000003A4,false,Rx,9,3,03,00,2C,00,00,00,00,00,
9675109,00000010,false,Rx,9,7,B0,01,10,11,10,0D,00,00,
9680469,00000008,false,Rx,9,7,B0,01,10,0F,FF,07,00,00,
9687709,000000AA,false,Rx,9,2,AA,04,00,00,00,00,00,00,
9690612,00000040,false,Rx,9,3,B0,01,10,00,00,00,00,00,
9695099,00000010,false,Rx,9,7,B0,01,10,11,10,0D,00,00,
9700309,00000008,false,Rx,9,7,B0,01,10,0C,B6,0F,FF,00,
9701605,00000008,false,Rx,9,7,B0,0E,00,07,00,0D,00,00,
9707758,000000AA,false,Rx,9,2,AA,04,00,00,00,00,00,00,
9710566,00000040,false,Rx,9,3,B0,01,10,00,00,00,00,00,
9713615,0000029C,false,Rx,9,3,03,00,1A,00,00,00,00,00,
9715242,00000010,false,Rx,9,7,B0,01,10,11,10,0D,00,00,
9720455,00000008,false,Rx,9,7,B0,01,10,0F,FF,07,00,00,
9727786,000000AA,false,Rx,9,2,AA,04,00,00,00,00,00,00,
9730618,00000040,false,Rx,9,3,B0,01,10,00,00,00,00,00,
9732342,000002BC,false,Rx,9,3,03,00,0B,00,00,00,00,00,
9735121,00000010,false,Rx,9,7,B0,01,10,11,10,0D,00,00,
9740437,00000008,false,Rx,9,7,B0,01,10,0F,FF,07,00,00,
9755621,00001000,true,Rx,9,8,00,00,00,33,00,00,1E,73,
9756923,00001001,true,Rx,9,8,00,00,00,88,00,00,00,00,
9758069,00001002,true,Rx,9,8,00,00,00,00,00,00,00,00,
9747829,000000AA,false,Rx,9,2,AA,04,00,00,00,00,00,00,
9750601,00000040,false,Rx,9,3,B0,01,10,00,00,00,00,00,
9752317,000002B4,false,Rx,9,3,03,00,0A,00,00,00,00,00,
9759392,00000010,false,Rx,9,7,B0,01,10,11,10,0D,00,00,
9760408,00000008,false,Rx,9,7,B0,01,10,0F,FF,07,00,00,
9767732,000000AA,false,Rx,9,2,AA,04,00,00,00,00,00,00,
9770621,00000040,false,Rx,9,3,B0,01,10,00,00,00,00,00,
9772336,000003AC,false,Rx,9,3,03,00,1D,00,00,00,00,00,
9775114,00000010,false,Rx,9,7,B0,01,10,11,10,0D,00,00,
9780485,00000008,false,Rx,9,7,B0,01,10,0F,FF,07,00,00,
9788424,000000AA,false,Rx,9,2,AA,04,00,00,00,00,00,00,
9790743,00000040,false,Rx,9,3,B0,01,10,00,00,00,00,00,
9792382,000003A4,false,Rx,9,3,03,00,2C,00,00,00,00,00,
9795160,00000010,false,Rx,9,7,B0,01,10,11,10,0D,00,00,
9800476,00000008,false,Rx,9,7,B0,01,10,0F,FF,07,00,00,
9807774,000000AA,false,Rx,9,2,AA,04,00,00,00,00,00,00,
9810689,00000040,false,Rx,9,3,B0,01,10,00,00,00,00,00,
9815052,00000010,false,Rx,9,7,B0,01,10,11,10,0D,00,00,
9819310,00000010,false,Rx,9,4,30,08,00,2D,00,00,00,00,
9820390,00000008,false,Rx,9,7,B0,01,10,0F,FF,07,00,00,
9821261,00000010,false,Rx,9,4,31,08,00,2C,00,00,00,00,
9821919,00000040,false,Rx,9,3,B0,2D,A6,00,00,00,00,00,
9827780,000000AA,false,Rx,9,2,AA,04,00,00,00,00,00,00,
9831011,00000040,false,Rx,9,6,B0,01,10,92,FF,FF,00,00,
9832525,00000040,false,Rx,9,8,B0,93,E5,00,14,00,2D,A6,
9835363,0000029C,false,Rx,9,3,03,00,1A,00,00,00,00,00,
9836339,00000010,false,Rx,9,7,B0,01,10,11,10,0D,00,00,
9840409,00000008,false,Rx,9,7,B0,01,10,0F,FF,07,00,00,
9847847,000000AA,false,Rx,9,2,AA,04,00,00,00,00,00,00,
9850652,00000040,false,Rx,9,3,B0,01,10,00,00,00,00,00,
9852471,000002BC,false,Rx,9,3,03,00,0B,00,00,00,00,00,
9855145,00000010,false,Rx,9,7,B0,01,10,11,10,0E,00,00,
9856013,00000010,false,Rx,9,3,B0,0D,00,00,00,00,00,00,
9860481,00000008,false,Rx,9,7,B0,01,10,0F,FF,07,00,00,
9867797,000000AA,false,Rx,9,2,AA,04,00,00,00,00,00,00,
9870710,00000040,false,Rx,9,3,B0,01,10,00,00,00,00,00,
9872425,000002B4,false,Rx,9,3,03,00,0A,00,00,00,00,00,
9875099,00000010,false,Rx,9,7,B0,01,10,11,10,0D,00,00,
9880454,00000008,false,Rx,9,7,B0,01,10,0F,FF,07,00,00,
9888483,000000AA,false,Rx,9,2,AA,04,00,00,00,00,00,00,
9890666,00000040,false,Rx,9,3,B0,01,10,00,00,00,00,00,
9892909,000003AC,false,Rx,9,3,03,00,1D,00,00,00,00,00,
9895155,00000010,false,Rx,9,7,B0,01,10,11,10,0D,00,00,
9900369,00000008,false,Rx,9,7,B0,01,10,0C,B6,0F,FF,00,
9901662,00000008,false,Rx,9,7,B0,0E,00,07,00,0D,00,00,
9908717,000000AA,false,Rx,9,2,AA,04,00,00,00,00,00,00,
9910702,00000040,false,Rx,9,3,B0,01,10,00,00,00,00,00,
9913370,000003A4,false,Rx,9,3,03,00,2C,00,00,00,00,00,
9915090,00000010,false,Rx,9,7,B0,01,10,11,10,0D,00,00,
9920514,00000008,false,Rx,9,7,B0,01,10,0F,FF,07,00,00,
9927857,000000AA,false,Rx,9,2,AA,04,00,00,00,00,00,00,
9930662,00000040,false,Rx,9,3,B0,01,10,00,00,00,00,00,
9935144,00000010,false,Rx,9,7,B0,01,10,11,10,0D,00,00,
9940463,00000008,false,Rx,9,7,B0,01,10,0F,FF,07,00,00,
9947888,000000AA,false,Rx,9,2,AA,04,00,00,00,00,00,00,
9950699,00000040,false,Rx,9,3,B0,01,10,00,00,00,00,00,
9953748,0000029C,false,Rx,9,3,03,00,1A,00,00,00,00,00,
9955273,00000010,false,Rx,9,7,B0,01,10,11,10,0D,00,00,
9960493,00000008,false,Rx,9,7,B0,01,10,0F,FF,07,00,00,
9968625,000000AA,false,Rx,9,2,AA,04,00,00,00,00,00,00,
9970732,00000040,false,Rx,9,3,B0,01,10,00,00,00,00,00,
9972461,000002BC,false,Rx,9,3,03,00,0B,00,00,00,00,00,
9975131,00000010,false,Rx,9,7,B0,01,10,11,10,0D,00,00,
9980447,00000008,false,Rx,9,7,B0,01,10,0F,FF,07,00,00,
9987927,000000AA,false,Rx,9,2,AA,04,00,00,00,00,00,00,
9990747,00000040,false,Rx,9,3,B0,01,10,00,00,00,00,00,
9992460,000002B4,false,Rx,9,3,03,00,0A,00,00,00,00,00,
9995135,00000010,false,Rx,9,7,B0,01,10,11,10,0D,00,00,
10000455,00000008,false,Rx,9,7,B0,01,10,0F,FF,07,00,00,
10008529,000000AA,false,Rx,9,2,AA,04,00,00,00,00,00,00,
10010766,00000040,false,Rx,9,3,B0,01,10,00,00,00,00,00,
10012489,000003AC,false,Rx,9,3,03,00,1D,00,00,00,00,00,
10015160,00000010,false,Rx,9,7,B0,01,10,11,10,0D,00,00,
10020476,00000008,false,Rx,9,7,B0,01,10,0F,FF,07,00,00,
10028540,000000AA,false,Rx,9,2,AA,04,00,00,00,00,00,00,
10031029,00000040,false,Rx,9,6,B0,01,10,92,FF,FF,00,00,
10032640,00000040,false,Rx,9,8,B0,93,E5,00,14,00,2D,A6,
10034037,000003A4,false,Rx,9,3,03,00,2C,00,00,00,00,00,
10036174,00000010,false,Rx,9,7,B0,01,10,11,10,0D,00,00,
10040430,00000008,false,Rx,9,7,B0,01,10,0F,FF,07,00,00,
10048583,000000AA,false,Rx,9,2,AA,04,00,00,00,00,00,00,
10050773,00000040,false,Rx,9,3,B0,01,10,00,00,00,00,00,
10055048,00000010,false,Rx,9,7,B0,01,10,11,10,0E,00,00,
10055915,00000010,false,Rx,9,3,B0,0D,00,00,00,00,00,00,
10060493,00000008,false,Rx,9,7,B0,01,10,0F,FF,07,00,00,
10068545,000000AA,false,Rx,9,2,AA,04,00,00,00,00,00,00,
10070821,00000040,false,Rx,9,3,B0,01,10,00,00,00,00,00,
10073766,0000029C,false,Rx,9,3,03,00,1A,00,00,00,00,00,
10075292,00000010,false,Rx,9,7,B0,01,10,11,10,0D,00,00,
10080510,00000008,false,Rx,9,7,B0,01,10,0F,FF,07,00,00,
10087963,000000AA,false,Rx,9,2,AA,04,00,00,00,00,00,00,
10090995,00000040,false,Rx,9,3,B0,01,10,00,00,00,00,00,
10092519,000002BC,false,Rx,9,3,03,00,0B,00,00,00,00,00,
10095206,00000010,false,Rx,9,7,B0,01,10,11,10,0D,00,00,
10100316,00000008,false,Rx,9,7,B0,01,10,0C,B6,0F,FF,00,
10101613,00000008,false,Rx,9,7,B0,0E,00,07,00,0D,09,00,
10107877,000000AA,false,Rx,9,2,AA,04,00,00,00,00,00,00,
10110788,00000040,false,Rx,9,3,B0,01,10,00,00,00,00,00,
10112821,000002B4,false,Rx,9,3,03,00,0A,00,00,00,00,00,
10115174,00000010,false,Rx,9,7,B0,01,10,11,10,0D,00,00,
10120490,00000008,false,Rx,9,7,B0,01,10,0F,FF,07,00,00,
10128537,000000AA,false,Rx,9,2,AA,04,00,00,00,00,00,00,
10130723,00000040,false,Rx,9,3,B0,01,10,00,00,00,00,00,
10132451,000003AC,false,Rx,9,3,03,00,1D,00,00,00,00,00,
10135231,00000010,false,Rx,9,7,B0,01,10,11,10,0D,00,00,
10140445,00000008,false,Rx,9,7,B0,01,10,0F,FF,07,00,00,
10147972,000000AA,false,Rx,9,2,AA,04,00,00,00,00,00,00,
10150783,00000040,false,Rx,9,3,B0,01,10,00,00,00,00,00,
10152495,000003A4,false,Rx,9,3,03,00,2C,00,00,00,00,00,
10155168,00000010,false,Rx,9,7,B0,01,10,11,10,0D,00,00,
10160487,00000008,false,Rx,9,7,B0,01,10,0F,FF,07,00,00,
10167913,000000AA,false,Rx,9,2,AA,04,00,00,00,00,00,00,
10170862,00000040,false,Rx,9,3,B0,01,10,00,00,00,00,00,
10175132,00000010,false,Rx,9,7,B0,01,10,11,10,0D,00,00,
10180447,00000008,false,Rx,9,7,B0,01,10,0F,FF,07,00,00,
10188619,000000AA,false,Rx,9,2,AA,04,00,00,00,00,00,00,
10190848,00000040,false,Rx,9,3,B0,01,10,00,00,00,00,00,
10193760,0000029C,false,Rx,9,3,03,00,1A,00,00,00,00,00,
10195389,00000010,false,Rx,9,7,B0,01,10,11,10,0D,00,00,
10200495,00000008,false,Rx,9,7,B0,01,10,0F,FF,07,00,00,
10208640,000000AA,false,Rx,9,2,AA,04,00,00,00,00,00,00,
10210816,00000040,false,Rx,9,3,B0,01,10,00,00,00,00,00,
10212534,000002BC,false,Rx,9,3,03,00,0B,00,00,00,00,00,
10215201,00000010,false,Rx,9,7,B0,01,10,11,10,0D,00,00,
10219460,00000010,false,Rx,9,4,30,08,00,2E,00,00,00,00,
10220435,00000008,false,Rx,9,7,B0,01,10,0F,FF,07,00,00,
10221306,00000010,false,Rx,9,4,31,08,00,2D,00,00,00,00,
10221963,00000040,false,Rx,9,3,B0,2E,CC,00,00,00,00,00,
10228022,000000AA,false,Rx,9,2,AA,04,00,00,00,00,00,00,
10231121,00000040,false,Rx,9,6,B0,01,10,92,FF,FF,00,00,
10232746,00000040,false,Rx,9,8,B0,93,E5,00,14,00,2E,CC,
10234144,000002B4,false,Rx,9,3,03,00,0A,00,00,00,00,00,
10236180,00000010,false,Rx,9,7,B0,01,10,11,10,0D,00,00,
10240437,00000008,false,Rx,9,7,B0,01,10,0F,FF,07,00,00,
10248618,000000AA,false,Rx,9,2,AA,04,00,00,00,00,00,00,
10250999,00000040,false,Rx,9,3,B0,01,10,00,00,00,00,00,
10253566,000003AC,false,Rx,9,3,03,00,1D,00,00,00,00,00,
10255068,00000010,false,Rx,9,7,B0,01,10,11,10,0E,00,00,
10255936,00000010,false,Rx,9,3,B0,0D,00,00,00,00,00,00,
10260510,00000008,false,Rx,9,7,B0,01,10,0F,FF,07,00,00,
10268053,000000AA,false,Rx,9,2,AA,04,00,00,00,00,00,00,
10270866,00000040,false,Rx,9,3,B0,01,10,00,00,00,00,00,
10272599,000003A4,false,Rx,9,3,03,00,2C,00,00,00,00,00,
10275159,00000010,false,Rx,9,7,B0,01,10,11,10,0D,00,00,
10280476,00000008,false,Rx,9,7,B0,01,10,0F,FF,07,00,00,
10287998,000000AA,false,Rx,9,2,AA,04,00,00,00,00,00,00,
10290932,00000040,false,Rx,9,3,B0,01,10,00,00,00,00,00,
10295138,00000010,false,Rx,9,7,B0,01,10,11,10,0D,00,00,
10300370,00000008,false,Rx,9,7,B0,01,10,0C,B6,0F,FF,00,
10301666,00000008,false,Rx,9,7,B0,0E,00,07,00,0D,09,00,
10308023,000000AA,false,Rx,9,2,AA,04,00,00,00,00,00,00,
10310905,00000040,false,Rx,9,3,B0,01,10,00,00,00,00,00,
10313887,0000029C,false,Rx,9,3,03,00,1A,00,00,00,00,00,
10315411,00000010,false,Rx,9,7,B0,01,10,11,10,0D,00,00,
10320524,00000008,false,Rx,9,7,B0,01,10,0F,FF,07,00,00,
10328694,000000AA,false,Rx,9,2,AA,04,00,00,00,00,00,00,
10330863,00000040,false,Rx,9,3,B0,01,10,00,00,00,00,00,
10332582,000002BC,false,Rx,9,3,03,00,0B,00,00,00,00,00,
10335250,00000010,false,Rx,9,7,B0,01,10,11,10,0D,00,00,
10340460,00000008,false,Rx,9,7,B0,01,10,0F,FF,07,00,00,
10348096,000000AA,false,Rx,9,2,AA,04,00,00,00,00,00,00,
10350982,00000040,false,Rx,9,3,B0,01,10,00,00,00,00,00,
10352605,000002B4,false,Rx,9,3,03,00,0A,00,00,00,00,00,
10355273,00000010,false,Rx,9,7,B0,01,10,11,10,0D,00,00,
10360487,00000008,false,Rx,9,7,B0,01,10,0F,FF,07,00,00,
10368106,000000AA,false,Rx,9,2,AA,04,00,00,00,00,00,00,
10370955,00000040,false,Rx,9,3,B0,01,10,00,00,00,00,00,
10372675,000003AC,false,Rx,9,3,03,00,1D,00,00,00,00,00,
10375236,00000010,false,Rx,9,7,B0,01,10,11,10,0D,00,00,
10380447,00000008,false,Rx,9,7,B0,01,10,0F,FF,07,00,00,
10388183,000000AA,false,Rx,9,2,AA,04,00,00,00,00,00,00,
10390916,00000040,false,Rx,9,3,B0,01,10,00,00,00,00,00,
10392726,000003A4,false,Rx,9,3,03,00,2C,00,00,00,00,00,
10395200,00000010,false,Rx,9,7,B0,01,10,11,10,0D,00,00,
10400531,00000008,false,Rx,9,7,B0,01,10,0F,FF,07,00,00,
10408270,000000AA,false,Rx,9,2,AA,04,00,00,00,00,00,00,
10410995,00000040,false,Rx,9,3,B0,01,10,00,00,00,00,00,
10415144,00000010,false,Rx,9,7,B0,01,10,11,10,0D,00,00,
10420617,00000008,false,Rx,9,7,B0,01,10,0F,FF,07,00,00,
10428275,000000AA,false,Rx,9,2,AA,04,00,00,00,00,00,00,
10431200,00000040,false,Rx,9,6,B0,01,10,92,FF,FF,00,00,
10432816,00000040,false,Rx,9,8,B0,93,E5,00,14,00,2E,CC,
10435552,0000029C,false,Rx,9,3,03,00,1A,00,00,00,00,00,
10436632,00000010,false,Rx,9,7,B0,01,10,11,10,0D,00,00,
10440597,00000008,false,Rx,9,7,B0,01,10,0F,FF,07,00,00,
10448739,000000AA,false,Rx,9,2,AA,04,00,00,00,00,00,00,
10450981,00000040,false,Rx,9,3,B0,01,10,00,00,00,00,00,
10452713,000002BC,false,Rx,9,3,03,00,0F,00,00,00,00,00,
10455171,00000010,false,Rx,9,7,B0,01,10,11,10,0E,00,00,
10456039,00000010,false,Rx,9,3,B0,0D,00,00,00,00,00,00,
10460510,00000008,false,Rx,9,7,B0,01,10,0F,FF,07,00,00,
10468344,000000AA,false,Rx,9,2,AA,04,00,00,00,00,00,00,
10471271,00000040,false,Rx,9,3,B0,01,20,00,00,00,00,00,
10473521,000002B4,false,Rx,9,3,03,00,0A,00,00,00,00,00,
10475234,00000010,false,Rx,9,7,B0,01,10,11,20,0D,00,00,
10480556,00000008,false,Rx,9,7,B0,01,20,0F,FF,07,00,00,
10488378,000000AA,false,Rx,9,2,AA,04,00,00,00,00,00,00,
10490994,00000040,false,Rx,9,3,B0,01,20,00,00,00,00,00,
10492714,000003AC,false,Rx,9,3,03,00,1D,00,00,00,00,00,
10495458,00000010,false,Rx,9,7,B0,01,20,11,20,0D,00,00,
10500674,00000008,false,Rx,9,7,B0,01,20,0C,B6,0F,FF,00,
10501863,00000008,false,Rx,9,7,B0,0E,00,07,00,0D,09,00,
10508870,000000AA,false,Rx,9,2,AA,04,00,00,00,00,00,00,
10510931,00000040,false,Rx,9,3,B0,01,20,00,00,00,00,00,
10512652,000003A4,false,Rx,9,3,03,00,2C,00,00,00,00,00,
10515425,00000010,false,Rx,9,7,B0,01,20,11,20,0D,00,00,
10520748,00000008,false,Rx,9,7,B0,01,20,0F,FF,07,00,00,
10528475,000000AA,false,Rx,9,2,AA,04,00,00,00,00,00,00,
10531097,00000040,false,Rx,9,3,B0,01,20,00,00,00,00,00,
10535341,00000010,false,Rx,9,7,B0,01,20,11,20,0D,00,00,
10540671,00000008,false,Rx,9,7,B0,01,20,0F,FF,07,00,00,
10548830,000000AA,false,Rx,9,2,AA,04,00,00,00,00,00,00,
10551002,00000040,false,Rx,9,3,B0,01,20,00,00,00,00,00,
10554056,0000029C,false,Rx,9,3,03,00,1A,00,00,00,00,00,
10555584,00000010,false,Rx,9,7,B0,01,20,11,20,0D,00,00,
10560689,00000008,false,Rx,9,7,B0,01,20,0F,FF,07,00,00,
10568431,000000AA,false,Rx,9,2,AA,04,00,00,00,00,00,00,
10571092,00000040,false,Rx,9,3,B0,01,20,00,00,00,00,00,
10572840,000002BC,false,Rx,9,3,03,00,0F,00,00,00,00,00,
10575431,00000010,false,Rx,9,7,B0,01,20,11,20,0D,00,00,
10580749,00000008,false,Rx,9,7,B0,01,20,0F,FF,07,00,00,
10588521,000000AA,false,Rx,9,2,AA,04,00,00,00,00,00,00,
10591097,00000040,false,Rx,9,3,B0,01,20,00,00,00,00,00,
10592814,000002B4,false,Rx,9,3,03,00,0A,00,00,00,00,00,
10595377,00000010,false,Rx,9,7,B0,01,20,11,20,0D,00,00,
10600745,00000008,false,Rx,9,7,B0,01,20,0F,FF,07,00,00,
10608830,000000AA,false,Rx,9,2,AA,04,00,00,00,00,00,00,
10611097,00000040,false,Rx,9,3,B0,01,20,00,00,00,00,00,
10612878,000003AC,false,Rx,9,3,03,00,1D,00,00,00,00,00,
10615457,00000010,false,Rx,9,7,B0,01,20,11,20,0D,00,00,
10619931,00000010,false,Rx,9,4,30,08,00,2F,00,00,00,00,
10621011,00000008,false,Rx,9,7,B0,01,20,0F,FF,07,00,00,
10621879,00000010,false,Rx,9,4,31,08,00,2E,00,00,00,00,
10622540,00000040,false,Rx,9,3,B0,2F,66,00,00,00,00,00,
10628910,000000AA,false,Rx,9,2,AA,04,00,00,00,00,00,00,
10631398,00000040,false,Rx,9,6,B0,01,20,92,FF,FF,00,00,
10632903,00000040,false,Rx,9,8,B0,93,E5,00,14,00,2F,66,
10634405,000003A4,false,Rx,9,3,03,00,2C,00,00,00,00,00,
10636551,00000010,false,Rx,9,7,B0,01,20,11,20,0D,00,00,
10640705,00000008,false,Rx,9,7,B0,01,20,0F,FF,07,00,00,
10648869,000000AA,false,Rx,9,2,AA,04,00,00,00,00,00,00,
10651130,00000040,false,Rx,9,3,B0,01,20,00,00,00,00,00,
10655312,00000010,false,Rx,9,7,B0,01,20,11,20,0E,00,00,
10656185,00000010,false,Rx,9,3,B0,0D,00,00,00,00,00,00,
10660660,00000008,false,Rx,9,7,B0,01,20,0F,FF,07,00,00,
10668779,000000AA,false,Rx,9,2,AA,04,00,00,00,00,00,00,
10671119,00000040,false,Rx,9,3,B0,01,20,00,00,00,00,00,
10674166,0000029C,false,Rx,9,3,03,00,1A,00,00,00,00,00,
10675587,00000010,false,Rx,9,7,B0,01,20,11,20,0D,00,00,
10680693,00000008,false,Rx,9,7,B0,01,20,0F,FF,07,00,00,
10688828,000000AA,false,Rx,9,2,AA,04,00,00,00,00,00,00,
10691176,00000040,false,Rx,9,3,B0,01,20,00,00,00,00,00,
10692863,000002BC,false,Rx,9,3,03,00,0F,00,00,00,00,00,
10695455,00000010,false,Rx,9,7,B0,01,20,11,20,0D,00,00,
10700570,00000008,false,Rx,9,7,B0,01,20,0C,B6,0F,FF,00,
10701926,00000008,false,Rx,9,7,B0,0E,00,07,00,0D,09,00,
10708965,000000AA,false,Rx,9,2,AA,04,00,00,00,00,00,00,
10711036,00000040,false,Rx,9,3,B0,01,20,00,00,00,00,00,
10712757,000002B4,false,Rx,9,3,03,00,0A,00,00,00,00,00,
10715425,00000010,false,Rx,9,7,B0,01,20,11,20,0D,00,00,
10720642,00000008,false,Rx,9,7,B0,01,20,0F,FF,07,00,00,
10729000,000000AA,false,Rx,9,2,AA,04,00,00,00,00,00,00,
10731214,00000040,false,Rx,9,3,B0,01,20,00,00,00,00,00,
10732813,000003AC,false,Rx,9,3,03,00,1D,00,00,00,00,00,
10735488,00000010,false,Rx,9,7,B0,01,20,11,20,0D,00,00,
10740705,00000008,false,Rx,9,7,B0,01,20,0F,FF,07,00,00,
10755621,00001000,true,Rx,9,8,00,00,00,34,00,00,1F,9D,
10756991,00001001,true,Rx,9,8,00,00,00,88,00,00,00,00,
10758339,00001002,true,Rx,9,8,00,00,00,00,00,00,00,00,
10749060,000000AA,false,Rx,9,2,AA,04,00,00,00,00,00,00,
10751143,00000040,false,Rx,9,3,B0,01,20,00,00,00,00,00,
10752863,000003A4,false,Rx,9,3,03,00,2C,00,00,00,00,00,
10760222,00000010,false,Rx,9,7,B0,01,20,11,20,0D,00,00,
10760709,00000008,false,Rx,9,7,B0,01,20,0F,FF,07,00,00,
10769158,000000AA,false,Rx,9,2,AA,04,00,00,00,00,00,00,
10771132,00000040,false,Rx,9,3,B0,01,20,00,00,00,00,00,
10775395,00000010,false,Rx,9,7,B0,01,20,11,20,0D,00,00,
10780720,00000008,false,Rx,9,7,B0,01,20,0F,FF,07,00,00,
10789184,000000AA,false,Rx,9,2,AA,04,00,00,00,00,00,00,
10791148,00000040,false,Rx,9,3,B0,01,20,00,00,00,00,00,
10794139,0000029C,false,Rx,9,3,03,00,1A,00,00,00,00,00,
10795666,00000010,false,Rx,9,7,B0,01,20,11,20,0D,00,00,
10800663,00000008,false,Rx,9,7,B0,01,20,0F,FF,07,00,00,
10809326,000000AA,false,Rx,9,2,AA,04,00,00,00,00,00,00,
10811361,00000040,false,Rx,9,3,B0,01,20,00,00,00,00,00,
10812981,000002BC,false,Rx,9,3,03,00,0F,00,00,00,00,00,
10815437,00000010,false,Rx,9,7,B0,01,20,11,20,0D,00,00,
10820757,00000008,false,Rx,9,7,B0,01,20,0F,FF,07,00,00,
10829449,000000AA,false,Rx,9,2,AA,04,00,00,00,00,00,00,
10831552,00000040,false,Rx,9,6,B0,01,20,92,FF,FF,00,00,
10833070,00000040,false,Rx,9,8,B0,93,E5,00,14,00,2F,66,
10834480,000002B4,false,Rx,9,3,03,00,0A,00,00,00,00,00,
10836624,00000010,false,Rx,9,7,B0,01,20,11,20,0D,00,00,
10840675,00000008,false,Rx,9,7,B0,01,20,0F,FF,07,00,00,
10849446,000000AA,false,Rx,9,2,AA,04,00,00,00,00,00,00,
10851215,00000040,false,Rx,9,3,B0,01,20,00,00,00,00,00,
10852934,000003AC,false,Rx,9,3,03,00,1D,00,00,00,00,00,
10855390,00000010,false,Rx,9,7,B0,01,20,11,20,0E,00,00,
10856260,00000010,false,Rx,9,3,B0,0D,00,00,00,00,00,00,
10860731,00000008,false,Rx,9,7,B0,01,20,0F,FF,07,00,00,
10869515,000000AA,false,Rx,9,2,AA,04,00,00,00,00,00,00,
10871193,00000040,false,Rx,9,3,B0,01,20,00,00,00,00,00,
10873008,000003A4,false,Rx,9,3,03,00,2C,00,00,00,00,00,
10875485,00000010,false,Rx,9,7,B0,01,20,11,20,0D,00,00,
10880702,00000008,false,Rx,9,7,B0,01,20,0F,FF,07,00,00,
10889600,000000AA,false,Rx,9,2,AA,04,00,00,00,00,00,00,
10891155,00000040,false,Rx,9,3,B0,01,20,00,00,00,00,00,
10895422,00000010,false,Rx,9,7,B0,01,20,11,20,0D,00,00,
10900640,00000008,false,Rx,9,7,B0,01,20,0C,B6,0F,FF,00,
10901826,00000008,false,Rx,9,7,B0,0E,00,07,00,0D,09,00,
10909676,000000AA,false,Rx,9,2,AA,04,00,00,00,00,00,00,
10911187,00000040,false,Rx,9,3,B0,01,20,00,00,00,00,00,
10914215,0000029C,false,Rx,9,3,03,00,1A,00,00,00,00,00,
10915743,00000010,false,Rx,9,7,B0,01,20,11,20,0D,00,00,
10920782,00000008,false,Rx,9,7,B0,01,20,0F,FF,07,00,00,
10929757,000000AA,false,Rx,9,2,AA,04,00,00,00,00,00,00,
10931212,00000040,false,Rx,9,3,B0,01,20,00,00,00,00,00,
10932826,000002BC,false,Rx,9,3,03,00,0F,00,00,00,00,00,
10935495,00000010,false,Rx,9,7,B0,01,20,11,20,0D,00,00,
10940710,00000008,false,Rx,9,7,B0,01,20,0F,FF,07,00,00,
10949807,000000AA,false,Rx,9,2,AA,04,00,00,00,00,00,00,
10951160,00000040,false,Rx,9,3,B0,01,20,00,00,00,00,00,
10952881,000002B4,false,Rx,9,3,03,00,0A,00,00,00,00,00,
10955528,00000010,false,Rx,9,7,B0,01,20,11,20,0D,00,00,
10960754,00000008,false,Rx,9,7,B0,01,20,0F,FF,07,00,00,
10969855,000000AA,false,Rx,9,2,AA,04,00,00,00,00,00,00,
10971220,00000040,false,Rx,9,3,B0,01,20,00,00,00,00,00,
10972942,000003AC,false,Rx,9,3,03,00,1D,00,00,00,00,00,
10975510,00000010,false,Rx,9,7,B0,01,20,11,20,0D,00,00,
10980720,00000008,false,Rx,9,7,B0,01,20,0F,FF,07,00,00,
10988263,000000AA,false,Rx,9,2,AA,04,00,00,00,00,00,00,
10991235,00000040,false,Rx,9,3,B0,01,20,00,00,00,00,00,
10992966,000003A4,false,Rx,9,3,03,00,2C,00,00,00,00,00,
10995432,00000010,false,Rx,9,7,B0,01,20,11,20,0D,00,00,
11000757,00000008,false,Rx,9,7,B0,01,20,0F,FF,07,00,00,
11008259,000000AA,false,Rx,9,2,AA,04,00,00,00,00,00,00,
11011338,00000040,false,Rx,9,3,B0,01,20,00,00,00,00,00,
11015445,00000010,false,Rx,9,7,B0,01,20,11,20,0D,00,00,
11019505,00000010,false,Rx,9,4,30,08,00,30,00,00,00,00,
11020370,00000010,false,Rx,9,4,31,08,00,2F,00,00,00,00,
11021451,00000008,false,Rx,9,7,B0,01,20,0F,FF,07,00,00,
11022214,00000040,false,Rx,9,3,B0,30,99,00,00,00,00,00,
11028276,000000AA,false,Rx,9,2,AA,04,00,00,00,00,00,00,
11031592,00000040,false,Rx,9,6,B0,01,20,92,FF,FF,00,00,
11033122,00000040,false,Rx,9,8,B0,93,E5,00,14,00,30,99,
11035872,0000029C,false,Rx,9,3,03,00,1A,00,00,00,00,00,
11037406,00000010,false,Rx,9,7,B0,01,20,11,20,0D,00,00,
11041034,00000008,false,Rx,9,7,B0,01,20,0F,FF,07,00,00,
11048263,000000AA,false,Rx,9,2,AA,04,00,00,00,00,00,00,
11051340,00000040,false,Rx,9,3,B0,01,20,00,00,00,00,00,
11053068,000002BC,false,Rx,9,3,03,00,0F,00,00,00,00,00,
11055428,00000010,false,Rx,9,7,B0,01,20,11,20,0E,00,00,
11056298,00000010,false,Rx,9,3,B0,0D,00,00,00,00,00,00,
11060767,00000008,false,Rx,9,7,B0,01,20,0F,FF,07,00,00,
11068309,000000AA,false,Rx,9,2,AA,04,00,00,00,00,00,00,
11071478,00000040,false,Rx,9,3,B0,01,20,00,00,00,00,00,
11073220,000002B4,false,Rx,9,3,03,00,02,00,00,00,00,00,
11075478,00000010,false,Rx,9,7,B0,01,20,11,20,0D,00,00,
11080692,00000008,false,Rx,9,7,B0,01,20,0F,FF,07,00,00,
11088339,000000AA,false,Rx,9,2,AA,04,00,00,00,00,00,00,
11091316,00000040,false,Rx,9,3,B0,01,20,00,00,00,00,00,
11092954,000003AC,false,Rx,9,3,03,00,1D,00,00,00,00,00,
11095521,00000010,false,Rx,9,7,B0,01,20,11,20,0D,00,00,
11100630,00000008,false,Rx,9,7,B0,01,20,0C,B6,0F,FF,00,
11101921,00000008,false,Rx,9,7,B0,0E,00,07,00,0D,09,00,
11110258,000000AA,false,Rx,9,2,AA,04,00,00,00,00,00,00,
11111255,00000040,false,Rx,9,3,B0,01,20,00,00,00,00,00,
11113004,000003A4,false,Rx,9,3,03,00,2C,00,00,00,00,00,
11115548,00000010,false,Rx,9,7,B0,01,20,11,20,0D,00,00,
11120768,00000008,false,Rx,9,7,B0,01,20,0F,FF,07,00,00,
11128309,000000AA,false,Rx,9,2,AA,04,00,00,00,00,00,00,
11131353,00000040,false,Rx,9,3,B0,01,20,00,00,00,00,00,
11135432,00000010,false,Rx,9,7,B0,01,20,11,20,0D,00,00,
11140757,00000008,false,Rx,9,7,B0,01,20,0F,FF,07,00,00,
11148295,000000AA,false,Rx,9,2,AA,04,00,00,00,00,00,00,
11151373,00000040,false,Rx,9,3,B0,01,20,00,00,00,00,00,
11154258,0000029C,false,Rx,9,3,03,00,1A,00,00,00,00,00,
11155782,00000010,false,Rx,9,7,B0,01,20,11,20,0D,00,00,
11160781,00000008,false,Rx,9,7,B0,01,20,0F,FF,07,00,00,
11170506,000000AA,false,Rx,9,2,AA,04,00,00,00,00,00,00,
11171318,00000040,false,Rx,9,3,B0,01,20,00,00,00,00,00,
11172932,000002BC,false,Rx,9,3,03,00,0F,00,00,00,00,00,
11175495,00000010,false,Rx,9,7,B0,01,20,11,20,0D,00,00,
11180842,00000008,false,Rx,9,7,B0,01,20,0F,FF,07,00,00,
11190574,000000AA,false,Rx,9,2,AA,04,00,00,00,00,00,00,
11191279,00000040,false,Rx,9,3,B0,01,20,00,00,00,00,00,
11193000,000002B4,false,Rx,9,3,03,00,02,00,00,00,00,00,
11195570,00000010,false,Rx,9,7,B0,01,20,11,20,0D,00,00,
11200781,00000008,false,Rx,9,7,B0,01,20,0F,FF,07,00,00,
11210610,000000AA,false,Rx,9,2,AA,04,00,00,00,00,00,00,
11211320,00000040,false,Rx,9,3,B0,01,20,00,00,00,00,00,
11213236,000003AC,false,Rx,9,3,03,00,1D,00,00,00,00,00,
11215541,00000010,false,Rx,9,7,B0,01,20,11,20,0D,00,00,
11220820,00000008,false,Rx,9,7,B0,01,20,0F,FF,07,00,00,
11228382,000000AA,false,Rx,9,2,AA,04,00,00,00,00,00,00,
11231713,00000040,false,Rx,9,6,B0,01,20,92,FF,FF,00,00,
11233139,00000040,false,Rx,9,8,B0,93,E5,00,14,00,30,99,
11234647,000003A4,false,Rx,9,3,03,00,2C,00,00,00,00,00,
11236786,00000010,false,Rx,9,7,B0,01,20,11,20,0D,00,00,
11240835,00000008,false,Rx,9,7,B0,01,20,0F,FF,07,00,00,
11248382,000000AA,false,Rx,9,2,AA,04,00,00,00,00,00,00,
11251368,00000040,false,Rx,9,3,B0,01,20,00,00,00,00,00,
11255424,00000010,false,Rx,9,7,B0,01,20,11,20,0E,00,00,
11256306,00000010,false,Rx,9,3,B0,0D,00,00,00,00,00,00,
11260780,00000008,false,Rx,9,7,B0,01,20,0F,FF,07,00,00,
11268427,000000AA,false,Rx,9,2,AA,04,00,00,00,00,00,00,
11271485,00000040,false,Rx,9,3,B0,01,20,00,00,00,00,00,
11274462,0000029C,false,Rx,9,3,03,00,1A,00,00,00,00,00,
11275883,00000010,false,Rx,9,7,B0,01,20,11,20,0D,00,00,
11280781,00000008,false,Rx,9,7,B0,01,20,0F,FF,07,00,00,
11288428,000000AA,false,Rx,9,2,AA,04,00,00,00,00,00,00,
11291407,00000040,false,Rx,9,3,B0,01,20,00,00,00,00,00,
11293142,000002BC,false,Rx,9,3,03,00,0F,00,00,00,00,00,
11295547,00000010,false,Rx,9,7,B0,01,20,11,20,0D,00,00,
11300653,00000008,false,Rx,9,7,B0,01,20,0C,B6,0F,FF,00,
11301942,00000008,false,Rx,9,7,B0,0E,00,07,00,0D,09,00,
11309066,000000AA,false,Rx,9,2,AA,04,00,00,00,00,00,00,
11311381,00000040,false,Rx,9,3,B0,01,20,00,00,00,00,00,
11313029,000002B4,false,Rx,9,3,03,00,0A,00,00,00,00,00,
11315529,00000010,false,Rx,9,7,B0,01,20,11,20,0D,00,00,
11320775,00000008,false,Rx,9,7,B0,01,20,0F,FF,07,00,00,
11328427,000000AA,false,Rx,9,2,AA,04,00,00,00,00,00,00,
11331400,00000040,false,Rx,9,3,B0,01,20,00,00,00,00,00,
11333048,000003AC,false,Rx,9,3,03,00,1D,00,00,00,00,00,
11335545,00000010,false,Rx,9,7,B0,01,20,11,20,0D,00,00,
11340767,00000008,false,Rx,9,7,B0,01,20,0F,FF,07,00,00,
11348414,000000AA,false,Rx,9,2,AA,04,00,00,00,00,00,00,
11351482,00000040,false,Rx,9,3,B0,01,20,00,00,00,00,00,
11353129,000003A4,false,Rx,9,3,03,00,2C,00,00,00,00,00,
11355588,00000010,false,Rx,9,7,B0,01,20,11,20,0D,00,00,
11360798,00000008,false,Rx,9,7,B0,01,20,0F,FF,07,00,00,
11368445,000000AA,false,Rx,9,2,AA,04,00,00,00,00,00,00,
11371419,00000040,false,Rx,9,3,B0,01,20,00,00,00,00,00,
11375524,00000010,false,Rx,9,7,B0,01,20,11,20,0D,00,00,
11380748,00000008,false,Rx,9,7,B0,01,20,0F,FF,07,00,00,
11388400,000000AA,false,Rx,9,2,AA,04,00,00,00,00,00,00,
11391470,00000040,false,Rx,9,3,B0,01,20,00,00,00,00,00,
11394457,0000029C,false,Rx,9,3,03,00,1A,00,00,00,00,00,
11395879,00000010,false,Rx,9,7,B0,01,20,11,20,0D,00,00,
11400781,00000008,false,Rx,9,7,B0,01,20,0F,FF,07,00,00,
11409171,000000AA,false,Rx,9,2,AA,04,00,00,00,00,00,00,
11411497,00000040,false,Rx,9,3,B0,01,20,00,00,00,00,00,
11413144,000002BC,false,Rx,9,3,03,00,0F,00,00,00,00,00,
11415544,00000010,false,Rx,9,7,B0,01,20,11,20,0D,00,00,
11419636,00000010,false,Rx,9,4,30,08,00,31,00,00,00,00,
11420403,00000010,false,Rx,9,4,31,08,00,30,00,00,00,00,
11421514,00000008,false,Rx,9,7,B0,01,20,0F,FF,07,00,00,
11422298,00000040,false,Rx,9,3,B0,31,99,00,00,00,00,00,
11428460,000000AA,false,Rx,9,2,AA,04,00,00,00,00,00,00,
11431858,00000040,false,Rx,9,6,B0,01,20,92,FF,FF,00,00,
11433393,00000040,false,Rx,9,8,B0,93,E5,00,14,00,31,99,
11434794,000002B4,false,Rx,9,3,03,00,02,00,00,00,00,00,
11437355,00000010,false,Rx,9,7,B0,01,20,11,20,0D,00,00,
11441085,00000008,false,Rx,9,7,B0,01,20,0F,FF,07,00,00,
11449204,000000AA,false,Rx,9,2,AA,04,00,00,00,00,00,00,
11451461,00000040,false,Rx,9,3,B0,01,20,00,00,00,00,00,
11453123,000003AC,false,Rx,9,3,03,00,1D,00,00,00,00,00,
11455474,00000010,false,Rx,9,7,B0,01,20,11,20,0E,00,00,
11456342,00000010,false,Rx,9,3,B0,0D,00,00,00,00,00,00,
11460815,00000008,false,Rx,9,7,B0,01,20,0F,FF,07,00,00,
11468468,000000AA,false,Rx,9,2,AA,04,00,00,00,00,00,00,
11471530,00000040,false,Rx,9,3,B0,01,20,00,00,00,00,00,
11473258,000003A4,false,Rx,9,3,03,00,2C,00,00,00,00,00,
11475545,00000010,false,Rx,9,7,B0,01,20,11,20,0D,00,00,
11480767,00000008,false,Rx,9,7,B0,01,20,0F,FF,07,00,00,
11488524,000000AA,false,Rx,9,2,AA,04,00,00,00,00,00,00,
11491594,00000040,false,Rx,9,3,B0,01,20,00,00,00,00,00,
11495494,00000010,false,Rx,9,7,B0,01,20,11,20,0D,00,00,
11500711,00000008,false,Rx,9,7,B0,01,20,0C,B6,0F,FF,00,
11501897,00000008,false,Rx,9,7,B0,0E,00,07,00,0D,09,00,
11509231,000000AA,false,Rx,9,2,AA,04,00,00,00,00,00,00,
11511655,00000040,false,Rx,9,3,B0,01,20,00,00,00,00,00,
11514608,0000029C,false,Rx,9,3,03,00,1A,00,00,00,00,00,
11515959,00000010,false,Rx,9,7,B0,01,20,11,20,0D,00,00,
11520805,00000008,false,Rx,9,7,B0,01,20,0F,FF,07,00,00,
11528505,000000AA,false,Rx,9,2,AA,04,00,00,00,00,00,00,
11531685,00000040,false,Rx,9,3,B0,01,20,00,00,00,00,00,
11533143,000002BC,false,Rx,9,3,03,00,0F,00,00,00,00,00,
11535605,00000010,false,Rx,9,7,B0,01,20,11,20,0D,00,00,
11540816,00000008,false,Rx,9,7,B0,01,20,0F,FF,07,00,00,
11549204,000000AA,false,Rx,9,2,AA,04,00,00,00,00,00,00,
11551768,00000040,false,Rx,9,3,B0,01,20,00,00,00,00,00,
11553215,000002B4,false,Rx,9,3,03,00,02,00,00,00,00,00,
11555587,00000010,false,Rx,9,7,B0,01,20,11,20,0D,00,00,
11560817,00000008,false,Rx,9,7,B0,01,20,0F,FF,07,00,00,
11568460,000000AA,false,Rx,9,2,AA,04,00,00,00,00,00,00,
11571842,00000040,false,Rx,9,3,B0,01,20,00,00,00,00,00,
11573182,000003AC,false,Rx,9,3,03,00,1D,00,00,00,00,00,
11575540,00000010,false,Rx,9,7,B0,01,20,11,20,0D,00,00,
11580753,00000008,false,Rx,9,7,B0,01,20,0F,FF,07,00,00,
11589250,000000AA,false,Rx,9,2,AA,04,00,00,00,00,00,00,
11591830,00000040,false,Rx,9,3,B0,01,20,00,00,00,00,00,
11593225,000003A4,false,Rx,9,3,03,00,2C,00,00,00,00,00,
11595665,00000010,false,Rx,9,7,B0,01,20,11,20,0D,00,00,
11600828,00000008,false,Rx,9,7,B0,01,20,0F,FF,07,00,00,
11608475,000000AA,false,Rx,9,2,AA,04,00,00,00,00,00,00,
11611969,00000040,false,Rx,9,3,B0,01,20,00,00,00,00,00,
11615553,00000010,false,Rx,9,7,B0,01,20,11,20,0D,00,00,
11620767,00000008,false,Rx,9,7,B0,01,20,0F,FF,07,00,00,
11629328,000000AA,false,Rx,9,2,AA,04,00,00,00,00,00,00,
11632004,00000040,false,Rx,9,6,B0,01,20,92,FF,FF,00,00,
11633358,00000040,false,Rx,9,8,B0,93,E5,00,14,00,31,99,
11636077,0000029C,false,Rx,9,3,03,00,1A,00,00,00,00,00,
11637606,00000010,false,Rx,9,7,B0,01,20,11,20,0D,00,00,
11641121,00000008,false,Rx,9,7,B0,01,20,0F,FF,07,00,00,
11648561,000000AA,false,Rx,9,2,AA,04,00,00,00,00,00,00,
11652047,00000040,false,Rx,9,3,B0,01,20,00,00,00,00,00,
11653280,000002BC,false,Rx,9,3,03,00,0F,00,00,00,00,00,
11655531,00000010,false,Rx,9,7,B0,01,20,11,20,0E,00,00,
11656398,00000010,false,Rx,9,3,B0,0D,00,00,00,00,00,00,
11660765,00000008,false,Rx,9,7,B0,01,20,0F,FF,07,00,00,
11668545,000000AA,false,Rx,9,2,AA,04,00,00,00,00,00,00,
11672136,00000040,false,Rx,9,3,B0,01,20,00,00,00,00,00,
11673277,000002B4,false,Rx,9,3,03,00,0A,00,00,00,00,00,
11675611,00000010,false,Rx,9,7,B0,01,20,11,20,0D,00,00,
11680838,00000008,false,Rx,9,7,B0,01,20,0F,FF,07,00,00,
11688487,000000AA,false,Rx,9,2,AA,04,00,00,00,00,00,00,
11692118,00000040,false,Rx,9,3,B0,01,20,00,00,00,00,00,
11693213,000003AC,false,Rx,9,3,03,00,1D,00,00,00,00,00,
11695566,00000010,false,Rx,9,7,B0,01,20,11,20,0D,00,00,
11700694,00000008,false,Rx,9,7,B0,01,20,0C,B6,0F,FF,00,
11701892,00000008,false,Rx,9,7,B0,0E,00,07,00,0D,09,00,
11708591,000000AA,false,Rx,9,2,AA,04,00,00,00,00,00,00,
11712253,00000040,false,Rx,9,3,B0,01,20,00,00,00,00,00,
11713416,000003A4,false,Rx,9,3,03,00,2C,00,00,00,00,00,
11715671,00000010,false,Rx,9,7,B0,01,20,11,20,0D,00,00,
11720781,00000008,false,Rx,9,7,B0,01,20,0F,FF,07,00,00,
11728584,000000AA,false,Rx,9,2,AA,04,00,00,00,00,00,00,
11732343,00000040,false,Rx,9,3,B0,01,20,00,00,00,00,00,
11735606,00000010,false,Rx,9,7,B0,01,20,11,20,0D,00,00,
11740794,00000008,false,Rx,9,7,B0,01,20,0F,FF,07,00,00,
11748572,000000AA,false,Rx,9,2,AA,04,00,00,00,00,00,00,
11755646,00001000,true,Rx,9,8,00,00,00,35,00,00,20,C6,
11757027,00001001,true,Rx,9,8,00,00,00,88,00,00,00,00,
11758403,00001002,true,Rx,9,8,00,00,00,00,00,00,00,00,
11752375,00000040,false,Rx,9,3,B0,01,20,00,00,00,00,00,
11754583,0000029C,false,Rx,9,3,03,00,1A,00,00,00,00,00,
11760077,00000010,false,Rx,9,7,B0,01,20,11,20,0D,00,00,
11761145,00000008,false,Rx,9,7,B0,01,20,0F,FF,07,00,00,
11768591,000000AA,false,Rx,9,2,AA,04,00,00,00,00,00,00,
11772410,00000040,false,Rx,9,3,B0,01,20,00,00,00,00,00,
11773435,000002BC,false,Rx,9,3,03,00,0F,00,00,00,00,00,
11775686,00000010,false,Rx,9,7,B0,01,20,11,20,0D,00,00,
11780794,00000008,false,Rx,9,7,B0,01,20,0F,FF,07,00,00,
11788552,000000AA,false,Rx,9,2,AA,04,00,00,00,00,00,00,
11792468,00000040,false,Rx,9,3,B0,01,20,00,00,00,00,00,
11793274,000002B4,false,Rx,9,3,03,00,0A,00,00,00,00,00,
11795613,00000010,false,Rx,9,7,B0,01,20,11,20,0D,00,00,
11800824,00000008,false,Rx,9,7,B0,01,20,0F,FF,07,00,00,
11809339,000000AA,false,Rx,9,2,AA,04,00,00,00,00,00,00,
11812454,00000040,false,Rx,9,3,B0,01,20,00,00,00,00,00,
11813346,000003AC,false,Rx,9,3,03,00,1D,00,00,00,00,00,
11815593,00000010,false,Rx,9,7,B0,01,20,11,20,0D,00,00,
11819641,00000010,false,Rx,9,4,30,08,00,32,00,00,00,00,
11820510,00000010,false,Rx,9,4,31,08,00,31,00,00,00,00,
11821592,00000008,false,Rx,9,7,B0,01,20,0F,FF,07,00,00,
11822246,00000040,false,Rx,9,3,B0,32,FF,00,00,00,00,00,
11828680,000000AA,false,Rx,9,2,AA,04,00,00,00,00,00,00,
11832681,00000040,false,Rx,9,6,B0,01,20,92,FF,FF,00,00,
11833484,00000040,false,Rx,9,8,B0,93,E5,00,14,00,32,FF,
11834957,000003A4,false,Rx,9,3,03,00,2C,00,00,00,00,00,
11837463,00000010,false,Rx,9,7,B0,01,20,11,20,0D,00,00,
11841117,00000008,false,Rx,9,7,B0,01,20,0F,FF,07,00,00,
11849400,000000AA,false,Rx,9,2,AA,04,00,00,00,00,00,00,
11852677,00000040,false,Rx,9,3,B0,01,20,00,00,00,00,00,
11855492,00000010,false,Rx,9,7,B0,01,20,11,20,0E,00,00,
11856367,00000010,false,Rx,9,3,B0,0D,00,00,00,00,00,00,
11860735,00000008,false,Rx,9,7,B0,01,20,0F,FF,07,00,00,
11868596,000000AA,false,Rx,9,2,AA,04,00,00,00,00,00,00,
11872724,00000040,false,Rx,9,3,B0,01,20,00,00,00,00,00,
11874842,0000029C,false,Rx,9,3,03,00,1A,00,00,00,00,00,
11876277,00000010,false,Rx,9,7,B0,01,20,11,20,0D,00,00,
11880804,00000008,false,Rx,9,7,B0,01,20,0F,FF,07,00,00,
11888689,000000AA,false,Rx,9,2,AA,04,00,00,00,00,00,00,
11892801,00000040,false,Rx,9,3,B0,01,20,00,00,00,00,00,
11893417,000002BC,false,Rx,9,3,03,00,0F,00,00,00,00,00,
11895672,00000010,false,Rx,9,7,B0,01,20,11,20,0D,00,00,
11900676,00000008,false,Rx,9,7,B0,01,20,0C,B6,0F,FF,00,
11901968,00000008,false,Rx,9,7,B0,0E,00,07,00,0D,09,00,
11908663,000000AA,false,Rx,9,2,AA,04,00,00,00,00,00,00,
11912897,00000040,false,Rx,9,3,B0,01,20,00,00,00,00,00,
11913284,000002B4,false,Rx,9,3,03,00,02,00,00,00,00,00,
11915672,00000010,false,Rx,9,7,B0,01,20,11,20,0D,00,00,
11920790,00000008,false,Rx,9,7,B0,01,20,0F,FF,07,00,00,
11929400,000000AA,false,Rx,9,2,AA,04,00,00,00,00,00,00,
11932931,00000040,false,Rx,9,3,B0,01,20,00,00,00,00,00,
11933336,000003AC,false,Rx,9,3,03,00,1D,00,00,00,00,00,
11935619,00000010,false,Rx,9,7,B0,01,20,11,20,0D,00,00,
11940841,00000008,false,Rx,9,7,B0,01,20,0F,FF,07,00,00,
11949397,000000AA,false,Rx,9,2,AA,04,00,00,00,00,00,00,
11953007,00000040,false,Rx,9,3,B0,01,20,00,00,00,00,00,
11953390,000003A4,false,Rx,9,3,03,00,2C,00,00,00,00,00,
11955645,00000010,false,Rx,9,7,B0,01,20,11,20,0D,00,00,
11960858,00000008,false,Rx,9,7,B0,01,20,0F,FF,07,00,00,
11968726,000000AA,false,Rx,9,2,AA,04,00,00,00,00,00,00,
11973044,00000040,false,Rx,9,3,B0,01,20,00,00,00,00,00,
11975744,00000010,false,Rx,9,7,B0,01,20,11,20,0D,00,00,
11980768,00000008,false,Rx,9,7,B0,01,20,0F,FF,07,00,00,
11989476,000000AA,false,Rx,9,2,AA,04,00,00,00,00,00,00,
11993075,00000040,false,Rx,9,3,B0,01,20,00,00,00,00,00,
11994701,0000029C,false,Rx,9,3,03,00,1A,00,00,00,00,00,
11996119,00000010,false,Rx,9,7,B0,01,20,11,20,0D,00,00,
12000804,00000008,false,Rx,9,7,B0,01,20,0F,FF,07,00,00,
12008670,000000AA,false,Rx,9,2,AA,04,00,00,00,00,00,00,
12013085,00000040,false,Rx,9,3,B0,01,20,00,00,00,00,00,
12013393,000002BC,false,Rx,9,3,03,00,0F,00,00,00,00,00,
12015770,00000010,false,Rx,9,7,B0,01,20,11,20,0D,00,00,
12020878,00000008,false,Rx,9,7,B0,01,20,0F,FF,07,00,00,
12029402,000000AA,false,Rx,9,2,AA,04,00,00,00,00,00,00,
12033278,00000040,false,Rx,9,6,B0,01,20,92,FF,FF,00,00,
12033545,00000040,false,Rx,9,8,B0,93,E5,00,14,00,32,FF,
12034951,000002B4,false,Rx,9,3,03,00,0A,00,00,00,00,00,
12037440,00000010,false,Rx,9,7,B0,01,20,11,20,0D,00,00,
12041074,00000008,false,Rx,9,7,B0,01,20,0F,FF,07,00,00,
12049469,000000AA,false,Rx,9,2,AA,04,00,00,00,00,00,00,
12053284,00000040,false,Rx,9,3,B0,01,20,00,00,00,00,00,
12053460,000003AC,false,Rx,9,3,03,00,1D,00,00,00,00,00,
12055615,00000010,false,Rx,9,7,B0,01,20,11,20,0E,00,00,
12056481,00000010,false,Rx,9,3,B0,0D,00,00,00,00,00,00,
12060801,00000008,false,Rx,9,7,B0,01,20,0F,FF,07,00,00,
12068676,000000AA,false,Rx,9,2,AA,04,00,00,00,00,00,00,
12073320,00000040,false,Rx,9,3,B0,01,20,00,00,00,00,00,
12073509,000003A4,false,Rx,9,3,03,00,2C,00,00,00,00,00,
12075661,00000010,false,Rx,9,7,B0,01,20,11,20,0D,00,00,
12080767,00000008,false,Rx,9,7,B0,01,20,0F,FF,07,00,00,
12088735,000000AA,false,Rx,9,2,AA,04,00,00,00,00,00,00,
12091720,00000040,false,Rx,9,3,B0,01,20,00,00,00,00,00,
12095810,00000010,false,Rx,9,7,B0,01,20,11,20,0D,00,00,
12100680,00000008,false,Rx,9,7,B0,01,20,0C,B6,0F,FF,00,
12101973,00000008,false,Rx,9,7,B0,0E,00,07,00,0D,09,00,
12108780,000000AA,false,Rx,9,2,AA,04,00,00,00,00,00,00,
12111662,00000040,false,Rx,9,3,B0,01,20,00,00,00,00,00,
12114635,0000029C,false,Rx,9,3,03,00,1A,00,00,00,00,00,
12116160,00000010,false,Rx,9,7,B0,01,20,11,20,0D,00,00,
12120842,00000008,false,Rx,9,7,B0,01,20,0F,FF,07,00,00,
12129445,000000AA,false,Rx,9,2,AA,04,00,00,00,00,00,00,
12131697,00000040,false,Rx,9,3,B0,01,20,00,00,00,00,00,
12133513,000002BC,false,Rx,9,3,03,00,0F,00,00,00,00,00,
12135858,00000010,false,Rx,9,7,B0,01,20,11,20,0D,00,00,
12140911,00000008,false,Rx,9,7,B0,01,20,0F,FF,07,00,00,
12149534,000000AA,false,Rx,9,2,AA,04,00,00,00,00,00,00,
12151675,00000040,false,Rx,9,3,B0,01,20,00,00,00,00,00,
12153585,000002B4,false,Rx,9,3,03,00,0A,00,00,00,00,00,
12155662,00000010,false,Rx,9,7,B0,01,20,11,20,0D,00,00,
12160767,00000008,false,Rx,9,7,B0,01,20,0F,FF,07,00,00,
12168822,000000AA,false,Rx,9,2,AA,04,00,00,00,00,00,00,
12171712,00000040,false,Rx,9,3,B0,01,20,00,00,00,00,00,
12173627,000003AC,false,Rx,9,3,03,00,1D,00,00,00,00,00,
12175696,00000010,false,Rx,9,7,B0,01,20,11,20,0D,00,00,
12180807,00000008,false,Rx,9,7,B0,01,20,0F,FF,07,00,00,
12188796,000000AA,false,Rx,9,2,AA,04,00,00,00,00,00,00,
12191888,00000040,false,Rx,9,3,B0,01,20,00,00,00,00,00,
12193680,000003A4,false,Rx,9,3,03,00,2C,00,00,00,00,00,
12195887,00000010,false,Rx,9,7,B0,01,20,11,20,0D,00,00,
12200862,00000008,false,Rx,9,7,B0,01,20,0F,FF,07,00,00,
12209481,000000AA,false,Rx,9,2,AA,04,00,00,00,00,00,00,
12211731,00000040,false,Rx,9,3,B0,01,20,00,00,00,00,00,
12215747,00000010,false,Rx,9,7,B0,01,20,11,20,0D,00,00,
12219621,00000010,false,Rx,9,4,30,08,00,33,00,00,00,00,
12220487,00000010,false,Rx,9,4,31,08,00,32,00,00,00,00,
12221572,00000008,false,Rx,9,7,B0,01,20,0F,FF,07,00,00,
12222227,00000040,false,Rx,9,3,B0,33,B3,00,00,00,00,00,
12228815,000000AA,false,Rx,9,2,AA,04,00,00,00,00,00,00,
12232121,00000040,false,Rx,9,6,B0,01,20,92,FF,FF,00,00,
12233830,00000040,false,Rx,9,8,B0,93,E5,00,14,00,33,B3,
12236408,0000029C,false,Rx,9,3,03,00,1A,00,00,00,00,00,
12237981,00000010,false,Rx,9,7,B0,01,20,11,20,0D,00,00,
12241269,00000008,false,Rx,9,7,B0,01,20,0F,FF,07,00,00,
12248802,000000AA,false,Rx,9,2,AA,04,00,00,00,00,00,00,
12251804,00000040,false,Rx,9,3,B0,01,20,00,00,00,00,00,
12253909,000002BC,false,Rx,9,3,03,00,0F,00,00,00,00,00,
12255781,00000010,false,Rx,9,7,B0,01,20,11,20,0E,00,00,
12256652,00000010,false,Rx,9,3,B0,0D,00,00,00,00,00,00,
12260804,00000008,false,Rx,9,7,B0,01,20,0F,FF,07,00,00,
12268776,000000AA,false,Rx,9,2,AA,04,00,00,00,00,00,00,
12271870,00000040,false,Rx,9,3,B0,01,20,00,00,00,00,00,
12273980,000002B4,false,Rx,9,3,03,00,02,00,00,00,00,00,
12275835,00000010,false,Rx,9,7,B0,01,20,11,20,0D,00,00,
12280810,00000008,false,Rx,9,7,B0,01,20,0F,FF,07,00,00,
12288795,000000AA,false,Rx,9,2,AA,04,00,00,00,00,00,00,
12291783,00000040,false,Rx,9,3,B0,01,20,00,00,00,00,00,
12293990,000003AC,false,Rx,9,3,03,00,1D,00,00,00,00,00,
12295779,00000010,false,Rx,9,7,B0,01,20,11,20,0D,00,00,
12300677,00000008,false,Rx,9,7,B0,01,20,0C,B6,0F,FF,00,
12301967,00000008,false,Rx,9,7,B0,0E,00,07,00,0D,09,00,
12308873,000000AA,false,Rx,9,2,AA,04,00,00,00,00,00,00,
12311758,00000040,false,Rx,9,3,B0,01,20,00,00,00,00,00,
12314091,000003A4,false,Rx,9,3,03,00,2C,00,00,00,00,00,
12315758,00000010,false,Rx,9,7,B0,01,20,11,20,0D,00,00,
12320903,00000008,false,Rx,9,7,B0,01,20,0F,FF,07,00,00,
12328887,000000AA,false,Rx,9,2,AA,04,00,00,00,00,00,00,
12331768,00000040,false,Rx,9,3,B0,01,20,00,00,00,00,00,
12335673,00000010,false,Rx,9,7,B0,01,20,11,20,0D,00,00,
12340851,00000008,false,Rx,9,7,B0,01,20,0F,FF,07,00,00,
12348855,000000AA,false,Rx,9,2,AA,04,00,00,00,00,00,00,
12351847,00000040,false,Rx,9,3,B0,01,20,00,00,00,00,00,
12354841,0000029C,false,Rx,9,3,03,00,1A,00,00,00,00,00,
12356326,00000010,false,Rx,9,7,B0,01,20,11,20,0D,00,00,
12360846,00000008,false,Rx,9,7,B0,01,20,0F,FF,07,00,00,
12368826,000000AA,false,Rx,9,2,AA,04,00,00,00,00,00,00,
12371815,00000040,false,Rx,9,3,B0,01,20,00,00,00,00,00,
12374237,000002BC,false,Rx,9,3,03,00,0F,00,00,00,00,00,
12375796,00000010,false,Rx,9,7,B0,01,20,11,20,0D,00,00,
12380802,00000008,false,Rx,9,7,B0,01,20,0F,FF,07,00,00,
12389620,000000AA,false,Rx,9,2,AA,04,00,00,00,00,00,00,
12391758,00000040,false,Rx,9,3,B0,01,20,00,00,00,00,00,
12394275,000002B4,false,Rx,9,3,03,00,02,00,00,00,00,00,
12395756,00000010,false,Rx,9,7,B0,01,20,11,20,0D,00,00,
12400804,00000008,false,Rx,9,7,B0,01,20,0F,FF,07,00,00,
12408888,000000AA,false,Rx,9,2,AA,04,00,00,00,00,00,00,
12411876,00000040,false,Rx,9,3,B0,01,20,00,00,00,00,00,
12414314,000003AC,false,Rx,9,3,03,00,1D,00,00,00,00,00,
12415879,00000010,false,Rx,9,7,B0,01,20,11,20,0D,00,00,
12420858,00000008,false,Rx,9,7,B0,01,20,0F,FF,07,00,00,
12428848,000000AA,false,Rx,9,2,AA,04,00,00,00,00,00,00,
12432155,00000040,false,Rx,9,6,B0,01,20,92,FF,FF,00,00,
12434363,00000040,false,Rx,9,8,B0,93,E5,00,14,00,33,B3,
12435171,000003A4,false,Rx,9,3,03,00,2C,00,00,00,00,00,
12437596,00000010,false,Rx,9,7,B0,01,20,11,20,0D,00,00,
12441129,00000008,false,Rx,9,7,B0,01,20,0F,FF,07,00,00,
12448878,000000AA,false,Rx,9,2,AA,04,00,00,00,00,00,00,
12451899,00000040,false,Rx,9,3,B0,01,20,00,00,00,00,00,
12455841,00000010,false,Rx,9,7,B0,01,20,11,20,0E,00,00,
12456633,00000010,false,Rx,9,3,B0,0D,00,00,00,00,00,00,
12460787,00000008,false,Rx,9,7,B0,01,20,0F,FF,07,00,00,
12469610,000000AA,false,Rx,9,2,AA,04,00,00,00,00,00,00,
12471855,00000040,false,Rx,9,3,B0,01,20,00,00,00,00,00,
12474896,0000029C,false,Rx,9,3,03,00,1A,00,00,00,00,00,
12476435,00000010,false,Rx,9,7,B0,01,20,11,20,0D,00,00,
12480897,00000008,false,Rx,9,7,B0,01,20,0F,FF,07,00,00,
12489625,000000AA,false,Rx,9,2,AA,04,00,00,00,00,00,00,
12491870,00000040,false,Rx,9,3,B0,01,20,00,00,00,00,00,
12494521,000002BC,false,Rx,9,3,03,00,0F,00,00,00,00,00,
12495862,00000010,false,Rx,9,7,B0,01,20,11,20,0D,00,00,
12500758,00000008,false,Rx,9,7,B0,01,20,0C,B6,0F,FF,00,
12501942,00000008,false,Rx,9,7,B0,0E,00,07,00,0D,09,00,
12508959,000000AA,false,Rx,9,2,AA,04,00,00,00,00,00,00,
12511843,00000040,false,Rx,9,3,B0,01,20,00,00,00,00,00,
12514577,000002B4,false,Rx,9,3,03,00,0A,00,00,00,00,00,
12515833,00000010,false,Rx,9,7,B0,01,20,11,20,0D,00,00,
12520820,00000008,false,Rx,9,7,B0,01,20,0F,FF,07,00,00,
12528914,000000AA,false,Rx,9,2,AA,04,00,00,00,00,00,00,
12531796,00000040,false,Rx,9,3,B0,01,20,00,00,00,00,00,
12534636,000003AC,false,Rx,9,3,03,00,1D,00,00,00,00,00,
12535790,00000010,false,Rx,9,7,B0,01,20,11,20,0D,00,00,
12540794,00000008,false,Rx,9,7,B0,01,20,0F,FF,07,00,00,
12549670,000000AA,false,Rx,9,2,AA,04,00,00,00,00,00,00,
12551817,00000040,false,Rx,9,3,B0,01,20,00,00,00,00,00,
12554684,000003A4,false,Rx,9,3,03,00,2C,00,00,00,00,00,
12555809,00000010,false,Rx,9,7,B0,01,20,11,20,0D,00,00,
12560925,00000008,false,Rx,9,7,B0,01,20,0F,FF,07,00,00,
12568911,000000AA,false,Rx,9,2,AA,04,00,00,00,00,00,00,
12571899,00000040,false,Rx,9,3,B0,01,20,00,00,00,00,00,
12575829,00000010,false,Rx,9,7,B0,01,20,11,20,0D,00,00,
12580858,00000008,false,Rx,9,7,B0,01,20,0F,FF,07,00,00,
12589675,000000AA,false,Rx,9,2,AA,04,00,00,00,00,00,00,
12591921,00000040,false,Rx,9,3,B0,01,20,00,00,00,00,00,
12594996,0000029C,false,Rx,9,3,03,00,1A,00,00,00,00,00,
12596475,00000010,false,Rx,9,7,B0,01,20,11,20,0D,00,00,
12600865,00000008,false,Rx,9,7,B0,01,20,0F,FF,07,00,00,
12609703,000000AA,false,Rx,9,2,AA,04,00,00,00,00,00,00,
12611948,00000040,false,Rx,9,3,B0,01,20,00,00,00,00,00,
12614733,000002BC,false,Rx,9,3,03,00,0F,00,00,00,00,00,
12615917,00000010,false,Rx,9,7,B0,01,20,11,20,0D,00,00,
12619767,00000010,false,Rx,9,4,30,08,00,34,00,00,00,00,
12620848,00000008,false,Rx,9,7,B0,01,20,0F,FF,07,00,00,
12621718,00000010,false,Rx,9,4,31,08,00,33,00,00,00,00,
12622373,00000040,false,Rx,9,3,B0,34,4D,00,00,00,00,00,
12629704,000000AA,false,Rx,9,2,AA,04,00,00,00,00,00,00,
12632265,00000040,false,Rx,9,6,B0,01,20,92,FF,FF,00,00,
12634840,00000040,false,Rx,9,8,B0,93,E5,00,14,00,34,4D,
12635249,000002B4,false,Rx,9,3,03,00,02,00,00,00,00,00,
12637531,00000010,false,Rx,9,7,B0,01,20,11,20,0D,00,00,
12641154,00000008,false,Rx,9,7,B0,01,20,0F,FF,07,00,00,
12649015,000000AA,false,Rx,9,2,AA,04,00,00,00,00,00,00,
12652046,00000040,false,Rx,9,3,B0,01,20,00,00,00,00,00,
12655005,000003AC,false,Rx,9,3,03,00,1D,00,00,00,00,00,
12655932,00000010,false,Rx,9,7,B0,01,20,11,20,0E,00,00,
12657129,00000010,false,Rx,9,3,B0,0D,00,00,00,00,00,00,
12660963,00000008,false,Rx,9,7,B0,01,20,0F,FF,07,00,00,
12668966,000000AA,false,Rx,9,2,AA,04,00,00,00,00,00,00,
12671971,00000040,false,Rx,9,3,B0,01,20,00,00,00,00,00,
12674971,000003A4,false,Rx,9,3,03,00,2C,00,00,00,00,00,
12676025,00000010,false,Rx,9,7,B0,01,20,11,20,0D,00,00,
12680926,00000008,false,Rx,9,7,B0,01,20,0F,FF,07,00,00,
12689020,000000AA,false,Rx,9,2,AA,04,00,00,00,00,00,00,
12692009,00000040,false,Rx,9,3,B0,01,20,00,00,00,00,00,
12695945,00000010,false,Rx,9,7,B0,01,20,11,20,0D,00,00,
12700766,00000008,false,Rx,9,7,B0,01,20,0C,B6,0F,FF,00,
12701953,00000008,false,Rx,9,7,B0,0E,00,07,00,0D,09,00,
12709729,000000AA,false,Rx,9,2,AA,04,00,00,00,00,00,00,
12711883,00000040,false,Rx,9,3,B0,01,20,00,00,00,00,00,
12715142,0000029C,false,Rx,9,3,03,00,1A,00,00,00,00,00,
12716458,00000010,false,Rx,9,7,B0,01,20,11,20,0D,00,00,
12720814,00000008,false,Rx,9,7,B0,01,20,0F,FF,07,00,00,
12729009,000000AA,false,Rx,9,2,AA,04,00,00,00,00,00,00,
12731892,00000040,false,Rx,9,3,B0,01,20,00,00,00,00,00,
12733611,000002BC,false,Rx,9,3,03,00,0F,00,00,00,00,00,
12735953,00000010,false,Rx,9,7,B0,01,20,11,20,0D,00,00,
12740888,00000008,false,Rx,9,7,B0,01,20,0F,FF,07,00,00,
12749801,000000AA,false,Rx,9,2,AA,04,00,00,00,00,00,00,
12751948,00000040,false,Rx,9,3,B0,01,20,00,00,00,00,00,
12753702,000002B4,false,Rx,9,3,03,00,02,00,00,00,00,00,
12755911,00001000,true,Rx,9,8,00,00,00,36,00,00,21,F1,
12757292,00001001,true,Rx,9,8,00,00,00,88,00,00,00,00,
12758671,00001002,true,Rx,9,8,00,00,00,00,00,00,00,00,
12760764,00000010,false,Rx,9,7,B0,01,20,11,20,0D,00,00,
12760808,00000008,false,Rx,9,7,B0,01,20,0F,FF,07,00,00,
12769761,000000AA,false,Rx,9,2,AA,04,00,00,00,00,00,00,
12771921,00000040,false,Rx,9,3,B0,01,20,00,00,00,00,00,
12773641,000003AC,false,Rx,9,3,03,00,1D,00,00,00,00,00,
12775962,00000010,false,Rx,9,7,B0,01,20,11,20,0D,00,00,
12780892,00000008,false,Rx,9,7,B0,01,20,0F,FF,07,00,00,
12789710,000000AA,false,Rx,9,2,AA,04,00,00,00,00,00,00,
12791953,00000040,false,Rx,9,3,B0,01,20,00,00,00,00,00,
12793672,000003A4,false,Rx,9,3,03,00,2C,00,00,00,00,00,
12796021,00000010,false,Rx,9,7,B0,01,20,11,20,0D,00,00,
12800863,00000008,false,Rx,9,7,B0,01,20,0F,FF,07,00,00,
12809055,000000AA,false,Rx,9,2,AA,04,00,00,00,00,00,00,
12812042,00000040,false,Rx,9,3,B0,01,20,00,00,00,00,00,
12815976,00000010,false,Rx,9,7,B0,01,20,11,20,0D,00,00,
12820792,00000008,false,Rx,9,7,B0,01,20,0F,FF,07,00,00,
12829821,000000AA,false,Rx,9,2,AA,04,00,00,00,00,00,00,
12832279,00000040,false,Rx,9,6,B0,01,20,92,FF,FF,00,00,
12833888,00000040,false,Rx,9,8,B0,93,E5,00,14,00,34,4D,
12836641,0000029C,false,Rx,9,3,03,00,1A,00,00,00,00,00,
12838131,00000010,false,Rx,9,7,B0,01,20,11,20,0D,00,00,
12841671,00000008,false,Rx,9,7,B0,01,20,0F,FF,07,00,00,
12849111,000000AA,false,Rx,9,2,AA,04,00,00,00,00,00,00,
12852068,00000040,false,Rx,9,3,B0,01,20,00,00,00,00,00,
12853793,000002BC,false,Rx,9,3,03,00,0F,00,00,00,00,00,
12856089,00000010,false,Rx,9,7,B0,01,20,11,20,0E,00,00,
12857153,00000010,false,Rx,9,3,B0,0D,00,00,00,00,00,00,
12861022,00000008,false,Rx,9,7,B0,01,20,0F,FF,07,00,00,
12869735,000000AA,false,Rx,9,2,AA,04,00,00,00,00,00,00,
12872090,00000040,false,Rx,9,3,B0,01,20,00,00,00,00,00,
12873807,000002B4,false,Rx,9,3,03,00,0A,00,00,00,00,00,
12876052,00000010,false,Rx,9,7,B0,01,20,11,20,0D,00,00,
12880924,00000008,false,Rx,9,7,B0,01,20,0F,FF,07,00,00,
12889757,000000AA,false,Rx,9,2,AA,04,00,00,00,00,00,00,
12892003,00000040,false,Rx,9,3,B0,01,20,00,00,00,00,00,
12893721,000003AC,false,Rx,9,3,03,00,1D,00,00,00,00,00,
12896035,00000010,false,Rx,9,7,B0,01,20,11,20,0D,00,00,
12900748,00000008,false,Rx,9,7,B0,01,20,0C,B6,0F,FF,00,
12902042,00000008,false,Rx,9,7,B0,0E,00,07,00,0D,09,00,
12909055,000000AA,false,Rx,9,2,AA,04,00,00,00,00,00,00,
12912042,00000040,false,Rx,9,3,B0,01,20,00,00,00,00,00,
12913758,000003A4,false,Rx,9,3,03,00,2C,00,00,00,00,00,
12916007,00000010,false,Rx,9,7,B0,01,20,11,20,0D,00,00,
12920876,00000008,false,Rx,9,7,B0,01,20,0F,FF,07,00,00,
12929066,000000AA,false,Rx,9,2,AA,04,00,00,00,00,00,00,
12932055,00000040,false,Rx,9,3,B0,01,20,00,00,00,00,00,
12936000,00000010,false,Rx,9,7,B0,01,20,11,20,0D,00,00,
12940821,00000008,false,Rx,9,7,B0,01,20,0F,FF,07,00,00,
12949112,000000AA,false,Rx,9,2,AA,04,00,00,00,00,00,00,
12952101,00000040,false,Rx,9,3,B0,01,20,00,00,00,00,00,
12955849,0000029C,false,Rx,9,3,03,00,1A,00,00,00,00,00,
12956570,00000010,false,Rx,9,7,B0,01,20,11,20,0D,00,00,
12960865,00000008,false,Rx,9,7,B0,01,20,0F,FF,07,00,00,
12969794,000000AA,false,Rx,9,2,AA,04,00,00,00,00,00,00,
12972141,00000040,false,Rx,9,3,B0,01,20,00,00,00,00,00,
12973766,000002BC,false,Rx,9,3,03,00,0F,00,00,00,00,00,
12976094,00000010,false,Rx,9,7,B0,01,20,11,20,0D,00,00,
12980814,00000008,false,Rx,9,7,B0,01,20,0F,FF,07,00,00,
12989099,000000AA,false,Rx,9,2,AA,04,00,00,00,00,00,00,
12992084,00000040,false,Rx,9,3,B0,01,20,00,00,00,00,00,
12993798,000002B4,false,Rx,9,3,03,00,0A,00,00,00,00,00,
12996136,00000010,false,Rx,9,7,B0,01,20,11,20,0D,00,00,
13000895,00000008,false,Rx,9,7,B0,01,20,0F,FF,07,00,00,
13009084,000000AA,false,Rx,9,2,AA,04,00,00,00,00,00,00,
13012179,00000040,false,Rx,9,3,B0,01,20,00,00,00,00,00,
13013897,000003AC,false,Rx,9,3,03,00,1D,00,00,00,00,00,
13016118,00000010,false,Rx,9,7,B0,01,20,11,20,0D,00,00,
13020312,00000010,false,Rx,9,4,30,08,00,35,00,00,00,00,
13021393,00000008,false,Rx,9,7,B0,01,20,0F,FF,07,00,00,
13022158,00000010,false,Rx,9,4,31,08,00,34,00,00,00,00,
13022921,00000040,false,Rx,9,3,B0,35,BF,00,00,00,00,00,
13029831,000000AA,false,Rx,9,2,AA,04,00,00,00,00,00,00,
13032395,00000040,false,Rx,9,6,B0,01,20,92,FF,FF,00,00,
13034009,00000040,false,Rx,9,8,B0,93,E5,00,14,00,35,BF,
13035986,000003A4,false,Rx,9,3,03,00,2C,00,00,00,00,00,
13037564,00000010,false,Rx,9,7,B0,01,20,11,20,0D,00,00,
13041186,00000008,false,Rx,9,7,B0,01,20,0F,FF,07,00,00,
13049914,000000AA,false,Rx,9,2,AA,04,00,00,00,00,00,00,
13052160,00000040,false,Rx,9,3,B0,01,20,00,00,00,00,00,
13056130,00000010,false,Rx,9,7,B0,01,20,11,20,0E,00,00,
13057179,00000010,false,Rx,9,3,B0,0D,00,00,00,00,00,00,
13061046,00000008,false,Rx,9,7,B0,01,20,0F,FF,07,00,00,
13069865,000000AA,false,Rx,9,2,AA,04,00,00,00,00,00,00,
13072112,00000040,false,Rx,9,3,B0,01,20,00,00,00,00,00,
13076099,0000029C,false,Rx,9,3,03,00,1A,00,00,00,00,00,
13076715,00000010,false,Rx,9,7,B0,01,20,11,20,0D,00,00,
13080908,00000008,false,Rx,9,7,B0,01,20,0F,FF,07,00,00,
13089172,000000AA,false,Rx,9,2,AA,04,00,00,00,00,00,00,
13092181,00000040,false,Rx,9,3,B0,01,20,00,00,00,00,00,
13093898,000002BC,false,Rx,9,3,03,00,0F,00,00,00,00,00,
13096149,00000010,false,Rx,9,7,B0,01,20,11,20,0D,00,00,
13100757,00000008,false,Rx,9,7,B0,01,20,0C,B6,0F,FF,00,
13102050,00000008,false,Rx,9,7,B0,0E,00,07,00,0D,09,00,
13109168,000000AA,false,Rx,9,2,AA,04,00,00,00,00,00,00,
13112155,00000040,false,Rx,9,3,B0,01,20,00,00,00,00,00,
13113870,000002B4,false,Rx,9,3,03,00,02,00,00,00,00,00,
13116194,00000010,false,Rx,9,7,B0,01,20,11,20,0D,00,00,
13120878,00000008,false,Rx,9,7,B0,01,20,0F,FF,07,00,00,
13129177,000000AA,false,Rx,9,2,AA,04,00,00,00,00,00,00,
13132166,00000040,false,Rx,9,3,B0,01,20,00,00,00,00,00,
13133883,000003AC,false,Rx,9,3,03,00,1D,00,00,00,00,00,
13136199,00000010,false,Rx,9,7,B0,01,20,11,20,0D,00,00,
13140857,00000008,false,Rx,9,7,B0,01,20,0F,FF,07,00,00,
13149883,000000AA,false,Rx,9,2,AA,04,00,00,00,00,00,00,
13152129,00000040,false,Rx,9,3,B0,01,20,00,00,00,00,00,
13153845,000003A4,false,Rx,9,3,03,00,2C,00,00,00,00,00,
13156289,00000010,false,Rx,9,7,B0,01,20,11,20,0D,00,00,
13160874,00000008,false,Rx,9,7,B0,01,20,0F,FF,07,00,00,
13169184,000000AA,false,Rx,9,2,AA,04,00,00,00,00,00,00,
13172177,00000040,false,Rx,9,3,B0,01,20,00,00,00,00,00,
13176300,00000010,false,Rx,9,7,B0,01,20,11,20,0D,00,00,
13180820,00000008,false,Rx,9,7,B0,01,20,0F,FF,07,00,00,
13189217,000000AA,false,Rx,9,2,AA,04,00,00,00,00,00,00,
13192206,00000040,false,Rx,9,3,B0,01,20,00,00,00,00,00,
13196382,0000029C,false,Rx,9,3,03,00,1A,00,00,00,00,00,
13196677,00000010,false,Rx,9,7,B0,01,20,11,20,0D,00,00,
13200881,00000008,false,Rx,9,7,B0,01,20,0F,FF,07,00,00,
13209928,000000AA,false,Rx,9,2,AA,04,00,00,00,00,00,00,
13212177,00000040,false,Rx,9,3,B0,01,20,00,00,00,00,00,
13213894,000002BC,false,Rx,9,3,03,00,0F,00,00,00,00,00,
13216426,00000010,false,Rx,9,7,B0,01,20,11,20,0D,00,00,
13220842,00000008,false,Rx,9,7,B0,01,20,0F,FF,07,00,00,
13229321,000000AA,false,Rx,9,2,AA,04,00,00,00,00,00,00,
13232535,00000040,false,Rx,9,6,B0,01,20,92,FF,FF,00,00,
13234144,00000040,false,Rx,9,8,B0,93,E5,00,14,00,35,BF,
13236441,000002B4,false,Rx,9,3,03,00,0A,00,00,00,00,00,
13237683,00000010,false,Rx,9,7,B0,01,20,11,20,0D,00,00,
13241204,00000008,false,Rx,9,7,B0,01,20,0F,FF,07,00,00,
13249300,000000AA,false,Rx,9,2,AA,04,00,00,00,00,00,00,
13252196,00000040,false,Rx,9,3,B0,01,20,00,00,00,00,00,
13253912,000003AC,false,Rx,9,3,03,00,1D,00,00,00,00,00,
13256549,00000010,false,Rx,9,7,B0,01,20,11,20,0E,00,00,
13257253,00000010,false,Rx,9,3,B0,0D,00,00,00,00,00,00,
13261028,00000008,false,Rx,9,7,B0,01,20,0F,FF,07,00,00,
13269247,000000AA,false,Rx,9,2,AA,04,00,00,00,00,00,00,
13272236,00000040,false,Rx,9,3,B0,01,20,00,00,00,00,00,
13273953,000003A4,false,Rx,9,3,03,00,2C,00,00,00,00,00,
13276621,00000010,false,Rx,9,7,B0,01,20,11,20,0D,00,00,
13280899,00000008,false,Rx,9,7,B0,01,20,0F,FF,07,00,00,
13289303,000000AA,false,Rx,9,2,AA,04,00,00,00,00,00,00,
13292295,00000040,false,Rx,9,3,B0,01,20,00,00,00,00,00,
13296636,00000010,false,Rx,9,7,B0,01,20,11,20,0D,00,00,
13300744,00000008,false,Rx,9,7,B0,01,20,0C,B6,0F,FF,00,
13302042,00000008,false,Rx,9,7,B0,0E,00,07,00,0D,09,00,
13309265,000000AA,false,Rx,9,2,AA,04,00,00,00,00,00,00,
13312357,00000040,false,Rx,9,3,B0,01,20,00,00,00,00,00,
13316644,0000029C,false,Rx,9,3,03,00,1A,00,00,00,00,00,
13316840,00000010,false,Rx,9,7,B0,01,20,11,20,0D,00,00,
13320958,00000008,false,Rx,9,7,B0,01,20,0F,FF,07,00,00,
13329260,000000AA,false,Rx,9,2,AA,04,00,00,00,00,00,00,
13332247,00000040,false,Rx,9,3,B0,01,20,00,00,00,00,00,
13333857,000002BC,false,Rx,9,3,03,00,0F,00,00,00,00,00,
13336721,00000010,false,Rx,9,7,B0,01,20,11,20,0D,00,00,
13340927,00000008,false,Rx,9,7,B0,01,20,0F,FF,07,00,00,
13349322,000000AA,false,Rx,9,2,AA,04,00,00,00,00,00,00,
13352206,00000040,false,Rx,9,3,B0,01,20,00,00,00,00,00,
13354029,000002B4,false,Rx,9,3,03,00,0A,00,00,00,00,00,
13356792,00000010,false,Rx,9,7,B0,01,20,11,20,0D,00,00,
13360875,00000008,false,Rx,9,7,B0,01,20,0F,FF,07,00,00,
13369277,000000AA,false,Rx,9,2,AA,04,00,00,00,00,00,00,
13372267,00000040,false,Rx,9,3,B0,01,20,00,00,00,00,00,
13373984,000003AC,false,Rx,9,3,03,00,1D,00,00,00,00,00,
13376864,00000010,false,Rx,9,7,B0,01,20,11,20,0D,00,00,
13380841,00000008,false,Rx,9,7,B0,01,20,0F,FF,07,00,00,
13389976,000000AA,false,Rx,9,2,AA,04,00,00,00,00,00,00,
13392222,00000040,false,Rx,9,3,B0,01,20,00,00,00,00,00,
13393937,000003A4,false,Rx,9,3,03,00,2C,00,00,00,00,00,
13396892,00000010,false,Rx,9,7,B0,01,20,11,20,0D,00,00,
13400960,00000008,false,Rx,9,7,B0,01,20,0F,FF,07,00,00,
13409262,000000AA,false,Rx,9,2,AA,04,00,00,00,00,00,00,
13412354,00000040,false,Rx,9,3,B0,01,20,00,00,00,00,00,
13416915,00000010,false,Rx,9,7,B0,01,20,11,20,0D,00,00,
13419794,00000010,false,Rx,9,4,31,08,00,35,00,00,00,00,
13420879,00000008,false,Rx,9,7,B0,01,20,0F,FF,07,00,00,
13430012,000000AA,false,Rx,9,2,AA,04,00,00,00,00,00,00,
13432468,00000040,false,Rx,9,6,B0,01,20,92,FF,FF,00,00,
13433871,00000040,false,Rx,9,6,B0,93,E5,00,14,00,00,00,
13436998,0000029C,false,Rx,9,3,03,00,1A,00,00,00,00,00,
13438046,00000010,false,Rx,9,7,B0,01,20,11,20,0D,00,00,
13441208,00000008,false,Rx,9,7,B0,01,20,0F,FF,07,00,00,
13449296,000000AA,false,Rx,9,2,AA,04,00,00,00,00,00,00,
13452285,00000040,false,Rx,9,3,B0,01,20,00,00,00,00,00,
13454003,000002BC,false,Rx,9,3,03,00,0F,00,00,00,00,00,
13456899,00000010,false,Rx,9,7,B0,01,20,11,20,0E,00,00,
13457328,00000010,false,Rx,9,3,B0,0D,00,00,00,00,00,00,
13460999,00000008,false,Rx,9,7,B0,01,20,0F,FF,07,00,00,
13469352,000000AA,false,Rx,9,2,AA,04,00,00,00,00,00,00,
13472267,00000040,false,Rx,9,3,B0,01,20,00,00,00,00,00,
13473995,000002B4,false,Rx,9,3,03,00,02,00,00,00,00,00,
13477475,00000010,false,Rx,9,7,B0,01,20,11,20,0D,00,00,
