Time Stamp,ID,Extended,Dir,Bus,LEN,D1,D2,D3,D4,D5,D6,D7,D8
551249,00001000,true,Rx,9,8,00,00,00,0A,00,00,00,00,
552664,00001001,true,Rx,9,8,00,00,00,00,00,00,00,00,
554056,00001002,true,Rx,9,8,00,00,00,00,00,00,00,00,
1551288,00001000,true,Rx,9,8,00,00,00,0B,00,00,00,00,
1552704,00001001,true,Rx,9,8,00,00,00,00,00,00,00,00,
1554092,00001002,true,Rx,9,8,00,00,00,00,00,00,00,00,
2551394,00001000,true,Rx,9,8,00,00,00,0C,00,00,00,00,
2552807,00001001,true,Rx,9,8,00,00,00,00,00,00,00,00,
2554180,00001002,true,Rx,9,8,00,00,00,00,00,00,00,00,
3551414,00001000,true,Rx,9,8,00,00,00,0D,00,00,00,00,
3552826,00001001,true,Rx,9,8,00,00,00,00,00,00,00,00,
3554165,00001002,true,Rx,9,8,00,00,00,00,00,00,00,00,
4551452,00001000,true,Rx,9,8,00,00,00,0E,00,00,00,00,
4552844,00001001,true,Rx,9,8,00,00,00,00,00,00,00,00,
4554200,00001002,true,Rx,9,8,00,00,00,00,00,00,00,00,
5551223,00001000,true,Rx,9,8,00,00,00,0F,00,00,00,00,
5552589,00001001,true,Rx,9,8,00,00,00,00,00,00,00,00,
5553940,00001002,true,Rx,9,8,00,00,00,00,00,00,00,00,
6551362,00001000,true,Rx,9,8,00,00,00,10,00,00,00,00,
6553054,00001001,true,Rx,9,8,00,00,00,00,00,00,00,00,
6554509,00001002,true,Rx,9,8,00,00,00,00,00,00,00,00,
6830119,00000040,false,Rx,9,8,20,00,00,08,00,00,00,00,
6835143,00000040,false,Rx,9,8,20,00,00,08,00,00,00,00,
6892506,000000AA,false,Rx,9,2,AA,04,00,00,00,00,00,00,
6894658,000000AA,false,Rx,9,2,AA,04,00,00,00,00,00,00,
6896903,000000AA,false,Rx,9,2,AA,04,00,00,00,00,00,00,
6899765,000000AA,false,Rx,9,2,AA,04,00,00,00,00,00,00,
6901527,000000AA,false,Rx,9,2,AA,04,00,00,00,00,00,00,
6903669,000000AA,false,Rx,9,2,AA,04,00,00,00,00,00,00,
6908037,000000AA,false,Rx,9,2,AA,04,00,00,00,00,00,00,
6909649,00000040,false,Rx,9,8,23,00,00,08,FC,80,00,00,
6910411,00000008,false,Rx,9,1,A3,00,00,00,00,00,00,00,
6910967,00000010,false,Rx,9,1,A3,00,00,00,00,00,00,00,
6914695,00000040,false,Rx,9,8,23,00,00,08,FC,80,00,00,
6915458,00000008,false,Rx,9,1,A3,00,00,00,00,00,00,00,
6916009,00000010,false,Rx,9,1,A3,00,00,00,00,00,00,00,
6921378,000000AA,false,Rx,9,2,AA,04,00,00,00,00,00,00,
6922920,00000040,false,Rx,9,8,21,00,00,08,FC,80,00,00,
6923579,00000008,false,Rx,9,1,A1,00,00,00,00,00,00,00,
6924236,00000010,false,Rx,9,1,A1,00,00,00,00,00,00,00,
6928084,00000040,false,Rx,9,8,21,00,00,08,FC,80,00,00,
6928751,00000008,false,Rx,9,1,A1,00,00,00,00,00,00,00,
6929303,00000010,false,Rx,9,1,A1,00,00,00,00,00,00,00,
6933671,000000AA,false,Rx,9,2,AA,04,00,00,00,00,00,00,
6935283,00000040,false,Rx,9,8,24,00,00,08,FC,40,00,00,
6935942,00000008,false,Rx,9,1,A4,00,00,00,00,00,00,00,
6936490,00000010,false,Rx,9,1,A4,00,00,00,00,00,00,00,
6940422,00000040,false,Rx,9,8,24,00,00,08,FC,40,00,00,
6941109,00000008,false,Rx,9,1,A4,00,00,00,00,00,00,00,
6941655,00000010,false,Rx,9,1,A4,00,00,00,00,00,00,00,
6948566,000000AA,false,Rx,9,2,AA,04,00,00,00,00,00,00,
6952404,000000AA,false,Rx,9,2,AA,04,00,00,00,00,00,00,
6956132,000000AA,false,Rx,9,2,AA,04,00,00,00,00,00,00,
6960074,000000AA,false,Rx,9,2,AA,04,00,00,00,00,00,00,
6963748,000000AA,false,Rx,9,2,AA,04,00,00,00,00,00,00,
6967576,000000AA,false,Rx,9,2,AA,04,00,00,00,00,00,00,
6971334,000000AA,false,Rx,9,2,AA,04,00,00,00,00,00,00,
6975195,000000AA,false,Rx,9,2,AA,04,00,00,00,00,00,00,
6979933,000000AA,false,Rx,9,2,AA,04,00,00,00,00,00,00,
6982813,000000AA,false,Rx,9,2,AA,04,00,00,00,00,00,00,
6986552,000000AA,false,Rx,9,2,AA,04,00,00,00,00,00,00,
6990389,000000AA,false,Rx,9,2,AA,04,00,00,00,00,00,00,
6994226,000000AA,false,Rx,9,2,AA,04,00,00,00,00,00,00,
6997957,000000AA,false,Rx,9,2,AA,04,00,00,00,00,00,00,
7001890,000000AA,false,Rx,9,2,AA,04,00,00,00,00,00,00,
7005697,000000AA,false,Rx,9,2,AA,04,00,00,00,00,00,00,
7009441,000000AA,false,Rx,9,2,AA,04,00,00,00,00,00,00,
7013277,000000AA,false,Rx,9,2,AA,04,00,00,00,00,00,00,
7017112,000000AA,false,Rx,9,2,AA,04,00,00,00,00,00,00,
7021009,000000AA,false,Rx,9,2,AA,04,00,00,00,00,00,00,
7024772,000000AA,false,Rx,9,2,AA,04,00,00,00,00,00,00,
7028506,000000AA,false,Rx,9,2,AA,04,00,00,00,00,00,00,
7032342,000000AA,false,Rx,9,2,AA,04,00,00,00,00,00,00,
7036180,000000AA,false,Rx,9,2,AA,04,00,00,00,00,00,00,
7040104,000000AA,false,Rx,9,2,AA,04,00,00,00,00,00,00,
7043942,000000AA,false,Rx,9,2,AA,04,00,00,00,00,00,00,
7047682,000000AA,false,Rx,9,2,AA,04,00,00,00,00,00,00,
7051518,000000AA,false,Rx,9,2,AA,04,00,00,00,00,00,00,
7055248,000000AA,false,Rx,9,2,AA,04,00,00,00,00,00,00,
7060002,000000AA,false,Rx,9,2,AA,04,00,00,00,00,00,00,
7063042,000000AA,false,Rx,9,2,AA,04,00,00,00,00,00,00,
7067093,000000AA,false,Rx,9,2,AA,04,00,00,00,00,00,00,
7069442,000000AA,false,Rx,9,2,AA,04,00,00,00,00,00,00,
7073105,00000040,false,Rx,9,8,27,00,00,FD,00,80,00,00,
7078171,00000040,false,Rx,9,8,13,01,00,00,00,FF,00,00,
7093857,000000AA,false,Rx,9,2,AA,04,00,00,00,00,00,00,
7097884,0000029C,false,Rx,9,3,03,00,1A,00,00,00,00,00,
7102975,00000010,false,Rx,9,4,30,08,00,01,00,00,00,00,
7103984,00000040,false,Rx,9,3,B0,01,10,00,00,00,00,00,
7114074,000000AA,false,Rx,9,2,AA,04,00,00,00,00,00,00,
7116214,00000040,false,Rx,9,3,B0,01,10,00,00,00,00,00,
7120261,000002BC,false,Rx,9,3,03,00,0B,00,00,00,00,00,
7133477,000000AA,false,Rx,9,2,AA,04,00,00,00,00,00,00,
7136164,00000040,false,Rx,9,3,B0,01,10,00,00,00,00,00,
7140176,000002B4,false,Rx,9,3,03,00,0A,00,00,00,00,00,
7140543,00000040,false,Rx,9,5,30,02,00,01,08,00,00,00,
7141928,00000010,false,Rx,9,3,B0,01,00,00,00,00,00,00,
7142605,00000008,false,Rx,9,3,B0,01,02,00,00,00,00,00,
7143474,00000010,false,Rx,9,4,30,01,00,01,00,00,00,00,
7153348,000000AA,false,Rx,9,2,AA,04,00,00,00,00,00,00,
7156232,00000040,false,Rx,9,3,B0,01,0C,00,00,00,00,00,
7158264,000003AC,false,Rx,9,3,03,00,1D,00,00,00,00,00,
7160208,00000010,false,Rx,9,3,B0,01,02,00,00,00,00,00,
7164040,00000008,false,Rx,9,5,B0,01,02,0C,BB,00,00,00,
7165410,00000008,false,Rx,9,8,10,00,00,00,00,FF,00,00,
7173493,00000040,false,Rx,9,8,90,01,00,00,06,29,00,00,
7175325,000000AA,false,Rx,9,2,AA,04,00,00,00,00,00,00,
7177078,00000040,false,Rx,9,3,B0,01,10,00,00,00,00,00,
7180445,000003A4,false,Rx,9,3,03,00,2C,00,00,00,00,00,
7180470,00000010,false,Rx,9,3,B0,01,02,00,00,00,00,00,
7184395,00000008,false,Rx,9,3,B0,01,02,00,00,00,00,00,
7186014,00000008,false,Rx,9,8,10,00,00,01,06,29,00,00,
7187518,00000040,false,Rx,9,8,90,01,00,01,47,22,00,00,
7193474,000000AA,false,Rx,9,2,AA,04,00,00,00,00,00,00,
7196248,00000040,false,Rx,9,3,B0,01,10,00,00,00,00,00,
7200366,00000010,false,Rx,9,3,B0,01,02,00,00,00,00,00,
7204351,00000008,false,Rx,9,3,B0,01,02,00,00,00,00,00,
7205977,00000008,false,Rx,9,8,12,00,00,00,7F,00,00,00,
7207587,00000008,false,Rx,9,4,30,02,00,11,00,00,00,00,
7208988,00000010,false,Rx,9,3,B0,11,10,00,00,00,00,00,
7210595,00000040,false,Rx,9,8,13,02,00,00,00,FF,00,00,
7214112,000000AA,false,Rx,9,2,AA,04,00,00,00,00,00,00,
7216148,00000040,false,Rx,9,3,B0,01,10,00,00,00,00,00,
7220416,0000029C,false,Rx,9,3,03,00,1A,00,00,00,00,00,
7220442,00000010,false,Rx,9,5,B0,01,02,11,10,00,00,00,
7221709,00000010,false,Rx,9,8,10,00,00,00,00,FF,00,00,
7224803,00000008,false,Rx,9,3,B0,01,10,00,00,00,00,00,
7229614,00000040,false,Rx,9,8,90,02,00,00,02,7C,00,00,
7233476,000000AA,false,Rx,9,2,AA,04,00,00,00,00,00,00,
7236252,00000040,false,Rx,9,3,B0,01,10,00,00,00,00,00,
7237969,000002BC,false,Rx,9,3,03,00,0B,00,00,00,00,00,
7240939,00000010,false,Rx,9,5,B0,01,10,11,10,00,00,00,
7242155,00000010,false,Rx,9,8,10,00,00,01,02,7C,00,00,
7243657,00000040,false,Rx,9,8,90,02,00,01,47,22,00,00,
7244863,00000008,false,Rx,9,3,B0,01,10,00,00,00,00,00,
7253457,000000AA,false,Rx,9,2,AA,04,00,00,00,00,00,00,
7256237,00000040,false,Rx,9,3,B0,01,10,00,00,00,00,00,
7257955,000002B4,false,Rx,9,3,03,00,0A,00,00,00,00,00,
7260608,00000010,false,Rx,9,5,B0,01,10,11,10,00,00,00,
7260629,00000040,false,Rx,9,5,30,02,00,0E,03,00,00,00,
7261556,00000010,false,Rx,9,8,12,00,00,00,00,14,00,00,
7262424,00000040,false,Rx,9,5,30,02,00,0D,03,00,00,00,
7263187,00000010,false,Rx,9,3,B0,0E,00,00,00,00,00,00,
7264162,00000010,false,Rx,9,3,B0,0D,00,00,00,00,00,00,
7265032,00000010,false,Rx,9,4,30,01,00,0F,00,00,00,00,
7265897,00000008,false,Rx,9,3,B0,01,10,00,00,00,00,00,
7266662,00000010,false,Rx,9,4,30,01,00,0E,00,00,00,00,
7267532,00000040,false,Rx,9,5,30,01,00,0D,03,00,00,00,
7268399,00000010,false,Rx,9,4,30,01,00,07,00,00,00,00,
7269270,00000010,false,Rx,9,4,30,08,00,14,00,00,00,00,
7270141,00000010,false,Rx,9,4,30,08,00,13,00,00,00,00,
7271008,00000010,false,Rx,9,4,30,08,00,12,00,00,00,00,
7274099,00000040,false,Rx,9,7,B0,92,FF,FF,93,E5,00,00,
7275747,000000AA,false,Rx,9,2,AA,04,00,00,00,00,00,00,
7277688,00000040,false,Rx,9,6,B0,01,10,92,FF,FF,00,00,
7280677,00000040,false,Rx,9,6,B0,93,E5,00,14,00,00,00,
7280698,000003AC,false,Rx,9,3,03,00,1D,00,00,00,00,00,
7281530,00000010,false,Rx,9,7,B0,01,10,11,10,0D,00,00,
7285238,00000008,false,Rx,9,7,B0,01,10,0F,FF,0E,00,00,
7286970,00000008,false,Rx,9,5,B0,0D,00,07,00,00,00,00,
7293456,000000AA,false,Rx,9,2,AA,04,00,00,00,00,00,00,
7298353,00000040,false,Rx,9,3,B0,01,10,00,00,00,00,00,
7300663,00000010,false,Rx,9,7,B0,01,10,11,10,0E,00,00,
7301712,00000010,false,Rx,9,3,B0,0D,00,00,00,00,00,00,
7305021,00000008,false,Rx,9,7,B0,01,10,0F,FF,07,00,00,
7311187,000003A4,false,Rx,9,3,03,00,2C,00,00,00,00,00,
7314385,000000AA,false,Rx,9,2,AA,04,00,00,00,00,00,00,
7318649,00000040,false,Rx,9,3,B0,01,10,00,00,00,00,00,
7320764,00000010,false,Rx,9,7,B0,01,10,11,10,0D,00,00,
7324857,00000008,false,Rx,9,7,B0,01,10,0F,FF,07,00,00,
7333483,000000AA,false,Rx,9,2,AA,04,00,00,00,00,00,00,
7337637,00000040,false,Rx,9,3,B0,01,10,00,00,00,00,00,
7340830,00000010,false,Rx,9,7,B0,01,10,11,10,0D,00,00,
7344698,00000008,false,Rx,9,7,B0,01,10,0C,BB,0F,FF,00,
7345996,00000008,false,Rx,9,7,B0,0E,00,0D,00,07,00,00,
7355229,000000AA,false,Rx,9,2,AA,04,00,00,00,00,00,00,
7357792,00000040,false,Rx,9,3,B0,01,10,00,00,00,00,00,
7360864,00000010,false,Rx,9,7,B0,01,10,11,10,0D,00,00,
7363240,0000029C,false,Rx,9,3,03,00,1A,00,00,00,00,00,
7365053,00000008,false,Rx,9,7,B0,01,10,0F,FF,07,00,00,
7374488,000000AA,false,Rx,9,2,AA,04,00,00,00,00,00,00,
7376991,00000040,false,Rx,9,3,B0,01,10,00,00,00,00,00,
7380901,00000010,false,Rx,9,7,B0,01,10,11,10,0D,00,00,
7385036,00000008,false,Rx,9,7,B0,01,10,0F,FF,07,00,00,
7390506,000002BC,false,Rx,9,3,03,00,0B,00,00,00,00,00,
7393917,000000AA,false,Rx,9,2,AA,04,00,00,00,00,00,00,
7396485,00000040,false,Rx,9,3,B0,01,10,00,00,00,00,00,
7401015,00000010,false,Rx,9,7,B0,01,10,11,10,0D,00,00,
7404844,00000008,false,Rx,9,7,B0,01,10,0F,FF,07,00,00,
7409650,000002B4,false,Rx,9,3,03,00,0A,00,00,00,00,00,
7413488,000000AA,false,Rx,9,2,AA,04,00,00,00,00,00,00,
7415733,00000040,false,Rx,9,3,B0,01,10,00,00,00,00,00,
7421059,00000010,false,Rx,9,7,B0,01,10,11,10,0D,00,00,
7424781,00000008,false,Rx,9,7,B0,01,10,0F,FF,07,00,00,
7433719,000003AC,false,Rx,9,3,03,00,1D,00,00,00,00,00,
7435543,000000AA,false,Rx,9,2,AA,04,00,00,00,00,00,00,
7436832,00000040,false,Rx,9,3,B0,01,10,00,00,00,00,00,
7441148,00000010,false,Rx,9,7,B0,01,10,11,10,0D,00,00,
7444853,00000008,false,Rx,9,7,B0,01,10,0F,FF,07,00,00,
7449659,000003A4,false,Rx,9,3,03,00,2C,00,00,00,00,00,
7453513,000000AA,false,Rx,9,2,AA,04,00,00,00,00,00,00,
7455758,00000040,false,Rx,9,3,B0,01,10,00,00,00,00,00,
7461203,00000010,false,Rx,9,7,B0,01,10,11,10,0D,00,00,
7464860,00000008,false,Rx,9,7,B0,01,10,0F,FF,07,00,00,
7474849,000000AA,false,Rx,9,2,AA,04,00,00,00,00,00,00,
7477205,00000040,false,Rx,9,6,B0,01,10,92,FF,FF,00,00,
7478496,00000040,false,Rx,9,6,B0,93,E5,00,14,00,00,00,
7481637,00000010,false,Rx,9,7,B0,01,10,11,10,0D,00,00,
7482295,0000029C,false,Rx,9,3,03,00,1A,00,00,00,00,00,
7485226,00000008,false,Rx,9,7,B0,01,10,0F,FF,07,00,00,
7493652,000000AA,false,Rx,9,2,AA,04,00,00,00,00,00,00,
7495808,00000040,false,Rx,9,3,B0,01,10,00,00,00,00,00,
7501423,00000010,false,Rx,9,7,B0,01,10,11,10,0E,00,00,
7501443,000002BC,false,Rx,9,3,03,00,0B,00,00,00,00,00,
7501617,00000010,false,Rx,9,3,B0,0D,00,00,00,00,00,00,
7504932,00000008,false,Rx,9,7,B0,01,10,0F,FF,07,00,00,
7514172,000000AA,false,Rx,9,2,AA,04,00,00,00,00,00,00,
7516415,00000040,false,Rx,9,3,B0,01,10,00,00,00,00,00,
7518132,000002B4,false,Rx,9,3,03,00,0A,00,00,00,00,00,
7521510,00000010,false,Rx,9,7,B0,01,10,11,10,0D,00,00,
7524886,00000008,false,Rx,9,7,B0,01,10,0F,FF,07,00,00,
7533506,000000AA,false,Rx,9,2,AA,04,00,00,00,00,00,00,
7536390,00000040,false,Rx,9,3,B0,01,10,00,00,00,00,00,
7538109,000003AC,false,Rx,9,3,03,00,1D,00,00,00,00,00,
7551336,00001000,true,Rx,9,8,00,00,00,11,00,00,00,DE,
7552723,00001001,true,Rx,9,8,00,00,00,00,00,00,00,00,
7554067,00001002,true,Rx,9,8,00,00,00,00,00,00,00,00,
7541525,00000010,false,Rx,9,7,B0,01,10,11,10,0D,00,00,
7544722,00000008,false,Rx,9,7,B0,01,10,0C,BB,0F,FF,00,
7546028,00000008,false,Rx,9,7,B0,0E,00,0D,00,07,00,00,
7555721,000000AA,false,Rx,9,2,AA,04,00,00,00,00,00,00,
7556359,00000040,false,Rx,9,3,B0,01,10,00,00,00,00,00,
7558200,000003A4,false,Rx,9,3,03,00,2C,00,00,00,00,00,
7561975,00000010,false,Rx,9,7,B0,01,10,11,10,0D,00,00,
7564804,00000008,false,Rx,9,7,B0,01,10,0F,FF,07,00,00,
7573520,000000AA,false,Rx,9,2,AA,04,00,00,00,00,00,00,
7576507,00000040,false,Rx,9,3,B0,01,10,00,00,00,00,00,
7581701,00000010,false,Rx,9,7,B0,01,10,11,10,0D,00,00,
7584873,00000008,false,Rx,9,7,B0,01,10,0F,FF,07,00,00,
7593569,000000AA,false,Rx,9,2,AA,04,00,00,00,00,00,00,
7596372,00000040,false,Rx,9,3,B0,01,10,00,00,00,00,00,
7599421,0000029C,false,Rx,9,3,03,00,1A,00,00,00,00,00,
7601762,00000010,false,Rx,9,7,B0,01,10,11,10,0D,00,00,
7604813,00000008,false,Rx,9,7,B0,01,10,0F,FF,07,00,00,
7613638,000000AA,false,Rx,9,2,AA,04,00,00,00,00,00,00,
7616521,00000040,false,Rx,9,3,B0,01,10,00,00,00,00,00,
7618237,000002BC,false,Rx,9,3,03,00,0B,00,00,00,00,00,
7621738,00000010,false,Rx,9,7,B0,01,10,11,10,0D,00,00,
7624904,00000008,false,Rx,9,7,B0,01,10,0F,FF,07,00,00,
7633626,000000AA,false,Rx,9,2,AA,04,00,00,00,00,00,00,
7636479,00000040,false,Rx,9,3,B0,01,10,00,00,00,00,00,
7638211,000002B4,false,Rx,9,3,03,00,0A,00,00,00,00,00,
7641797,00000010,false,Rx,9,7,B0,01,10,11,10,0D,00,00,
7644841,00000008,false,Rx,9,7,B0,01,10,0F,FF,07,00,00,
7653659,000000AA,false,Rx,9,2,AA,04,00,00,00,00,00,00,
7656540,00000040,false,Rx,9,3,B0,01,10,00,00,00,00,00,
7658257,000003AC,false,Rx,9,3,03,00,1D,00,00,00,00,00,
7661867,00000010,false,Rx,9,7,B0,01,10,11,10,0D,00,00,
7664900,00000008,false,Rx,9,7,B0,01,10,0F,FF,07,00,00,
7665581,00000010,false,Rx,9,4,30,08,00,2C,00,00,00,00,
7667512,00000040,false,Rx,9,3,B0,2C,B3,00,00,00,00,00,
7674316,000000AA,false,Rx,9,2,AA,04,00,00,00,00,00,00,
7676774,00000040,false,Rx,9,6,B0,01,10,92,FF,FF,00,00,
7678384,00000040,false,Rx,9,8,B0,93,E5,00,14,00,2C,B3,
7679884,000003A4,false,Rx,9,3,03,00,2C,00,00,00,00,00,
7681896,00000010,false,Rx,9,7,B0,01,10,11,10,0D,00,00,
7685092,00000008,false,Rx,9,7,B0,01,10,0F,FF,07,00,00,
7694256,000000AA,false,Rx,9,2,AA,04,00,00,00,00,00,00,
7696506,00000040,false,Rx,9,3,B0,01,10,00,00,00,00,00,
7700237,00000010,false,Rx,9,7,B0,01,10,11,10,0E,00,00,
7701880,00000010,false,Rx,9,3,B0,0D,00,00,00,00,00,00,
7705061,00000008,false,Rx,9,7,B0,01,10,0F,FF,07,00,00,
7714253,000000AA,false,Rx,9,2,AA,04,00,00,00,00,00,00,
7716504,00000040,false,Rx,9,3,B0,01,10,00,00,00,00,00,
7719553,0000029C,false,Rx,9,3,03,00,1A,00,00,00,00,00,
7721986,00000010,false,Rx,9,7,B0,01,10,11,10,0D,00,00,
7724825,00000008,false,Rx,9,7,B0,01,10,0F,FF,07,00,00,
7734304,000000AA,false,Rx,9,2,AA,04,00,00,00,00,00,00,
7736555,00000040,false,Rx,9,3,B0,01,10,00,00,00,00,00,
7738273,000002BC,false,Rx,9,3,03,00,0B,00,00,00,00,00,
7740308,00000010,false,Rx,9,7,B0,01,10,11,10,0D,00,00,
7744798,00000008,false,Rx,9,7,B0,01,10,0C,BB,0F,FF,00,
7746001,00000008,false,Rx,9,7,B0,0E,00,0D,00,07,00,00,
7753653,000000AA,false,Rx,9,2,AA,04,00,00,00,00,00,00,
7756536,00000040,false,Rx,9,3,B0,01,10,00,00,00,00,00,
7758285,000002B4,false,Rx,9,3,03,00,0A,00,00,00,00,00,
7760398,00000010,false,Rx,9,7,B0,01,10,11,10,0D,00,00,
7764917,00000008,false,Rx,9,7,B0,01,10,0F,FF,07,00,00,
7774282,000000AA,false,Rx,9,2,AA,04,00,00,00,00,00,00,
7776530,00000040,false,Rx,9,3,B0,01,10,00,00,00,00,00,
7778247,000003AC,false,Rx,9,3,03,00,1D,00,00,00,00,00,
7780285,00000010,false,Rx,9,7,B0,01,10,11,10,0D,00,00,
7784918,00000008,false,Rx,9,7,B0,01,10,0F,FF,07,00,00,
7794439,000000AA,false,Rx,9,2,AA,04,00,00,00,00,00,00,
7796707,00000040,false,Rx,9,3,B0,01,10,00,00,00,00,00,
7798424,000003A4,false,Rx,9,3,03,00,2C,00,00,00,00,00,
7800458,00000010,false,Rx,9,7,B0,01,10,11,10,0D,00,00,
7804906,00000008,false,Rx,9,7,B0,01,10,0F,FF,07,00,00,
7814285,000000AA,false,Rx,9,2,AA,04,00,00,00,00,00,00,
7816531,00000040,false,Rx,9,3,B0,01,10,00,00,00,00,00,
7820284,00000010,false,Rx,9,7,B0,01,10,11,10,0D,00,00,
7824876,00000008,false,Rx,9,7,B0,01,10,0F,FF,07,00,00,
7834410,000000AA,false,Rx,9,2,AA,04,00,00,00,00,00,00,
7836565,00000040,false,Rx,9,3,B0,01,10,00,00,00,00,00,
7839564,0000029C,false,Rx,9,3,03,00,1A,00,00,00,00,00,
7840649,00000010,false,Rx,9,7,B0,01,10,11,10,0D,00,00,
7844856,00000008,false,Rx,9,7,B0,01,10,0F,FF,07,00,00,
7854310,000000AA,false,Rx,9,2,AA,04,00,00,00,00,00,00,
7856556,00000040,false,Rx,9,3,B0,01,10,00,00,00,00,00,
7858378,000002BC,false,Rx,9,3,03,00,0B,00,00,00,00,00,
7860413,00000010,false,Rx,9,7,B0,01,10,11,10,0D,00,00,
7864852,00000008,false,Rx,9,7,B0,01,10,0F,FF,07,00,00,
7874497,000000AA,false,Rx,9,2,AA,04,00,00,00,00,00,00,
7876969,00000040,false,Rx,9,6,B0,01,10,92,FF,FF,00,00,
7878578,00000040,false,Rx,9,8,B0,93,E5,00,14,00,2C,B3,
7880083,000002B4,false,Rx,9,3,03,00,0A,00,00,00,00,00,
7882518,00000010,false,Rx,9,7,B0,01,10,11,10,0D,00,00,
7885164,00000008,false,Rx,9,7,B0,01,10,0F,FF,07,00,00,
7893740,000000AA,false,Rx,9,2,AA,04,00,00,00,00,00,00,
7896693,00000040,false,Rx,9,3,B0,01,10,00,00,00,00,00,
7898415,000003AC,false,Rx,9,3,03,00,1D,00,00,00,00,00,
7900451,00000010,false,Rx,9,7,B0,01,10,11,10,0E,00,00,
7902553,00000010,false,Rx,9,3,B0,0D,00,00,00,00,00,00,
7904959,00000008,false,Rx,9,7,B0,01,10,0F,FF,07,00,00,
7913694,000000AA,false,Rx,9,2,AA,04,00,00,00,00,00,00,
7916700,00000040,false,Rx,9,3,B0,01,10,00,00,00,00,00,
7918415,000003A4,false,Rx,9,3,03,00,2C,00,00,00,00,00,
7920451,00000010,false,Rx,9,7,B0,01,10,11,10,0D,00,00,
7924906,00000008,false,Rx,9,7,B0,01,10,0F,FF,07,00,00,
7933754,000000AA,false,Rx,9,2,AA,04,00,00,00,00,00,00,
7936636,00000040,false,Rx,9,3,B0,01,10,00,00,00,00,00,
7940368,00000010,false,Rx,9,7,B0,01,10,11,10,0D,00,00,
7944759,00000008,false,Rx,9,7,B0,01,10,0C,BB,0F,FF,00,
7946019,00000008,false,Rx,9,7,B0,0E,00,0D,00,07,00,00,
7953772,000000AA,false,Rx,9,2,AA,04,00,00,00,00,00,00,
7956674,00000040,false,Rx,9,3,B0,01,10,00,00,00,00,00,
7959783,0000029C,false,Rx,9,3,03,00,1A,00,00,00,00,00,
7960779,00000010,false,Rx,9,7,B0,01,10,11,10,0D,00,00,
7964850,00000008,false,Rx,9,7,B0,01,10,0F,FF,07,00,00,
7973782,000000AA,false,Rx,9,2,AA,04,00,00,00,00,00,00,
7976772,00000040,false,Rx,9,3,B0,01,10,00,00,00,00,00,
7978491,000002BC,false,Rx,9,3,03,00,0B,00,00,00,00,00,
7980526,00000010,false,Rx,9,7,B0,01,10,11,10,0D,00,00,
7984961,00000008,false,Rx,9,7,B0,01,10,0F,FF,07,00,00,
7994409,000000AA,false,Rx,9,2,AA,04,00,00,00,00,00,00,
7996662,00000040,false,Rx,9,3,B0,01,10,00,00,00,00,00,
7998382,000002B4,false,Rx,9,3,03,00,0A,00,00,00,00,00,
8000415,00000010,false,Rx,9,7,B0,01,10,11,10,0D,00,00,
8004856,00000008,false,Rx,9,7,B0,01,10,0F,FF,07,00,00,
8013812,000000AA,false,Rx,9,2,AA,04,00,00,00,00,00,00,
8016695,00000040,false,Rx,9,3,B0,01,10,00,00,00,00,00,
8018413,000003AC,false,Rx,9,3,03,00,1D,00,00,00,00,00,
8020449,00000010,false,Rx,9,7,B0,01,10,11,10,0D,00,00,
8024879,00000008,false,Rx,9,7,B0,01,10,0F,FF,07,00,00,
8033880,000000AA,false,Rx,9,2,AA,04,00,00,00,00,00,00,
8036674,00000040,false,Rx,9,3,B0,01,10,00,00,00,00,00,
8038390,000003A4,false,Rx,9,3,03,00,2C,00,00,00,00,00,
8040533,00000010,false,Rx,9,7,B0,01,10,11,10,0D,00,00,
8044847,00000008,false,Rx,9,7,B0,01,10,0F,FF,07,00,00,
8054442,000000AA,false,Rx,9,2,AA,04,00,00,00,00,00,00,
8056687,00000040,false,Rx,9,3,B0,01,10,00,00,00,00,00,
8060414,00000010,false,Rx,9,7,B0,01,10,11,10,0D,00,00,
8064867,00000008,false,Rx,9,7,B0,01,10,0F,FF,07,00,00,
8065663,00000010,false,Rx,9,4,30,08,00,2D,00,00,00,00,
8066753,00000010,false,Rx,9,4,31,08,00,2C,00,00,00,00,
8067781,00000040,false,Rx,9,3,B0,2D,A6,00,00,00,00,00,
8073763,000000AA,false,Rx,9,2,AA,04,00,00,00,00,00,00,
8077074,00000040,false,Rx,9,6,B0,01,10,92,FF,FF,00,00,
8078682,00000040,false,Rx,9,8,B0,93,E5,00,14,00,2D,A6,
8081415,0000029C,false,Rx,9,3,03,00,1A,00,00,00,00,00,
8083226,00000010,false,Rx,9,7,B0,01,10,11,10,0D,00,00,
8085320,00000008,false,Rx,9,7,B0,01,10,0F,FF,07,00,00,
8093852,000000AA,false,Rx,9,2,AA,04,00,00,00,00,00,00,
8096748,00000040,false,Rx,9,3,B0,01,10,00,00,00,00,00,
8098493,000002BC,false,Rx,9,3,03,00,0B,00,00,00,00,00,
8100533,00000010,false,Rx,9,7,B0,01,10,11,10,0E,00,00,
8101401,00000010,false,Rx,9,3,B0,0D,00,00,00,00,00,00,
8105098,00000008,false,Rx,9,7,B0,01,10,0F,FF,07,00,00,
8113823,000000AA,false,Rx,9,2,AA,04,00,00,00,00,00,00,
8116718,00000040,false,Rx,9,3,B0,01,10,00,00,00,00,00,
8118436,000002B4,false,Rx,9,3,03,00,0A,00,00,00,00,00,
8120518,00000010,false,Rx,9,7,B0,01,10,11,10,0D,00,00,
8124883,00000008,false,Rx,9,7,B0,01,10,0F,FF,07,00,00,
8133880,000000AA,false,Rx,9,2,AA,04,00,00,00,00,00,00,
8136777,00000040,false,Rx,9,3,B0,01,10,00,00,00,00,00,
8139027,000003AC,false,Rx,9,3,03,00,1D,00,00,00,00,00,
8140531,00000010,false,Rx,9,7,B0,01,10,11,10,0D,00,00,
8144753,00000008,false,Rx,9,7,B0,01,10,0C,BB,0F,FF,00,
8145992,00000008,false,Rx,9,7,B0,0E,00,0D,00,07,00,00,
8153821,000000AA,false,Rx,9,2,AA,04,00,00,00,00,00,00,
8156725,00000040,false,Rx,9,3,B0,01,10,00,00,00,00,00,
8159398,000003A4,false,Rx,9,3,03,00,2C,00,00,00,00,00,
8160478,00000010,false,Rx,9,7,B0,01,10,11,10,0D,00,00,
8164948,00000008,false,Rx,9,7,B0,01,10,0F,FF,07,00,00,
8174528,000000AA,false,Rx,9,2,AA,04,00,00,00,00,00,00,
8176683,00000040,false,Rx,9,3,B0,01,10,00,00,00,00,00,
8180413,00000010,false,Rx,9,7,B0,01,10,11,10,0D,00,00,
8184881,00000008,false,Rx,9,7,B0,01,10,0F,FF,07,00,00,
8193837,000000AA,false,Rx,9,2,AA,04,00,00,00,00,00,00,
8196768,00000040,false,Rx,9,3,B0,01,10,00,00,00,00,00,
8199825,0000029C,false,Rx,9,3,03,00,1A,00,00,00,00,00,
8200828,00000010,false,Rx,9,7,B0,01,10,11,10,0D,00,00,
8204987,00000008,false,Rx,9,7,B0,01,10,0F,FF,07,00,00,
8214516,000000AA,false,Rx,9,2,AA,04,00,00,00,00,00,00,
8216774,00000040,false,Rx,9,3,B0,01,10,00,00,00,00,00,
8218491,000002BC,false,Rx,9,3,03,00,0B,00,00,00,00,00,
8220526,00000010,false,Rx,9,7,B0,01,10,11,10,0D,00,00,
8224894,00000008,false,Rx,9,7,B0,01,10,0F,FF,07,00,00,
8234554,000000AA,false,Rx,9,2,AA,04,00,00,00,00,00,00,
8236732,00000040,false,Rx,9,3,B0,01,10,00,00,00,00,00,
8238467,000002B4,false,Rx,9,3,03,00,0A,00,00,00,00,00,
8240506,00000010,false,Rx,9,7,B0,01,10,11,10,0D,00,00,
8244883,00000008,false,Rx,9,7,B0,01,10,0F,FF,07,00,00,
8253917,000000AA,false,Rx,9,2,AA,04,00,00,00,00,00,00,
8256800,00000040,false,Rx,9,3,B0,01,10,00,00,00,00,00,
8258521,000003AC,false,Rx,9,3,03,00,1D,00,00,00,00,00,
8260553,00000010,false,Rx,9,7,B0,01,10,11,10,0D,00,00,
8264895,00000008,false,Rx,9,7,B0,01,10,0F,FF,07,00,00,
8273883,000000AA,false,Rx,9,2,AA,04,00,00,00,00,00,00,
8277216,00000040,false,Rx,9,6,B0,01,10,92,FF,FF,00,00,
8278822,00000040,false,Rx,9,8,B0,93,E5,00,14,00,2D,A6,
8280225,000003A4,false,Rx,9,3,03,00,2C,00,00,00,00,00,
8281833,00000010,false,Rx,9,7,B0,01,10,11,10,0D,00,00,
8285234,00000008,false,Rx,9,7,B0,01,10,0F,FF,07,00,00,
8293942,000000AA,false,Rx,9,2,AA,04,00,00,00,00,00,00,
8296833,00000040,false,Rx,9,3,B0,01,10,00,00,00,00,00,
8300524,00000010,false,Rx,9,7,B0,01,10,11,10,0E,00,00,
8301398,00000010,false,Rx,9,3,B0,0D,00,00,00,00,00,00,
8305055,00000008,false,Rx,9,7,B0,01,10,0F,FF,07,00,00,
8314499,000000AA,false,Rx,9,2,AA,04,00,00,00,00,00,00,
8316759,00000040,false,Rx,9,3,B0,01,10,00,00,00,00,00,
8319812,0000029C,false,Rx,9,3,03,00,1A,00,00,00,00,00,
8320893,00000010,false,Rx,9,7,B0,01,10,11,10,0D,00,00,
8325003,00000008,false,Rx,9,7,B0,01,10,0F,FF,07,00,00,
8333966,000000AA,false,Rx,9,2,AA,04,00,00,00,00,00,00,
8336867,00000040,false,Rx,9,3,B0,01,10,00,00,00,00,00,
8338588,000002BC,false,Rx,9,3,03,00,0B,00,00,00,00,00,
8340623,00000010,false,Rx,9,7,B0,01,10,11,10,0D,00,00,
8344735,00000008,false,Rx,9,7,B0,01,10,0C,BB,0F,FF,00,
8345961,00000008,false,Rx,9,7,B0,0E,00,0D,0E,07,00,00,
8354567,000000AA,false,Rx,9,2,AA,04,00,00,00,00,00,00,
8356707,00000040,false,Rx,9,3,B0,01,10,00,00,00,00,00,
8358847,000002B4,false,Rx,9,3,03,00,0A,00,00,00,00,00,
8360566,00000010,false,Rx,9,7,B0,01,10,11,10,0D,00,00,
8364893,00000008,false,Rx,9,7,B0,01,10,0F,FF,07,00,00,
8373983,000000AA,false,Rx,9,2,AA,04,00,00,00,00,00,00,
8376978,00000040,false,Rx,9,3,B0,01,10,00,00,00,00,00,
8378693,000003AC,false,Rx,9,3,03,00,1D,00,00,00,00,00,
8380623,00000010,false,Rx,9,7,B0,01,10,11,10,0D,00,00,
8384905,00000008,false,Rx,9,7,B0,01,10,0F,FF,07,00,00,
8393973,000000AA,false,Rx,9,2,AA,04,00,00,00,00,00,00,
8396851,00000040,false,Rx,9,3,B0,01,10,00,00,00,00,00,
8398569,000003A4,false,Rx,9,3,03,00,2C,00,00,00,00,00,
8400602,00000010,false,Rx,9,7,B0,01,10,11,10,0D,00,00,
8404902,00000008,false,Rx,9,7,B0,01,10,0F,FF,07,00,00,
8413946,000000AA,false,Rx,9,2,AA,04,00,00,00,00,00,00,
8416858,00000040,false,Rx,9,3,B0,01,10,00,00,00,00,00,
8420484,00000010,false,Rx,9,7,B0,01,10,11,10,0D,00,00,
8424851,00000008,false,Rx,9,7,B0,01,10,0F,FF,07,00,00,
8433947,000000AA,false,Rx,9,2,AA,04,00,00,00,00,00,00,
8436839,00000040,false,Rx,9,3,B0,01,10,00,00,00,00,00,
8439890,0000029C,false,Rx,9,3,03,00,1A,00,00,00,00,00,
8440976,00000010,false,Rx,9,7,B0,01,10,11,10,0D,00,00,
8444940,00000008,false,Rx,9,7,B0,01,10,0F,FF,07,00,00,
8453973,000000AA,false,Rx,9,2,AA,04,00,00,00,00,00,00,
8456978,00000040,false,Rx,9,3,B0,01,10,00,00,00,00,00,
8458693,000002BC,false,Rx,9,3,03,00,0B,00,00,00,00,00,
8460575,00000010,false,Rx,9,7,B0,01,10,11,10,0D,00,00,
8464902,00000008,false,Rx,9,7,B0,01,10,0F,FF,07,00,00,
8465695,00000010,false,Rx,9,4,30,08,00,2E,00,00,00,00,
8466879,00000010,false,Rx,9,4,31,08,00,2D,00,00,00,00,
8467748,00000040,false,Rx,9,3,B0,2E,CC,00,00,00,00,00,
8474656,000000AA,false,Rx,9,2,AA,04,00,00,00,00,00,00,
8477115,00000040,false,Rx,9,6,B0,01,10,92,FF,FF,00,00,
8478722,00000040,false,Rx,9,8,B0,93,E5,00,14,00,2E,CC,
8480230,000002B4,false,Rx,9,3,03,00,0A,00,00,00,00,00,
8482159,00000010,false,Rx,9,7,B0,01,10,11,10,0D,00,00,
8485139,00000008,false,Rx,9,7,B0,01,10,0F,FF,07,00,00,
8493987,000000AA,false,Rx,9,2,AA,04,00,00,00,00,00,00,
8496992,00000040,false,Rx,9,3,B0,01,10,00,00,00,00,00,
8499658,000003AC,false,Rx,9,3,03,00,1D,00,00,00,00,00,
8500739,00000010,false,Rx,9,7,B0,01,10,11,10,0E,00,00,
8501930,00000010,false,Rx,9,3,B0,0D,00,00,00,00,00,00,
8505049,00000008,false,Rx,9,7,B0,01,10,0F,FF,07,00,00,
8514035,000000AA,false,Rx,9,2,AA,04,00,00,00,00,00,00,
8516917,00000040,false,Rx,9,3,B0,01,10,00,00,00,00,00,
8518637,000003A4,false,Rx,9,3,03,00,2C,00,00,00,00,00,
8520566,00000010,false,Rx,9,7,B0,01,10,11,10,0D,00,00,
8524911,00000008,false,Rx,9,7,B0,01,10,0F,FF,07,00,00,
8534049,000000AA,false,Rx,9,2,AA,04,00,00,00,00,00,00,
8537048,00000040,false,Rx,9,3,B0,01,10,00,00,00,00,00,
8540566,00000010,false,Rx,9,7,B0,01,10,11,10,0D,00,00,
8551334,00001000,true,Rx,9,8,00,00,00,12,00,00,02,06,
8552700,00001001,true,Rx,9,8,00,00,00,00,00,00,00,00,
8554046,00001002,true,Rx,9,8,00,00,00,00,00,00,00,00,
8544811,00000008,false,Rx,9,7,B0,01,10,0C,BB,0F,FF,00,
8546033,00000008,false,Rx,9,7,B0,0E,00,0D,0E,07,00,00,
8555468,000000AA,false,Rx,9,2,AA,04,00,00,00,00,00,00,
8556972,00000040,false,Rx,9,3,B0,01,10,00,00,00,00,00,
8559943,0000029C,false,Rx,9,3,03,00,1A,00,00,00,00,00,
8560955,00000010,false,Rx,9,7,B0,01,10,11,10,0D,00,00,
8564949,00000008,false,Rx,9,7,B0,01,10,0F,FF,07,00,00,
8574006,000000AA,false,Rx,9,2,AA,04,00,00,00,00,00,00,
8576882,00000040,false,Rx,9,3,B0,01,10,00,00,00,00,00,
8578602,000002BC,false,Rx,9,3,03,00,0B,00,00,00,00,00,
8580637,00000010,false,Rx,9,7,B0,01,10,11,10,0D,00,00,
8584874,00000008,false,Rx,9,7,B0,01,10,0F,FF,07,00,00,
8594028,000000AA,false,Rx,9,2,AA,04,00,00,00,00,00,00,
8596917,00000040,false,Rx,9,3,B0,01,10,00,00,00,00,00,
8598739,000002B4,false,Rx,9,3,03,00,0A,00,00,00,00,00,
8600668,00000010,false,Rx,9,7,B0,01,10,11,10,0D,00,00,
8604927,00000008,false,Rx,9,7,B0,01,10,0F,FF,07,00,00,
8614042,000000AA,false,Rx,9,2,AA,04,00,00,00,00,00,00,
8616946,00000040,false,Rx,9,3,B0,01,10,00,00,00,00,00,
8618698,000003AC,false,Rx,9,3,03,00,1D,00,00,00,00,00,
8620637,00000010,false,Rx,9,7,B0,01,10,11,10,0D,00,00,
8624889,00000008,false,Rx,9,7,B0,01,10,0F,FF,07,00,00,
8634040,000000AA,false,Rx,9,2,AA,04,00,00,00,00,00,00,
8636943,00000040,false,Rx,9,3,B0,01,10,00,00,00,00,00,
8638657,000003A4,false,Rx,9,3,03,00,2C,00,00,00,00,00,
8640584,00000010,false,Rx,9,7,B0,01,10,11,10,0D,00,00,
8644915,00000008,false,Rx,9,7,B0,01,10,0F,FF,07,00,00,
8654084,000000AA,false,Rx,9,2,AA,04,00,00,00,00,00,00,
8656969,00000040,false,Rx,9,3,B0,01,10,00,00,00,00,00,
8660590,00000010,false,Rx,9,7,B0,01,10,11,10,0D,00,00,
8664926,00000008,false,Rx,9,7,B0,01,10,0F,FF,07,00,00,
8674104,000000AA,false,Rx,9,2,AA,04,00,00,00,00,00,00,
8677313,00000040,false,Rx,9,6,B0,01,10,92,FF,FF,00,00,
8678927,00000040,false,Rx,9,8,B0,93,E5,00,14,00,2E,CC,
8681655,0000029C,false,Rx,9,3,03,00,1A,00,00,00,00,00,
8682630,00000010,false,Rx,9,7,B0,01,10,11,10,0D,00,00,
8685326,00000008,false,Rx,9,7,B0,01,10,0F,FF,07,00,00,
8694688,000000AA,false,Rx,9,2,AA,04,00,00,00,00,00,00,
8697042,00000040,false,Rx,9,3,B0,01,10,00,00,00,00,00,
8698753,000002BC,false,Rx,9,3,03,00,0F,00,00,00,00,00,
8700577,00000010,false,Rx,9,7,B0,01,10,11,10,0E,00,00,
8701449,00000010,false,Rx,9,3,B0,0D,00,00,00,00,00,00,
8705069,00000008,false,Rx,9,7,B0,01,10,0F,FF,07,00,00,
8714822,000000AA,false,Rx,9,2,AA,04,00,00,00,00,00,00,
8717298,00000040,false,Rx,9,3,B0,01,20,00,00,00,00,00,
8719543,000002B4,false,Rx,9,3,03,00,0A,00,00,00,00,00,
8720622,00000010,false,Rx,9,7,B0,01,10,11,20,0D,00,00,
8724972,00000008,false,Rx,9,7,B0,01,20,0F,FF,07,00,00,
8734037,000000AA,false,Rx,9,2,AA,04,00,00,00,00,00,00,
8737026,00000040,false,Rx,9,3,B0,01,20,00,00,00,00,00,
8738738,000003AC,false,Rx,9,3,03,00,1D,00,00,00,00,00,
8740774,00000010,false,Rx,9,7,B0,01,20,11,20,0D,00,00,
8745045,00000008,false,Rx,9,7,B0,01,20,0C,BB,0F,FF,00,
8746151,00000008,false,Rx,9,7,B0,0E,00,0D,0E,07,00,00,
8754852,000000AA,false,Rx,9,2,AA,04,00,00,00,00,00,00,
8757007,00000040,false,Rx,9,3,B0,01,20,00,00,00,00,00,
8758722,000003A4,false,Rx,9,3,03,00,2C,00,00,00,00,00,
8760863,00000010,false,Rx,9,7,B0,01,20,11,20,0D,00,00,
8765195,00000008,false,Rx,9,7,B0,01,20,0F,FF,07,00,00,
8774791,000000AA,false,Rx,9,2,AA,04,00,00,00,00,00,00,
8777042,00000040,false,Rx,9,3,B0,01,20,00,00,00,00,00,
8780764,00000010,false,Rx,9,7,B0,01,20,11,20,0D,00,00,
8785079,00000008,false,Rx,9,7,B0,01,20,0F,FF,07,00,00,
8794844,000000AA,false,Rx,9,2,AA,04,00,00,00,00,00,00,
8797004,00000040,false,Rx,9,3,B0,01,20,00,00,00,00,00,
8800052,0000029C,false,Rx,9,3,03,00,1A,00,00,00,00,00,
8801577,00000010,false,Rx,9,7,B0,01,20,11,20,0D,00,00,
8805404,00000008,false,Rx,9,7,B0,01,20,0F,FF,07,00,00,
8814087,000000AA,false,Rx,9,2,AA,04,00,00,00,00,00,00,
8817217,00000040,false,Rx,9,3,B0,01,20,00,00,00,00,00,
8818941,000002BC,false,Rx,9,3,03,00,0F,00,00,00,00,00,
8820866,00000010,false,Rx,9,7,B0,01,20,11,20,0D,00,00,
8825114,00000008,false,Rx,9,7,B0,01,20,0F,FF,07,00,00,
8834906,000000AA,false,Rx,9,2,AA,04,00,00,00,00,00,00,
8837069,00000040,false,Rx,9,3,B0,01,20,00,00,00,00,00,
8838785,000002B4,false,Rx,9,3,03,00,0A,00,00,00,00,00,
8840865,00000010,false,Rx,9,7,B0,01,20,11,20,0D,00,00,
8845140,00000008,false,Rx,9,7,B0,01,20,0F,FF,07,00,00,
8854098,000000AA,false,Rx,9,2,AA,04,00,00,00,00,00,00,
8857084,00000040,false,Rx,9,3,B0,01,20,00,00,00,00,00,
8858903,000003AC,false,Rx,9,3,03,00,1D,00,00,00,00,00,
8860833,00000010,false,Rx,9,7,B0,01,20,11,20,0D,00,00,
8865193,00000008,false,Rx,9,7,B0,01,20,0F,FF,07,00,00,
8865912,00000010,false,Rx,9,4,30,08,00,2F,00,00,00,00,
8866998,00000010,false,Rx,9,4,31,08,00,2E,00,00,00,00,
8867974,00000040,false,Rx,9,3,B0,2F,66,00,00,00,00,00,
8874184,000000AA,false,Rx,9,2,AA,04,00,00,00,00,00,00,
8877408,00000040,false,Rx,9,6,B0,01,20,92,FF,FF,00,00,
8879021,00000040,false,Rx,9,8,B0,93,E5,00,14,00,2F,66,
8880419,000003A4,false,Rx,9,3,03,00,2C,00,00,00,00,00,
8882371,00000010,false,Rx,9,7,B0,01,20,11,20,0D,00,00,
8885358,00000008,false,Rx,9,7,B0,01,20,0F,FF,07,00,00,
8894111,000000AA,false,Rx,9,2,AA,04,00,00,00,00,00,00,
8897308,00000040,false,Rx,9,3,B0,01,20,00,00,00,00,00,
8900717,00000010,false,Rx,9,7,B0,01,20,11,20,0E,00,00,
8901903,00000010,false,Rx,9,3,B0,0D,00,00,00,00,00,00,
8905278,00000008,false,Rx,9,7,B0,01,20,0F,FF,07,00,00,
8914172,000000AA,false,Rx,9,2,AA,04,00,00,00,00,00,00,
8917259,00000040,false,Rx,9,3,B0,01,20,00,00,00,00,00,
8920140,0000029C,false,Rx,9,3,03,00,1A,00,00,00,00,00,
8921664,00000010,false,Rx,9,7,B0,01,20,11,20,0D,00,00,
8925464,00000008,false,Rx,9,7,B0,01,20,0F,FF,07,00,00,
8934217,000000AA,false,Rx,9,2,AA,04,00,00,00,00,00,00,
8937208,00000040,false,Rx,9,3,B0,01,20,00,00,00,00,00,
8938927,000002BC,false,Rx,9,3,03,00,0F,00,00,00,00,00,
8940851,00000010,false,Rx,9,7,B0,01,20,11,20,0D,00,00,
8945419,00000008,false,Rx,9,7,B0,01,20,0C,BB,0F,FF,00,
8946241,00000008,false,Rx,9,7,B0,0E,00,0D,0E,07,00,00,
8954237,000000AA,false,Rx,9,2,AA,04,00,00,00,00,00,00,
8957134,00000040,false,Rx,9,3,B0,01,20,00,00,00,00,00,
8958904,000002B4,false,Rx,9,3,03,00,0A,00,00,00,00,00,
8960887,00000010,false,Rx,9,7,B0,01,20,11,20,0D,00,00,
8965370,00000008,false,Rx,9,7,B0,01,20,0F,FF,07,00,00,
8974176,000000AA,false,Rx,9,2,AA,04,00,00,00,00,00,00,
8977280,00000040,false,Rx,9,3,B0,01,20,00,00,00,00,00,
8978888,000003AC,false,Rx,9,3,03,00,1D,00,00,00,00,00,
8980817,00000010,false,Rx,9,7,B0,01,20,11,20,0D,00,00,
8985477,00000008,false,Rx,9,7,B0,01,20,0F,FF,07,00,00,
8994257,000000AA,false,Rx,9,2,AA,04,00,00,00,00,00,00,
8997154,00000040,false,Rx,9,3,B0,01,20,00,00,00,00,00,
8998866,000003A4,false,Rx,9,3,03,00,2C,00,00,00,00,00,
9000899,00000010,false,Rx,9,7,B0,01,20,11,20,0D,00,00,
9005492,00000008,false,Rx,9,7,B0,01,20,0F,FF,07,00,00,
9014939,000000AA,false,Rx,9,2,AA,04,00,00,00,00,00,00,
9017134,00000040,false,Rx,9,3,B0,01,20,00,00,00,00,00,
9020763,00000010,false,Rx,9,7,B0,01,20,11,20,0D,00,00,
9025647,00000008,false,Rx,9,7,B0,01,20,0F,FF,07,00,00,
9034974,000000AA,false,Rx,9,2,AA,04,00,00,00,00,00,00,
9037130,00000040,false,Rx,9,3,B0,01,20,00,00,00,00,00,
9040180,0000029C,false,Rx,9,3,03,00,1A,00,00,00,00,00,
9041701,00000010,false,Rx,9,7,B0,01,20,11,20,0D,00,00,
9045647,00000008,false,Rx,9,7,B0,01,20,0F,FF,07,00,00,
9054997,000000AA,false,Rx,9,2,AA,04,00,00,00,00,00,00,
9057148,00000040,false,Rx,9,3,B0,01,20,00,00,00,00,00,
9058864,000002BC,false,Rx,9,3,03,00,0F,00,00,00,00,00,
9060898,00000010,false,Rx,9,7,B0,01,20,11,20,0D,00,00,
9065765,00000008,false,Rx,9,7,B0,01,20,0F,FF,07,00,00,
9074951,000000AA,false,Rx,9,2,AA,04,00,00,00,00,00,00,
9077431,00000040,false,Rx,9,6,B0,01,20,92,FF,FF,00,00,
9079042,00000040,false,Rx,9,8,B0,93,E5,00,14,00,2F,66,
9080548,000002B4,false,Rx,9,3,03,00,0A,00,00,00,00,00,
9082370,00000010,false,Rx,9,7,B0,01,20,11,20,0D,00,00,
9085870,00000008,false,Rx,9,7,B0,01,20,0F,FF,07,00,00,
9094213,000000AA,false,Rx,9,2,AA,04,00,00,00,00,00,00,
9097203,00000040,false,Rx,9,3,B0,01,20,00,00,00,00,00,
9098917,000003AC,false,Rx,9,3,03,00,1D,00,00,00,00,00,
9100847,00000010,false,Rx,9,7,B0,01,20,11,20,0E,00,00,
9102037,00000010,false,Rx,9,3,B0,0D,00,00,00,00,00,00,
9105945,00000008,false,Rx,9,7,B0,01,20,0F,FF,07,00,00,
9114304,000000AA,false,Rx,9,2,AA,04,00,00,00,00,00,00,
9117413,00000040,false,Rx,9,3,B0,01,20,00,00,00,00,00,
9119087,000003A4,false,Rx,9,3,03,00,2C,00,00,00,00,00,
9120911,00000010,false,Rx,9,7,B0,01,20,11,20,0D,00,00,
9126035,00000008,false,Rx,9,7,B0,01,20,0F,FF,07,00,00,
9134308,000000AA,false,Rx,9,2,AA,04,00,00,00,00,00,00,
9137214,00000040,false,Rx,9,3,B0,01,20,00,00,00,00,00,
9140836,00000010,false,Rx,9,7,B0,01,20,11,20,0D,00,00,
9146049,00000008,false,Rx,9,7,B0,01,20,0C,BB,0F,FF,00,
9146228,00000008,false,Rx,9,7,B0,0E,00,0D,0E,07,00,00,
9154274,000000AA,false,Rx,9,2,AA,04,00,00,00,00,00,00,
9157161,00000040,false,Rx,9,3,B0,01,20,00,00,00,00,00,
9160211,0000029C,false,Rx,9,3,03,00,1A,00,00,00,00,00,
9161736,00000010,false,Rx,9,7,B0,01,20,11,20,0D,00,00,
9166163,00000008,false,Rx,9,7,B0,01,20,0F,FF,07,00,00,
9174326,000000AA,false,Rx,9,2,AA,04,00,00,00,00,00,00,
9177220,00000040,false,Rx,9,3,B0,01,20,00,00,00,00,00,
9178937,000002BC,false,Rx,9,3,03,00,0F,00,00,00,00,00,
9180858,00000010,false,Rx,9,7,B0,01,20,11,20,0D,00,00,
9186262,00000008,false,Rx,9,7,B0,01,20,0F,FF,07,00,00,
9194282,000000AA,false,Rx,9,2,AA,04,00,00,00,00,00,00,
9197273,00000040,false,Rx,9,3,B0,01,20,00,00,00,00,00,
9198992,000002B4,false,Rx,9,3,03,00,0A,00,00,00,00,00,
9200917,00000010,false,Rx,9,7,B0,01,20,11,20,0D,00,00,
9206325,00000008,false,Rx,9,7,B0,01,20,0F,FF,07,00,00,
9215093,000000AA,false,Rx,9,2,AA,04,00,00,00,00,00,00,
9217248,00000040,false,Rx,9,3,B0,01,20,00,00,00,00,00,
9218969,000003AC,false,Rx,9,3,03,00,1D,00,00,00,00,00,
9220851,00000010,false,Rx,9,7,B0,01,20,11,20,0D,00,00,
9226423,00000008,false,Rx,9,7,B0,01,20,0F,FF,07,00,00,
9234320,000000AA,false,Rx,9,2,AA,04,00,00,00,00,00,00,
9237310,00000040,false,Rx,9,3,B0,01,20,00,00,00,00,00,
9239026,000003A4,false,Rx,9,3,03,00,2C,00,00,00,00,00,
9240954,00000010,false,Rx,9,7,B0,01,20,11,20,0D,00,00,
9246467,00000008,false,Rx,9,7,B0,01,20,0F,FF,07,00,00,
9255128,000000AA,false,Rx,9,2,AA,04,00,00,00,00,00,00,
9257394,00000040,false,Rx,9,3,B0,01,20,00,00,00,00,00,
9260806,00000010,false,Rx,9,7,B0,01,20,11,20,0D,00,00,
9266467,00000008,false,Rx,9,7,B0,01,20,0F,FF,07,00,00,
9266488,00000010,false,Rx,9,4,30,08,00,30,00,00,00,00,
9267021,00000010,false,Rx,9,4,31,08,00,2F,00,00,00,00,
9268011,00000040,false,Rx,9,3,B0,30,99,00,00,00,00,00,
9275132,000000AA,false,Rx,9,2,AA,04,00,00,00,00,00,00,
9277695,00000040,false,Rx,9,6,B0,01,20,92,FF,FF,00,00,
9279203,00000040,false,Rx,9,8,B0,93,E5,00,14,00,30,99,
9281937,0000029C,false,Rx,9,3,03,00,1A,00,00,00,00,00,
9283018,00000010,false,Rx,9,7,B0,01,20,11,20,0D,00,00,
9286457,00000008,false,Rx,9,7,B0,01,20,0F,FF,07,00,00,
9295080,000000AA,false,Rx,9,2,AA,04,00,00,00,00,00,00,
9297341,00000040,false,Rx,9,3,B0,01,20,00,00,00,00,00,
9299059,000002BC,false,Rx,9,3,03,00,0F,00,00,00,00,00,
9300879,00000010,false,Rx,9,7,B0,01,20,11,20,0E,00,00,
9302069,00000010,false,Rx,9,3,B0,0D,00,00,00,00,00,00,
9306607,00000008,false,Rx,9,7,B0,01,20,0F,FF,07,00,00,
9314304,000000AA,false,Rx,9,2,AA,04,00,00,00,00,00,00,
9317295,00000040,false,Rx,9,3,B0,01,20,00,00,00,00,00,
9319013,000002B4,false,Rx,9,3,03,00,02,00,00,00,00,00,
9320943,00000010,false,Rx,9,7,B0,01,20,11,20,0D,00,00,
9326672,00000008,false,Rx,9,7,B0,01,20,0F,FF,07,00,00,
9335093,000000AA,false,Rx,9,2,AA,04,00,00,00,00,00,00,
9337353,00000040,false,Rx,9,3,B0,01,20,00,00,00,00,00,
9338969,000003AC,false,Rx,9,3,03,00,1D,00,00,00,00,00,
9340893,00000010,false,Rx,9,7,B0,01,20,11,20,0D,00,00,
9344947,00000008,false,Rx,9,7,B0,01,20,0C,BB,0F,FF,00,
9346746,00000008,false,Rx,9,7,B0,0E,00,0D,0E,07,00,00,
9355088,000000AA,false,Rx,9,2,AA,04,00,00,00,00,00,00,
9357229,00000040,false,Rx,9,3,B0,01,20,00,00,00,00,00,
9358949,000003A4,false,Rx,9,3,03,00,2C,00,00,00,00,00,
9360872,00000010,false,Rx,9,7,B0,01,20,11,20,0D,00,00,
9365132,00000008,false,Rx,9,7,B0,01,20,0F,FF,07,00,00,
9374395,000000AA,false,Rx,9,2,AA,04,00,00,00,00,00,00,
9377302,00000040,false,Rx,9,3,B0,01,20,00,00,00,00,00,
9381166,00000010,false,Rx,9,7,B0,01,20,11,20,0D,00,00,
9385077,00000008,false,Rx,9,7,B0,01,20,0F,FF,07,00,00,
9395117,000000AA,false,Rx,9,2,AA,04,00,00,00,00,00,00,
9397285,00000040,false,Rx,9,3,B0,01,20,00,00,00,00,00,
9400336,0000029C,false,Rx,9,3,03,00,1A,00,00,00,00,00,
9401859,00000010,false,Rx,9,7,B0,01,20,11,20,0D,00,00,
9406936,00000008,false,Rx,9,7,B0,01,20,0F,FF,07,00,00,
9415126,000000AA,false,Rx,9,2,AA,04,00,00,00,00,00,00,
9417280,00000040,false,Rx,9,3,B0,01,20,00,00,00,00,00,
9418998,000002BC,false,Rx,9,3,03,00,0F,00,00,00,00,00,
9420927,00000010,false,Rx,9,7,B0,01,20,11,20,0D,00,00,
9425145,00000008,false,Rx,9,7,B0,01,20,0F,FF,07,00,00,
9435153,000000AA,false,Rx,9,2,AA,04,00,00,00,00,00,00,
9437323,00000040,false,Rx,9,3,B0,01,20,00,00,00,00,00,
9439042,000002B4,false,Rx,9,3,03,00,02,00,00,00,00,00,
9440968,00000010,false,Rx,9,7,B0,01,20,11,20,0D,00,00,
9445120,00000008,false,Rx,9,7,B0,01,20,0F,FF,07,00,00,
9454434,000000AA,false,Rx,9,2,AA,04,00,00,00,00,00,00,
9457442,00000040,false,Rx,9,3,B0,01,20,00,00,00,00,00,
9459159,000003AC,false,Rx,9,3,03,00,1D,00,00,00,00,00,
9460963,00000010,false,Rx,9,7,B0,01,20,11,20,0D,00,00,
9465113,00000008,false,Rx,9,7,B0,01,20,0F,FF,07,00,00,
9474419,000000AA,false,Rx,9,2,AA,04,00,00,00,00,00,00,
9477656,00000040,false,Rx,9,6,B0,01,20,92,FF,FF,00,00,
9479267,00000040,false,Rx,9,8,B0,93,E5,00,14,00,30,99,
9480666,000003A4,false,Rx,9,3,03,00,2C,00,00,00,00,00,
9482489,00000010,false,Rx,9,7,B0,01,20,11,20,0D,00,00,
9485370,00000008,false,Rx,9,7,B0,01,20,0F,FF,07,00,00,
9495166,000000AA,false,Rx,9,2,AA,04,00,00,00,00,00,00,
9497433,00000040,false,Rx,9,3,B0,01,20,00,00,00,00,00,
9500842,00000010,false,Rx,9,7,B0,01,20,11,20,0E,00,00,
9502032,00000010,false,Rx,9,3,B0,0D,00,00,00,00,00,00,
9505231,00000008,false,Rx,9,7,B0,01,20,0F,FF,07,00,00,
9514473,000000AA,false,Rx,9,2,AA,04,00,00,00,00,00,00,
9517595,00000040,false,Rx,9,3,B0,01,20,00,00,00,00,00,
9520541,0000029C,false,Rx,9,3,03,00,1A,00,00,00,00,00,
9521622,00000010,false,Rx,9,7,B0,01,20,11,20,0D,00,00,
9527186,00000008,false,Rx,9,7,B0,01,20,0F,FF,07,00,00,
9534485,000000AA,false,Rx,9,2,AA,04,00,00,00,00,00,00,
9537390,00000040,false,Rx,9,3,B0,01,20,00,00,00,00,00,
9539109,000002BC,false,Rx,9,3,03,00,0F,00,00,00,00,00,
9540932,00000010,false,Rx,9,7,B0,01,20,11,20,0D,00,00,
9544982,00000008,false,Rx,9,7,B0,01,20,0C,BB,0F,FF,00,
9551453,00001000,true,Rx,9,8,00,00,00,13,00,00,03,31,
9552840,00001001,true,Rx,9,8,00,00,00,00,00,00,00,00,
9554168,00001002,true,Rx,9,8,00,00,00,00,00,00,00,00,
9547229,00000008,false,Rx,9,7,B0,0E,00,0D,0E,07,00,00,
9555869,000000AA,false,Rx,9,2,AA,04,00,00,00,00,00,00,
9557400,00000040,false,Rx,9,3,B0,01,20,00,00,00,00,00,
9559132,000002B4,false,Rx,9,3,03,00,0A,00,00,00,00,00,
9561059,00000010,false,Rx,9,7,B0,01,20,11,20,0D,00,00,
9565111,00000008,false,Rx,9,7,B0,01,20,0F,FF,07,00,00,
9574448,000000AA,false,Rx,9,2,AA,04,00,00,00,00,00,00,
9577362,00000040,false,Rx,9,3,B0,01,20,00,00,00,00,00,
9579082,000003AC,false,Rx,9,3,03,00,1D,00,00,00,00,00,
9581010,00000010,false,Rx,9,7,B0,01,20,11,20,0D,00,00,
9585057,00000008,false,Rx,9,7,B0,01,20,0F,FF,07,00,00,
9594510,000000AA,false,Rx,9,2,AA,04,00,00,00,00,00,00,
9597515,00000040,false,Rx,9,3,B0,01,20,00,00,00,00,00,
9599232,000003A4,false,Rx,9,3,03,00,2C,00,00,00,00,00,
9600952,00000010,false,Rx,9,7,B0,01,20,11,20,0D,00,00,
9605105,00000008,false,Rx,9,7,B0,01,20,0F,FF,07,00,00,
9614524,000000AA,false,Rx,9,2,AA,04,00,00,00,00,00,00,
9617440,00000040,false,Rx,9,3,B0,01,20,00,00,00,00,00,
9620844,00000010,false,Rx,9,7,B0,01,20,11,20,0D,00,00,
9625119,00000008,false,Rx,9,7,B0,01,20,0F,FF,07,00,00,
9634564,000000AA,false,Rx,9,2,AA,04,00,00,00,00,00,00,
9637671,00000040,false,Rx,9,3,B0,01,20,00,00,00,00,00,
9640723,0000029C,false,Rx,9,3,03,00,1A,00,00,00,00,00,
9641803,00000010,false,Rx,9,7,B0,01,20,11,20,0D,00,00,
9647537,00000008,false,Rx,9,7,B0,01,20,0F,FF,07,00,00,
9655154,000000AA,false,Rx,9,2,AA,04,00,00,00,00,00,00,
9657404,00000040,false,Rx,9,3,B0,01,20,00,00,00,00,00,
9659120,000002BC,false,Rx,9,3,03,00,0F,00,00,00,00,00,
9660943,00000010,false,Rx,9,7,B0,01,20,11,20,0D,00,00,
9665097,00000008,false,Rx,9,7,B0,01,20,0F,FF,07,00,00,
9665967,00000010,false,Rx,9,4,30,08,00,31,00,00,00,00,
9667651,00000010,false,Rx,9,4,31,08,00,30,00,00,00,00,
9668031,00000040,false,Rx,9,3,B0,31,99,00,00,00,00,00,
9675273,000000AA,false,Rx,9,2,AA,04,00,00,00,00,00,00,
9677751,00000040,false,Rx,9,6,B0,01,20,92,FF,FF,00,00,
9679364,00000040,false,Rx,9,8,B0,93,E5,00,14,00,31,99,
9680760,000002B4,false,Rx,9,3,03,00,02,00,00,00,00,00,
9682479,00000010,false,Rx,9,7,B0,01,20,11,20,0D,00,00,
9685888,00000008,false,Rx,9,7,B0,01,20,0F,FF,07,00,00,
9694554,000000AA,false,Rx,9,2,AA,04,00,00,00,00,00,00,
9697578,00000040,false,Rx,9,3,B0,01,20,00,00,00,00,00,
9699293,000003AC,false,Rx,9,3,03,00,1D,00,00,00,00,00,
9700900,00000010,false,Rx,9,7,B0,01,20,11,20,0E,00,00,
9702091,00000010,false,Rx,9,3,B0,0D,00,00,00,00,00,00,
9705292,00000008,false,Rx,9,7,B0,01,20,0F,FF,07,00,00,
9714589,000000AA,false,Rx,9,2,AA,04,00,00,00,00,00,00,
9717496,00000040,false,Rx,9,3,B0,01,20,00,00,00,00,00,
9719213,000003A4,false,Rx,9,3,03,00,2C,00,00,00,00,00,
9720932,00000010,false,Rx,9,7,B0,01,20,11,20,0D,00,00,
9725088,00000008,false,Rx,9,7,B0,01,20,0F,FF,07,00,00,
9734518,000000AA,false,Rx,9,2,AA,04,00,00,00,00,00,00,
9737674,00000040,false,Rx,9,3,B0,01,20,00,00,00,00,00,
9740882,00000010,false,Rx,9,7,B0,01,20,11,20,0D,00,00,
9744937,00000008,false,Rx,9,7,B0,01,20,0C,BB,0F,FF,00,
9747769,00000008,false,Rx,9,7,B0,0E,00,0D,0E,07,00,00,
9754562,000000AA,false,Rx,9,2,AA,04,00,00,00,00,00,00,
9757671,00000040,false,Rx,9,3,B0,01,20,00,00,00,00,00,
9760617,0000029C,false,Rx,9,3,03,00,1A,00,00,00,00,00,
9761698,00000010,false,Rx,9,7,B0,01,20,11,20,0D,00,00,
9765979,00000008,false,Rx,9,7,B0,01,20,0F,FF,07,00,00,
9774573,000000AA,false,Rx,9,2,AA,04,00,00,00,00,00,00,
9777485,00000040,false,Rx,9,3,B0,01,20,00,00,00,00,00,
9779203,000002BC,false,Rx,9,3,03,00,0F,00,00,00,00,00,
9781025,00000010,false,Rx,9,7,B0,01,20,11,20,0D,00,00,
9785074,00000008,false,Rx,9,7,B0,01,20,0F,FF,07,00,00,
9794637,000000AA,false,Rx,9,2,AA,04,00,00,00,00,00,00,
9797548,00000040,false,Rx,9,3,B0,01,20,00,00,00,00,00,
9799265,000002B4,false,Rx,9,3,03,00,02,00,00,00,00,00,
9800984,00000010,false,Rx,9,7,B0,01,20,11,20,0D,00,00,
9805138,00000008,false,Rx,9,7,B0,01,20,0F,FF,07,00,00,
9814580,000000AA,false,Rx,9,2,AA,04,00,00,00,00,00,00,
9817496,00000040,false,Rx,9,3,B0,01,20,00,00,00,00,00,
9819214,000003AC,false,Rx,9,3,03,00,1D,00,00,00,00,00,
9821036,00000010,false,Rx,9,7,B0,01,20,11,20,0D,00,00,
9825083,00000008,false,Rx,9,7,B0,01,20,0F,FF,07,00,00,
9834691,000000AA,false,Rx,9,2,AA,04,00,00,00,00,00,00,
9837525,00000040,false,Rx,9,3,B0,01,20,00,00,00,00,00,
9839274,000003A4,false,Rx,9,3,03,00,2C,00,00,00,00,00,
9841032,00000010,false,Rx,9,7,B0,01,20,11,20,0D,00,00,
9845088,00000008,false,Rx,9,7,B0,01,20,0F,FF,07,00,00,
9854653,000000AA,false,Rx,9,2,AA,04,00,00,00,00,00,00,
9857561,00000040,false,Rx,9,3,B0,01,20,00,00,00,00,00,
9860977,00000010,false,Rx,9,7,B0,01,20,11,20,0D,00,00,
9865130,00000008,false,Rx,9,7,B0,01,20,0F,FF,07,00,00,
9874602,000000AA,false,Rx,9,2,AA,04,00,00,00,00,00,00,
9877927,00000040,false,Rx,9,6,B0,01,20,92,FF,FF,00,00,
9879433,00000040,false,Rx,9,8,B0,93,E5,00,14,00,31,99,
9882114,0000029C,false,Rx,9,3,03,00,1A,00,00,00,00,00,
9883201,00000010,false,Rx,9,7,B0,01,20,11,20,0D,00,00,
9886004,00000008,false,Rx,9,7,B0,01,20,0F,FF,07,00,00,
9894595,000000AA,false,Rx,9,2,AA,04,00,00,00,00,00,00,
9897714,00000040,false,Rx,9,3,B0,01,20,00,00,00,00,00,
9899433,000002BC,false,Rx,9,3,03,00,0F,00,00,00,00,00,
9900938,00000010,false,Rx,9,7,B0,01,20,11,20,0E,00,00,
9902125,00000010,false,Rx,9,3,B0,0D,00,00,00,00,00,00,
9905218,00000008,false,Rx,9,7,B0,01,20,0F,FF,07,00,00,
9914655,000000AA,false,Rx,9,2,AA,04,00,00,00,00,00,00,
9917772,00000040,false,Rx,9,3,B0,01,20,00,00,00,00,00,
9919382,000002B4,false,Rx,9,3,03,00,0A,00,00,00,00,00,
9920994,00000010,false,Rx,9,7,B0,01,20,11,20,0D,00,00,
9925142,00000008,false,Rx,9,7,B0,01,20,0F,FF,07,00,00,
9934588,000000AA,false,Rx,9,2,AA,04,00,00,00,00,00,00,
9937554,00000040,false,Rx,9,3,B0,01,20,00,00,00,00,00,
9939278,000003AC,false,Rx,9,3,03,00,1D,00,00,00,00,00,
9941012,00000010,false,Rx,9,7,B0,01,20,11,20,0D,00,00,
9944964,00000008,false,Rx,9,7,B0,01,20,0C,BB,0F,FF,00,
9946259,00000008,false,Rx,9,7,B0,0E,00,0D,0E,07,00,00,
9955399,000000AA,false,Rx,9,2,AA,04,00,00,00,00,00,00,
9957559,00000040,false,Rx,9,3,B0,01,20,00,00,00,00,00,
9959250,000003A4,false,Rx,9,3,03,00,2C,00,00,00,00,00,
9961040,00000010,false,Rx,9,7,B0,01,20,11,20,0D,00,00,
9965093,00000008,false,Rx,9,7,B0,01,20,0F,FF,07,00,00,
9974608,000000AA,false,Rx,9,2,AA,04,00,00,00,00,00,00,
9977528,00000040,false,Rx,9,3,B0,01,20,00,00,00,00,00,
9980943,00000010,false,Rx,9,7,B0,01,20,11,20,0D,00,00,
9985097,00000008,false,Rx,9,7,B0,01,20,0F,FF,07,00,00,
9994657,000000AA,false,Rx,9,2,AA,04,00,00,00,00,00,00,
9997777,00000040,false,Rx,9,3,B0,01,20,00,00,00,00,00,
10000723,0000029C,false,Rx,9,3,03,00,1A,00,00,00,00,00,
10001804,00000010,false,Rx,9,7,B0,01,20,11,20,0D,00,00,
10005978,00000008,false,Rx,9,7,B0,01,20,0F,FF,07,00,00,
10014678,000000AA,false,Rx,9,2,AA,04,00,00,00,00,00,00,
10017589,00000040,false,Rx,9,3,B0,01,20,00,00,00,00,00,
10019305,000002BC,false,Rx,9,3,03,00,0F,00,00,00,00,00,
10021021,00000010,false,Rx,9,7,B0,01,20,11,20,0D,00,00,
10025067,00000008,false,Rx,9,7,B0,01,20,0F,FF,07,00,00,
10035429,000000AA,false,Rx,9,2,AA,04,00,00,00,00,00,00,
10037595,00000040,false,Rx,9,3,B0,01,20,00,00,00,00,00,
10039317,000002B4,false,Rx,9,3,03,00,0A,00,00,00,00,00,
10041003,00000010,false,Rx,9,7,B0,01,20,11,20,0D,00,00,
10045191,00000008,false,Rx,9,7,B0,01,20,0F,FF,07,00,00,
10055479,000000AA,false,Rx,9,2,AA,04,00,00,00,00,00,00,
10057751,00000040,false,Rx,9,3,B0,01,20,00,00,00,00,00,
10059469,000003AC,false,Rx,9,3,03,00,1D,00,00,00,00,00,
10060977,00000010,false,Rx,9,7,B0,01,20,11,20,0D,00,00,
10065126,00000008,false,Rx,9,7,B0,01,20,0F,FF,07,00,00,
10065884,00000010,false,Rx,9,4,30,08,00,32,00,00,00,00,
10068466,00000010,false,Rx,9,4,31,08,00,31,00,00,00,00,
10068485,00000040,false,Rx,9,3,B0,32,FF,00,00,00,00,00,
10075453,000000AA,false,Rx,9,2,AA,04,00,00,00,00,00,00,
10077917,00000040,false,Rx,9,6,B0,01,20,92,FF,FF,00,00,
10079527,00000040,false,Rx,9,8,B0,93,E5,00,14,00,32,FF,
10080930,000003A4,false,Rx,9,3,03,00,2C,00,00,00,00,00,
10082539,00000010,false,Rx,9,7,B0,01,20,11,20,0D,00,00,
10085421,00000008,false,Rx,9,7,B0,01,20,0F,FF,07,00,00,
10094738,000000AA,false,Rx,9,2,AA,04,00,00,00,00,00,00,
10097652,00000040,false,Rx,9,3,B0,01,20,00,00,00,00,00,
10100962,00000010,false,Rx,9,7,B0,01,20,11,20,0E,00,00,
10102147,00000010,false,Rx,9,3,B0,0D,00,00,00,00,00,00,
10105238,00000008,false,Rx,9,7,B0,01,20,0F,FF,07,00,00,
10114710,000000AA,false,Rx,9,2,AA,04,00,00,00,00,00,00,
10117706,00000040,false,Rx,9,3,B0,01,20,00,00,00,00,00,
10120712,0000029C,false,Rx,9,3,03,00,1A,00,00,00,00,00,
10121793,00000010,false,Rx,9,7,B0,01,20,11,20,0D,00,00,
10125969,00000008,false,Rx,9,7,B0,01,20,0F,FF,07,00,00,
10134783,000000AA,false,Rx,9,2,AA,04,00,00,00,00,00,00,
10137672,00000040,false,Rx,9,3,B0,01,20,00,00,00,00,00,
10139390,000002BC,false,Rx,9,3,03,00,0F,00,00,00,00,00,
10141004,00000010,false,Rx,9,7,B0,01,20,11,20,0D,00,00,
10145017,00000008,false,Rx,9,7,B0,01,20,0C,BB,0F,FF,00,
10146241,00000008,false,Rx,9,7,B0,0E,00,0D,0E,07,00,00,
10155464,000000AA,false,Rx,9,2,AA,04,00,00,00,00,00,00,
10157631,00000040,false,Rx,9,3,B0,01,20,00,00,00,00,00,
10159348,000002B4,false,Rx,9,3,03,00,02,00,00,00,00,00,
10161066,00000010,false,Rx,9,7,B0,01,20,11,20,0D,00,00,
10165113,00000008,false,Rx,9,7,B0,01,20,0F,FF,07,00,00,
10174805,000000AA,false,Rx,9,2,AA,04,00,00,00,00,00,00,
10177609,00000040,false,Rx,9,3,B0,01,20,00,00,00,00,00,
10179325,000003AC,false,Rx,9,3,03,00,1D,00,00,00,00,00,
10181043,00000010,false,Rx,9,7,B0,01,20,11,20,0D,00,00,
10185093,00000008,false,Rx,9,7,B0,01,20,0F,FF,07,00,00,
10195603,000000AA,false,Rx,9,2,AA,04,00,00,00,00,00,00,
10197770,00000040,false,Rx,9,3,B0,01,20,00,00,00,00,00,
10199489,000003A4,false,Rx,9,3,03,00,2C,00,00,00,00,00,
10200994,00000010,false,Rx,9,7,B0,01,20,11,20,0D,00,00,
10205142,00000008,false,Rx,9,7,B0,01,20,0F,FF,07,00,00,
10214746,000000AA,false,Rx,9,2,AA,04,00,00,00,00,00,00,
10217866,00000040,false,Rx,9,3,B0,01,20,00,00,00,00,00,
10220964,00000010,false,Rx,9,7,B0,01,20,11,20,0D,00,00,
10225119,00000008,false,Rx,9,7,B0,01,20,0F,FF,07,00,00,
10234769,000000AA,false,Rx,9,2,AA,04,00,00,00,00,00,00,
10237790,00000040,false,Rx,9,3,B0,01,20,00,00,00,00,00,
10240838,0000029C,false,Rx,9,3,03,00,1A,00,00,00,00,00,
10241812,00000010,false,Rx,9,7,B0,01,20,11,20,0D,00,00,
10245932,00000008,false,Rx,9,7,B0,01,20,0F,FF,07,00,00,
10255542,000000AA,false,Rx,9,2,AA,04,00,00,00,00,00,00,
10257712,00000040,false,Rx,9,3,B0,01,20,00,00,00,00,00,
10259431,000002BC,false,Rx,9,3,03,00,0F,00,00,00,00,00,
10261042,00000010,false,Rx,9,7,B0,01,20,11,20,0D,00,00,
10265189,00000008,false,Rx,9,7,B0,01,20,0F,FF,07,00,00,
10275581,000000AA,false,Rx,9,2,AA,04,00,00,00,00,00,00,
10277966,00000040,false,Rx,9,6,B0,01,20,92,FF,FF,00,00,
10279578,00000040,false,Rx,9,8,B0,93,E5,00,14,00,32,FF,
10281082,000002B4,false,Rx,9,3,03,00,0A,00,00,00,00,00,
10282584,00000010,false,Rx,9,7,B0,01,20,11,20,0D,00,00,
10285464,00000008,false,Rx,9,7,B0,01,20,0F,FF,07,00,00,
10294795,000000AA,false,Rx,9,2,AA,04,00,00,00,00,00,00,
10297806,00000040,false,Rx,9,3,B0,01,20,00,00,00,00,00,
10299523,000003AC,false,Rx,9,3,03,00,1D,00,00,00,00,00,
10301030,00000010,false,Rx,9,7,B0,01,20,11,20,0E,00,00,
10302216,00000010,false,Rx,9,3,B0,0D,00,00,00,00,00,00,
10305308,00000008,false,Rx,9,7,B0,01,20,0F,FF,07,00,00,
10315605,000000AA,false,Rx,9,2,AA,04,00,00,00,00,00,00,
10317882,00000040,false,Rx,9,3,B0,01,20,00,00,00,00,00,
10319602,000003A4,false,Rx,9,3,03,00,2C,00,00,00,00,00,
10321003,00000010,false,Rx,9,7,B0,01,20,11,20,0D,00,00,
10325157,00000008,false,Rx,9,7,B0,01,20,0F,FF,07,00,00,
10334832,000000AA,false,Rx,9,2,AA,04,00,00,00,00,00,00,
10337847,00000040,false,Rx,9,3,B0,01,20,00,00,00,00,00,
10341052,00000010,false,Rx,9,7,B0,01,20,11,20,0D,00,00,
10344994,00000008,false,Rx,9,7,B0,01,20,0C,BB,0F,FF,00,
10346285,00000008,false,Rx,9,7,B0,0E,00,0D,0E,07,00,00,
10354830,000000AA,false,Rx,9,2,AA,04,00,00,00,00,00,00,
10357849,00000040,false,Rx,9,3,B0,01,20,00,00,00,00,00,
10360903,0000029C,false,Rx,9,3,03,00,1A,00,00,00,00,00,
10361880,00000010,false,Rx,9,7,B0,01,20,11,20,0D,00,00,
10365952,00000008,false,Rx,9,7,B0,01,20,0F,FF,07,00,00,
10375606,000000AA,false,Rx,9,2,AA,04,00,00,00,00,00,00,
10377662,00000040,false,Rx,9,3,B0,01,20,00,00,00,00,00,
10379378,000002BC,false,Rx,9,3,03,00,0F,00,00,00,00,00,
10381134,00000010,false,Rx,9,7,B0,01,20,11,20,0D,00,00,
10385148,00000008,false,Rx,9,7,B0,01,20,0F,FF,07,00,00,
10394814,000000AA,false,Rx,9,2,AA,04,00,00,00,00,00,00,
10397725,00000040,false,Rx,9,3,B0,01,20,00,00,00,00,00,
10399443,000002B4,false,Rx,9,3,03,00,0A,00,00,00,00,00,
10401055,00000010,false,Rx,9,7,B0,01,20,11,20,0D,00,00,
10405103,00000008,false,Rx,9,7,B0,01,20,0F,FF,07,00,00,
10414830,000000AA,false,Rx,9,2,AA,04,00,00,00,00,00,00,
10417739,00000040,false,Rx,9,3,B0,01,20,00,00,00,00,00,
10419457,000003AC,false,Rx,9,3,03,00,1D,00,00,00,00,00,
10421069,00000010,false,Rx,9,7,B0,01,20,11,20,0D,00,00,
10425119,00000008,false,Rx,9,7,B0,01,20,0F,FF,07,00,00,
10435621,000000AA,false,Rx,9,2,AA,04,00,00,00,00,00,00,
10437792,00000040,false,Rx,9,3,B0,01,20,00,00,00,00,00,
10439510,000003A4,false,Rx,9,3,03,00,2C,00,00,00,00,00,
10441120,00000010,false,Rx,9,7,B0,01,20,11,20,0D,00,00,
10445168,00000008,false,Rx,9,7,B0,01,20,0F,FF,07,00,00,
10454868,000000AA,false,Rx,9,2,AA,04,00,00,00,00,00,00,
10457897,00000040,false,Rx,9,3,B0,01,20,00,00,00,00,00,
10461029,00000010,false,Rx,9,7,B0,01,20,11,20,0D,00,00,
10465187,00000008,false,Rx,9,7,B0,01,20,0F,FF,07,00,00,
10465951,00000010,false,Rx,9,4,30,08,00,33,00,00,00,00,
10467033,00000040,false,Rx,9,3,B0,33,B3,00,00,00,00,00,
10467898,00000010,false,Rx,9,4,31,08,00,32,00,00,00,00,
10475606,000000AA,false,Rx,9,2,AA,04,00,00,00,00,00,00,
10478099,00000040,false,Rx,9,6,B0,01,20,92,FF,FF,00,00,
10479706,00000040,false,Rx,9,8,B0,93,E5,00,14,00,33,B3,
10482760,00000010,false,Rx,9,7,B0,01,20,11,20,0D,00,00,
10483418,0000029C,false,Rx,9,3,03,00,1A,00,00,00,00,00,
10486113,00000008,false,Rx,9,7,B0,01,20,0F,FF,07,00,00,
10495621,000000AA,false,Rx,9,2,AA,04,00,00,00,00,00,00,
10497785,00000040,false,Rx,9,3,B0,01,20,00,00,00,00,00,
10499506,000002BC,false,Rx,9,3,03,00,0F,00,00,00,00,00,
10501013,00000010,false,Rx,9,7,B0,01,20,11,20,0E,00,00,
10502200,00000010,false,Rx,9,3,B0,0D,00,00,00,00,00,00,
10505292,00000008,false,Rx,9,7,B0,01,20,0F,FF,07,00,00,
10514939,000000AA,false,Rx,9,2,AA,04,00,00,00,00,00,00,
10517954,00000040,false,Rx,9,3,B0,01,20,00,00,00,00,00,
10519669,000002B4,false,Rx,9,3,03,00,02,00,00,00,00,00,
10521069,00000010,false,Rx,9,7,B0,01,20,11,20,0D,00,00,
10525119,00000008,false,Rx,9,7,B0,01,20,0F,FF,07,00,00,
10535655,000000AA,false,Rx,9,2,AA,04,00,00,00,00,00,00,
10537809,00000040,false,Rx,9,3,B0,01,20,00,00,00,00,00,
10539528,000003AC,false,Rx,9,3,03,00,1D,00,00,00,00,00,
10541140,00000010,false,Rx,9,7,B0,01,20,11,20,0D,00,00,
10545083,00000008,false,Rx,9,7,B0,01,20,0C,BB,0F,FF,00,
10546269,00000008,false,Rx,9,7,B0,0E,00,0D,0E,07,00,00,
10551659,00001000,true,Rx,9,8,00,00,00,14,00,00,04,5B,
10553070,00001001,true,Rx,9,8,00,00,00,00,00,00,00,00,
10554421,00001002,true,Rx,9,8,00,00,00,00,00,00,00,00,
10556162,000000AA,false,Rx,9,2,AA,04,00,00,00,00,00,00,
10557941,00000040,false,Rx,9,3,B0,01,20,00,00,00,00,00,
10559673,000003A4,false,Rx,9,3,03,00,2C,00,00,00,00,00,
10561097,00000010,false,Rx,9,7,B0,01,20,11,20,0D,00,00,
10565151,00000008,false,Rx,9,7,B0,01,20,0F,FF,07,00,00,
10574889,000000AA,false,Rx,9,2,AA,04,00,00,00,00,00,00,
10578019,00000040,false,Rx,9,3,B0,01,20,00,00,00,00,00,
10581007,00000010,false,Rx,9,7,B0,01,20,11,20,0D,00,00,
10585159,00000008,false,Rx,9,7,B0,01,20,0F,FF,07,00,00,
10594976,000000AA,false,Rx,9,2,AA,04,00,00,00,00,00,00,
10597882,00000040,false,Rx,9,3,B0,01,20,00,00,00,00,00,
10601148,00000010,false,Rx,9,7,B0,01,20,11,20,0D,00,00,
10601908,0000029C,false,Rx,9,3,03,00,1A,00,00,00,00,00,
10605342,00000008,false,Rx,9,7,B0,01,20,0F,FF,07,00,00,
10614896,000000AA,false,Rx,9,2,AA,04,00,00,00,00,00,00,
10617908,00000040,false,Rx,9,3,B0,01,20,00,00,00,00,00,
10619572,000002BC,false,Rx,9,3,03,00,0F,00,00,00,00,00,
10621083,00000010,false,Rx,9,7,B0,01,20,11,20,0D,00,00,
10625132,00000008,false,Rx,9,7,B0,01,20,0F,FF,07,00,00,
10635635,000000AA,false,Rx,9,2,AA,04,00,00,00,00,00,00,
10637788,00000040,false,Rx,9,3,B0,01,20,00,00,00,00,00,
10639611,000002B4,false,Rx,9,3,03,00,02,00,00,00,00,00,
10641118,00000010,false,Rx,9,7,B0,01,20,11,20,0D,00,00,
10645168,00000008,false,Rx,9,7,B0,01,20,0F,FF,07,00,00,
10655651,000000AA,false,Rx,9,2,AA,04,00,00,00,00,00,00,
10657869,00000040,false,Rx,9,3,B0,01,20,00,00,00,00,00,
10659596,000003AC,false,Rx,9,3,03,00,1D,00,00,00,00,00,
10661220,00000010,false,Rx,9,7,B0,01,20,11,20,0D,00,00,
10665201,00000008,false,Rx,9,7,B0,01,20,0F,FF,07,00,00,
10675711,000000AA,false,Rx,9,2,AA,04,00,00,00,00,00,00,
10678197,00000040,false,Rx,9,6,B0,01,20,92,FF,FF,00,00,
10679701,00000040,false,Rx,9,8,B0,93,E5,00,14,00,33,B3,
10681205,000003A4,false,Rx,9,3,03,00,2C,00,00,00,00,00,
10682601,00000010,false,Rx,9,7,B0,01,20,11,20,0D,00,00,
10685906,00000008,false,Rx,9,7,B0,01,20,0F,FF,07,00,00,
10695793,000000AA,false,Rx,9,2,AA,04,00,00,00,00,00,00,
10698059,00000040,false,Rx,9,3,B0,01,20,00,00,00,00,00,
10701048,00000010,false,Rx,9,7,B0,01,20,11,20,0E,00,00,
10702231,00000010,false,Rx,9,3,B0,0D,00,00,00,00,00,00,
10705323,00000008,false,Rx,9,7,B0,01,20,0F,FF,07,00,00,
10715677,000000AA,false,Rx,9,2,AA,04,00,00,00,00,00,00,
10717852,00000040,false,Rx,9,3,B0,01,20,00,00,00,00,00,
10720900,0000029C,false,Rx,9,3,03,00,1A,00,00,00,00,00,
10721985,00000010,false,Rx,9,7,B0,01,20,11,20,0D,00,00,
10725947,00000008,false,Rx,9,7,B0,01,20,0F,FF,07,00,00,
10734949,000000AA,false,Rx,9,2,AA,04,00,00,00,00,00,00,
10738073,00000040,false,Rx,9,3,B0,01,20,00,00,00,00,00,
10739693,000002BC,false,Rx,9,3,03,00,0F,00,00,00,00,00,
10741094,00000010,false,Rx,9,7,B0,01,20,11,20,0D,00,00,
10745037,00000008,false,Rx,9,7,B0,01,20,0C,BB,0F,FF,00,
10746326,00000008,false,Rx,9,7,B0,0E,00,0D,0E,07,00,00,
10755735,000000AA,false,Rx,9,2,AA,04,00,00,00,00,00,00,
10757850,00000040,false,Rx,9,3,B0,01,20,00,00,00,00,00,
10759580,000002B4,false,Rx,9,3,03,00,0A,00,00,00,00,00,
10761106,00000010,false,Rx,9,7,B0,01,20,11,20,0D,00,00,
10765160,00000008,false,Rx,9,7,B0,01,20,0F,FF,07,00,00,
10775718,000000AA,false,Rx,9,2,AA,04,00,00,00,00,00,00,
10777882,00000040,false,Rx,9,3,B0,01,20,00,00,00,00,00,
10779601,000003AC,false,Rx,9,3,03,00,1D,00,00,00,00,00,
10781109,00000010,false,Rx,9,7,B0,01,20,11,20,0D,00,00,
10785262,00000008,false,Rx,9,7,B0,01,20,0F,FF,07,00,00,
10795768,000000AA,false,Rx,9,2,AA,04,00,00,00,00,00,00,
10797938,00000040,false,Rx,9,3,B0,01,20,00,00,00,00,00,
10799653,000003A4,false,Rx,9,3,03,00,2C,00,00,00,00,00,
10801159,00000010,false,Rx,9,7,B0,01,20,11,20,0D,00,00,
10805209,00000008,false,Rx,9,7,B0,01,20,0F,FF,07,00,00,
10815028,000000AA,false,Rx,9,2,AA,04,00,00,00,00,00,00,
10817930,00000040,false,Rx,9,3,B0,01,20,00,00,00,00,00,
10821126,00000010,false,Rx,9,7,B0,01,20,11,20,0D,00,00,
10825171,00000008,false,Rx,9,7,B0,01,20,0F,FF,07,00,00,
10835055,000000AA,false,Rx,9,2,AA,04,00,00,00,00,00,00,
10838062,00000040,false,Rx,9,3,B0,01,20,00,00,00,00,00,
10841375,00000010,false,Rx,9,7,B0,01,20,11,20,0D,00,00,
10842140,0000029C,false,Rx,9,3,03,00,1A,00,00,00,00,00,
10845998,00000008,false,Rx,9,7,B0,01,20,0F,FF,07,00,00,
10855931,000000AA,false,Rx,9,2,AA,04,00,00,00,00,00,00,
10858013,00000040,false,Rx,9,3,B0,01,20,00,00,00,00,00,
10859688,000002BC,false,Rx,9,3,03,00,0F,00,00,00,00,00,
10861210,00000010,false,Rx,9,7,B0,01,20,11,20,0D,00,00,
10865268,00000008,false,Rx,9,7,B0,01,20,0F,FF,07,00,00,
10866052,00000010,false,Rx,9,4,30,08,00,34,00,00,00,00,
10867238,00000010,false,Rx,9,4,31,08,00,33,00,00,00,00,
10867893,00000040,false,Rx,9,3,B0,34,4D,00,00,00,00,00,
10875065,000000AA,false,Rx,9,2,AA,04,00,00,00,00,00,00,
10878400,00000040,false,Rx,9,6,B0,01,20,92,FF,FF,00,00,
10880013,00000040,false,Rx,9,8,B0,93,E5,00,14,00,34,4D,
10881504,000002B4,false,Rx,9,3,03,00,02,00,00,00,00,00,
10882643,00000010,false,Rx,9,7,B0,01,20,11,20,0D,00,00,
10885957,00000008,false,Rx,9,7,B0,01,20,0F,FF,07,00,00,
10895082,000000AA,false,Rx,9,2,AA,04,00,00,00,00,00,00,
10897994,00000040,false,Rx,9,3,B0,01,20,00,00,00,00,00,
10899707,000003AC,false,Rx,9,3,03,00,1D,00,00,00,00,00,
10901109,00000010,false,Rx,9,7,B0,01,20,11,20,0E,00,00,
10902292,00000010,false,Rx,9,3,B0,0D,00,00,00,00,00,00,
10905280,00000008,false,Rx,9,7,B0,01,20,0F,FF,07,00,00,
10915810,000000AA,false,Rx,9,2,AA,04,00,00,00,00,00,00,
10917977,00000040,false,Rx,9,3,B0,01,20,00,00,00,00,00,
10919690,000003A4,false,Rx,9,3,03,00,2C,00,00,00,00,00,
10921196,00000010,false,Rx,9,7,B0,01,20,11,20,0D,00,00,
10925248,00000008,false,Rx,9,7,B0,01,20,0F,FF,07,00,00,
10935085,000000AA,false,Rx,9,2,AA,04,00,00,00,00,00,00,
10938110,00000040,false,Rx,9,3,B0,01,20,00,00,00,00,00,
10941097,00000010,false,Rx,9,7,B0,01,20,11,20,0D,00,00,
10945037,00000008,false,Rx,9,7,B0,01,20,0C,BB,0F,FF,00,
10946224,00000008,false,Rx,9,7,B0,0E,00,0D,0E,07,00,00,
10955119,000000AA,false,Rx,9,2,AA,04,00,00,00,00,00,00,
10958027,00000040,false,Rx,9,3,B0,01,20,00,00,00,00,00,
10961350,00000010,false,Rx,9,7,B0,01,20,11,20,0D,00,00,
10962014,0000029C,false,Rx,9,3,03,00,1A,00,00,00,00,00,
10966022,00000008,false,Rx,9,7,B0,01,20,0F,FF,07,00,00,
10975037,000000AA,false,Rx,9,2,AA,04,00,00,00,00,00,00,
10978057,00000040,false,Rx,9,3,B0,01,20,00,00,00,00,00,
10979772,000002BC,false,Rx,9,3,03,00,0F,00,00,00,00,00,
10981172,00000010,false,Rx,9,7,B0,01,20,11,20,0D,00,00,
10985219,00000008,false,Rx,9,7,B0,01,20,0F,FF,07,00,00,
10996002,000000AA,false,Rx,9,2,AA,04,00,00,00,00,00,00,
10998052,00000040,false,Rx,9,3,B0,01,20,00,00,00,00,00,
10999669,000002B4,false,Rx,9,3,03,00,02,00,00,00,00,00,
11001175,00000010,false,Rx,9,7,B0,01,20,11,20,0D,00,00,
11005224,00000008,false,Rx,9,7,B0,01,20,0F,FF,07,00,00,
11015100,000000AA,false,Rx,9,2,AA,04,00,00,00,00,00,00,
11018013,00000040,false,Rx,9,3,B0,01,20,00,00,00,00,00,
11019728,000003AC,false,Rx,9,3,03,00,1D,00,00,00,00,00,
11021236,00000010,false,Rx,9,7,B0,01,20,11,20,0D,00,00,
11025285,00000008,false,Rx,9,7,B0,01,20,0F,FF,07,00,00,
11035175,000000AA,false,Rx,9,2,AA,04,00,00,00,00,00,00,
11038190,00000040,false,Rx,9,3,B0,01,20,00,00,00,00,00,
11039903,000003A4,false,Rx,9,3,03,00,2C,00,00,00,00,00,
11041095,00000010,false,Rx,9,7,B0,01,20,11,20,0D,00,00,
11045143,00000008,false,Rx,9,7,B0,01,20,0F,FF,07,00,00,
11055118,000000AA,false,Rx,9,2,AA,04,00,00,00,00,00,00,
11058027,00000040,false,Rx,9,3,B0,01,20,00,00,00,00,00,
11061120,00000010,false,Rx,9,7,B0,01,20,11,20,0D,00,00,
11065209,00000008,false,Rx,9,7,B0,01,20,0F,FF,07,00,00,
11075190,000000AA,false,Rx,9,2,AA,04,00,00,00,00,00,00,
11078413,00000040,false,Rx,9,6,B0,01,20,92,FF,FF,00,00,
11080027,00000040,false,Rx,9,8,B0,93,E5,00,14,00,34,4D,
11083079,00000010,false,Rx,9,7,B0,01,20,11,20,0D,00,00,
11083733,0000029C,false,Rx,9,3,03,00,1A,00,00,00,00,00,
11086109,00000008,false,Rx,9,7,B0,01,20,0F,FF,07,00,00,
11095133,000000AA,false,Rx,9,2,AA,04,00,00,00,00,00,00,
11098148,00000040,false,Rx,9,3,B0,01,20,00,00,00,00,00,
11099758,000002BC,false,Rx,9,3,03,00,0F,00,00,00,00,00,
11101159,00000010,false,Rx,9,7,B0,01,20,11,20,0E,00,00,
11102346,00000010,false,Rx,9,3,B0,0D,00,00,00,00,00,00,
11105334,00000008,false,Rx,9,7,B0,01,20,0F,FF,07,00,00,
11115828,000000AA,false,Rx,9,2,AA,04,00,00,00,00,00,00,
11118108,00000040,false,Rx,9,3,B0,01,20,00,00,00,00,00,
11119827,000002B4,false,Rx,9,3,03,00,0A,00,00,00,00,00,
11121236,00000010,false,Rx,9,7,B0,01,20,11,20,0D,00,00,
11125285,00000008,false,Rx,9,7,B0,01,20,0F,FF,07,00,00,
11135872,000000AA,false,Rx,9,2,AA,04,00,00,00,00,00,00,
11138037,00000040,false,Rx,9,3,B0,01,20,00,00,00,00,00,
11139754,000003AC,false,Rx,9,3,03,00,1D,00,00,00,00,00,
11141154,00000010,false,Rx,9,7,B0,01,20,11,20,0D,00,00,
11145098,00000008,false,Rx,9,7,B0,01,20,0C,BB,0F,FF,00,
11146390,00000008,false,Rx,9,7,B0,0E,00,0D,0E,07,00,00,
11156064,000000AA,false,Rx,9,2,AA,04,00,00,00,00,00,00,
11158111,00000040,false,Rx,9,3,B0,01,20,00,00,00,00,00,
11159822,000003A4,false,Rx,9,3,03,00,2C,00,00,00,00,00,
11161119,00000010,false,Rx,9,7,B0,01,20,11,20,0D,00,00,
11165168,00000008,false,Rx,9,7,B0,01,20,0F,FF,07,00,00,
11175214,000000AA,false,Rx,9,2,AA,04,00,00,00,00,00,00,
11178229,00000040,false,Rx,9,3,B0,01,20,00,00,00,00,00,
11181112,00000010,false,Rx,9,7,B0,01,20,11,20,0D,00,00,
11185265,00000008,false,Rx,9,7,B0,01,20,0F,FF,07,00,00,
11195135,000000AA,false,Rx,9,2,AA,04,00,00,00,00,00,00,
11198048,00000040,false,Rx,9,3,B0,01,20,00,00,00,00,00,
11201415,00000010,false,Rx,9,7,B0,01,20,11,20,0D,00,00,
11202179,0000029C,false,Rx,9,3,03,00,1A,00,00,00,00,00,
11206037,00000008,false,Rx,9,7,B0,01,20,0F,FF,07,00,00,
11215161,000000AA,false,Rx,9,2,AA,04,00,00,00,00,00,00,
11218074,00000040,false,Rx,9,3,B0,01,20,00,00,00,00,00,
11219788,000002BC,false,Rx,9,3,03,00,0F,00,00,00,00,00,
11221187,00000010,false,Rx,9,7,B0,01,20,11,20,0D,00,00,
11225232,00000008,false,Rx,9,7,B0,01,20,0F,FF,07,00,00,
11236006,000000AA,false,Rx,9,2,AA,04,00,00,00,00,00,00,
11238277,00000040,false,Rx,9,3,B0,01,20,00,00,00,00,00,
11239884,000002B4,false,Rx,9,3,03,00,0A,00,00,00,00,00,
11241179,00000010,false,Rx,9,7,B0,01,20,11,20,0D,00,00,
11245226,00000008,false,Rx,9,7,B0,01,20,0F,FF,07,00,00,
11255952,000000AA,false,Rx,9,2,AA,04,00,00,00,00,00,00,
11258121,00000040,false,Rx,9,3,B0,01,20,00,00,00,00,00,
11259833,000003AC,false,Rx,9,3,03,00,1D,00,00,00,00,00,
11261236,00000010,false,Rx,9,7,B0,01,20,11,20,0D,00,00,
11265285,00000008,false,Rx,9,7,B0,01,20,0F,FF,07,00,00,
11266048,00000010,false,Rx,9,4,30,08,00,35,00,00,00,00,
11267126,00000040,false,Rx,9,3,B0,35,BF,00,00,00,00,00,
11267994,00000010,false,Rx,9,4,31,08,00,34,00,00,00,00,
11275258,000000AA,false,Rx,9,2,AA,04,00,00,00,00,00,00,
11278485,00000040,false,Rx,9,6,B0,01,20,92,FF,FF,00,00,
11280098,00000040,false,Rx,9,8,B0,93,E5,00,14,00,35,BF,
11281497,000003A4,false,Rx,9,3,03,00,2C,00,00,00,00,00,
11282683,00000010,false,Rx,9,7,B0,01,20,11,20,0D,00,00,
11285992,00000008,false,Rx,9,7,B0,01,20,0F,FF,07,00,00,
11295954,000000AA,false,Rx,9,2,AA,04,00,00,00,00,00,00,
11298124,00000040,false,Rx,9,3,B0,01,20,00,00,00,00,00,
11301113,00000010,false,Rx,9,7,B0,01,20,11,20,0E,00,00,
11302298,00000010,false,Rx,9,3,B0,0D,00,00,00,00,00,00,
11305285,00000008,false,Rx,9,7,B0,01,20,0F,FF,07,00,00,
11315956,000000AA,false,Rx,9,2,AA,04,00,00,00,00,00,00,
11318119,00000040,false,Rx,9,3,B0,01,20,00,00,00,00,00,
11321488,00000010,false,Rx,9,7,B0,01,20,11,20,0D,00,00,
11322251,0000029C,false,Rx,9,3,03,00,1A,00,00,00,00,00,
11326005,00000008,false,Rx,9,7,B0,01,20,0F,FF,07,00,00,
11335251,000000AA,false,Rx,9,2,AA,04,00,00,00,00,00,00,
11338164,00000040,false,Rx,9,3,B0,01,20,00,00,00,00,00,
11339879,000002BC,false,Rx,9,3,03,00,0F,00,00,00,00,00,
11341174,00000010,false,Rx,9,7,B0,01,20,11,20,0D,00,00,
11345113,00000008,false,Rx,9,7,B0,01,20,0C,BB,0F,FF,00,
11346298,00000008,false,Rx,9,7,B0,0E,00,0D,0E,07,00,00,
11355211,000000AA,false,Rx,9,2,AA,04,00,00,00,00,00,00,
11358124,00000040,false,Rx,9,3,B0,01,20,00,00,00,00,00,
11359949,000002B4,false,Rx,9,3,03,00,02,00,00,00,00,00,
11361146,00000010,false,Rx,9,7,B0,01,20,11,20,0D,00,00,
11365295,00000008,false,Rx,9,7,B0,01,20,0F,FF,07,00,00,
11375314,000000AA,false,Rx,9,2,AA,04,00,00,00,00,00,00,
11378123,00000040,false,Rx,9,3,B0,01,20,00,00,00,00,00,
11379839,000003AC,false,Rx,9,3,03,00,1D,00,00,00,00,00,
11381501,00000010,false,Rx,9,7,B0,01,20,11,20,0D,00,00,
11385315,00000008,false,Rx,9,7,B0,01,20,0F,FF,07,00,00,
11395247,000000AA,false,Rx,9,2,AA,04,00,00,00,00,00,00,
11398162,00000040,false,Rx,9,3,B0,01,20,00,00,00,00,00,
11399877,000003A4,false,Rx,9,3,03,00,2C,00,00,00,00,00,
11401172,00000010,false,Rx,9,7,B0,01,20,11,20,0D,00,00,
11405217,00000008,false,Rx,9,7,B0,01,20,0F,FF,07,00,00,
11415247,000000AA,false,Rx,9,2,AA,04,00,00,00,00,00,00,
11418159,00000040,false,Rx,9,3,B0,01,20,00,00,00,00,00,
11421148,00000010,false,Rx,9,7,B0,01,20,11,20,0D,00,00,
11425198,00000008,false,Rx,9,7,B0,01,20,0F,FF,07,00,00,
11435289,000000AA,false,Rx,9,2,AA,04,00,00,00,00,00,00,
11438203,00000040,false,Rx,9,3,B0,01,20,00,00,00,00,00,
11441569,00000010,false,Rx,9,7,B0,01,20,11,20,0D,00,00,
11442331,0000029C,false,Rx,9,3,03,00,1A,00,00,00,00,00,
11446082,00000008,false,Rx,9,7,B0,01,20,0F,FF,07,00,00,
11456177,000000AA,false,Rx,9,2,AA,04,00,00,00,00,00,00,
11458204,00000040,false,Rx,9,3,B0,01,20,00,00,00,00,00,
11459902,000002BC,false,Rx,9,3,03,00,0F,00,00,00,00,00,
11461200,00000010,false,Rx,9,7,B0,01,20,11,20,0D,00,00,
11465248,00000008,false,Rx,9,7,B0,01,20,0F,FF,07,00,00,
11476001,000000AA,false,Rx,9,2,AA,04,00,00,00,00,00,00,
11478514,00000040,false,Rx,9,6,B0,01,20,92,FF,FF,00,00,
11480132,00000040,false,Rx,9,8,B0,93,E5,00,14,00,35,BF,
11481531,000002B4,false,Rx,9,3,03,00,0A,00,00,00,00,00,
11482717,00000010,false,Rx,9,7,B0,01,20,11,20,0D,00,00,
11486027,00000008,false,Rx,9,7,B0,01,20,0F,FF,07,00,00,
11495417,000000AA,false,Rx,9,2,AA,04,00,00,00,00,00,00,
11498419,00000040,false,Rx,9,3,B0,01,20,00,00,00,00,00,
11500142,000003AC,false,Rx,9,3,03,00,1D,00,00,00,00,00,
11501119,00000010,false,Rx,9,7,B0,01,20,11,20,0E,00,00,
11502306,00000010,false,Rx,9,3,B0,0D,00,00,00,00,00,00,
11505398,00000008,false,Rx,9,7,B0,01,20,0F,FF,07,00,00,
11516074,000000AA,false,Rx,9,2,AA,04,00,00,00,00,00,00,
11518248,00000040,false,Rx,9,3,B0,01,20,00,00,00,00,00,
11519968,000003A4,false,Rx,9,3,03,00,2C,00,00,00,00,00,
11521154,00000010,false,Rx,9,7,B0,01,20,11,20,0D,00,00,
11525307,00000008,false,Rx,9,7,B0,01,20,0F,FF,07,00,00,
11535372,000000AA,false,Rx,9,2,AA,04,00,00,00,00,00,00,
11538369,00000040,false,Rx,9,3,B0,01,20,00,00,00,00,00,
11541160,00000010,false,Rx,9,7,B0,01,20,11,20,0D,00,00,
11545103,00000008,false,Rx,9,7,B0,01,20,0C,BB,0F,FF,00,
11546395,00000008,false,Rx,9,7,B0,0E,00,0D,0E,07,00,00,
11553059,00001000,true,Rx,9,8,00,00,00,15,00,00,05,81,
11554404,00001001,true,Rx,9,8,00,00,00,00,00,00,00,00,
11555745,00001002,true,Rx,9,8,00,00,00,00,00,00,00,00,
11557361,000000AA,false,Rx,9,2,AA,04,00,00,00,00,00,00,
11558283,00000040,false,Rx,9,3,B0,01,20,00,00,00,00,00,
11561534,00000010,false,Rx,9,7,B0,01,20,11,20,0D,00,00,
11562297,0000029C,false,Rx,9,3,03,00,1A,00,00,00,00,00,
11566051,00000008,false,Rx,9,7,B0,01,20,0F,FF,07,00,00,
11575332,000000AA,false,Rx,9,2,AA,04,00,00,00,00,00,00,
11578207,00000040,false,Rx,9,3,B0,01,20,00,00,00,00,00,
11579927,000002BC,false,Rx,9,3,03,00,0F,00,00,00,00,00,
11581218,00000010,false,Rx,9,7,B0,01,20,11,20,0D,00,00,
11585264,00000008,false,Rx,9,7,B0,01,20,0F,FF,07,00,00,
11595482,000000AA,false,Rx,9,2,AA,04,00,00,00,00,00,00,
11598291,00000040,false,Rx,9,3,B0,01,20,00,00,00,00,00,
11600018,000002B4,false,Rx,9,3,03,00,0A,00,00,00,00,00,
11601204,00000010,false,Rx,9,7,B0,01,20,11,20,0D,00,00,
11605248,00000008,false,Rx,9,7,B0,01,20,0F,FF,07,00,00,
11615422,000000AA,false,Rx,9,2,AA,04,00,00,00,00,00,00,
11618337,00000040,false,Rx,9,3,B0,01,20,00,00,00,00,00,
11619994,000003AC,false,Rx,9,3,03,00,1D,00,00,00,00,00,
11621187,00000010,false,Rx,9,7,B0,01,20,11,20,0D,00,00,
11625231,00000008,false,Rx,9,7,B0,01,20,0F,FF,07,00,00,
11636111,000000AA,false,Rx,9,2,AA,04,00,00,00,00,00,00,
11638268,00000040,false,Rx,9,3,B0,01,20,00,00,00,00,00,
11639985,000003A4,false,Rx,9,3,03,00,2C,00,00,00,00,00,
11641171,00000010,false,Rx,9,7,B0,01,20,11,20,0D,00,00,
11645218,00000008,false,Rx,9,7,B0,01,20,0F,FF,07,00,00,
11655358,000000AA,false,Rx,9,2,AA,04,00,00,00,00,00,00,
11658418,00000040,false,Rx,9,3,B0,01,20,00,00,00,00,00,
11661208,00000010,false,Rx,9,7,B0,01,20,11,20,0D,00,00,
11664941,00000010,false,Rx,9,4,31,08,00,35,00,00,00,00,
11666021,00000008,false,Rx,9,7,B0,01,20,0F,FF,07,00,00,
11675425,000000AA,false,Rx,9,2,AA,04,00,00,00,00,00,00,
11678593,00000040,false,Rx,9,6,B0,01,20,92,FF,FF,00,00,
11680007,00000040,false,Rx,9,6,B0,93,E5,00,14,00,00,00,
11682532,00000010,false,Rx,9,7,B0,01,20,11,20,0D,00,00,
11683198,0000029C,false,Rx,9,3,03,00,1A,00,00,00,00,00,
11686226,00000008,false,Rx,9,7,B0,01,20,0F,FF,07,00,00,
11696246,000000AA,false,Rx,9,2,AA,04,00,00,00,00,00,00,
11698390,00000040,false,Rx,9,3,B0,01,20,00,00,00,00,00,
11700108,000002BC,false,Rx,9,3,03,00,0F,00,00,00,00,00,
11701187,00000010,false,Rx,9,7,B0,01,20,11,20,0E,00,00,
11702373,00000010,false,Rx,9,3,B0,0D,00,00,00,00,00,00,
11705362,00000008,false,Rx,9,7,B0,01,20,0F,FF,07,00,00,
11715404,000000AA,false,Rx,9,2,AA,04,00,00,00,00,00,00,
11718530,00000040,false,Rx,9,3,B0,01,20,00,00,00,00,00,
11720157,000002B4,false,Rx,9,3,03,00,02,00,00,00,00,00,
11721238,00000010,false,Rx,9,7,B0,01,20,11,20,0D,00,00,
11725371,00000008,false,Rx,9,7,B0,01,20,0F,FF,07,00,00,
11735362,000000AA,false,Rx,9,2,AA,04,00,00,00,00,00,00,
11738381,00000040,false,Rx,9,3,B0,01,20,00,00,00,00,00,
11740100,000003AC,false,Rx,9,3,03,00,1D,00,00,00,00,00,
11741179,00000010,false,Rx,9,7,B0,01,20,11,20,0D,00,00,
11745120,00000008,false,Rx,9,7,B0,01,20,0C,BB,0F,FF,00,
11746410,00000008,false,Rx,9,7,B0,0E,00,0D,0E,07,00,00,
11755663,000000AA,false,Rx,9,2,AA,04,00,00,00,00,00,00,
11758277,00000040,false,Rx,9,3,B0,01,20,00,00,00,00,00,
11759998,000003A4,false,Rx,9,3,03,00,2C,00,00,00,00,00,
11761184,00000010,false,Rx,9,7,B0,01,20,11,20,0D,00,00,
