4297725,00000040,false,Rx,9,8,20,00,00,08,00,00,00,00,
4297730,00000040,false,Rx,9,8,20,00,00,08,00,00,00,00,
4297787,000000AA,false,Rx,9,2,AA,04,00,00,00,00,00,00,
4297789,000000AA,false,Rx,9,2,AA,04,00,00,00,00,00,00,
4297792,000000AA,false,Rx,9,2,AA,04,00,00,00,00,00,00,
4297794,000000AA,false,Rx,9,2,AA,04,00,00,00,00,00,00,
4297796,000000AA,false,Rx,9,2,AA,04,00,00,00,00,00,00,
4297798,000000AA,false,Rx,9,2,AA,04,00,00,00,00,00,00,
4297803,000000AA,false,Rx,9,2,AA,04,00,00,00,00,00,00,
4297804,00000040,false,Rx,9,8,23,00,00,08,FC,80,00,00,
4297805,00000008,false,Rx,9,1,A3,00,00,00,00,00,00,00,
4297806,00000010,false,Rx,9,1,A3,00,00,00,00,00,00,00,
4297809,00000040,false,Rx,9,8,23,00,00,08,FC,80,00,00,
4297810,00000008,false,Rx,9,1,A3,00,00,00,00,00,00,00,
4297812,00000010,false,Rx,9,1,A3,00,00,00,00,00,00,00,
4297816,000000AA,false,Rx,9,2,AA,04,00,00,00,00,00,00,
4297818,00000040,false,Rx,9,8,21,00,00,08,FC,80,00,00,
4297818,00000008,false,Rx,9,1,A1,00,00,00,00,00,00,00,
4297819,00000010,false,Rx,9,1,A1,00,00,00,00,00,00,00,
4297823,00000040,false,Rx,9,8,21,00,00,08,FC,80,00,00,
4297824,00000008,false,Rx,9,1,A1,00,00,00,00,00,00,00,
4297824,00000010,false,Rx,9,1,A1,00,00,00,00,00,00,00,
4297828,000000AA,false,Rx,9,2,AA,04,00,00,00,00,00,00,
4297830,00000040,false,Rx,9,8,24,00,00,08,FC,40,00,00,
4297832,00000008,false,Rx,9,1,A4,00,00,00,00,00,00,00,
4297832,00000010,false,Rx,9,1,A4,00,00,00,00,00,00,00,
4297835,00000040,false,Rx,9,8,24,00,00,08,FC,40,00,00,
4297836,00000008,false,Rx,9,1,A4,00,00,00,00,00,00,00,
4297836,00000010,false,Rx,9,1,A4,00,00,00,00,00,00,00,
4297843,000000AA,false,Rx,9,2,AA,04,00,00,00,00,00,00,
4297847,000000AA,false,Rx,9,2,AA,04,00,00,00,00,00,00,
4297852,000000AA,false,Rx,9,2,AA,04,00,00,00,00,00,00,
4297855,000000AA,false,Rx,9,2,AA,04,00,00,00,00,00,00,
4297859,000000AA,false,Rx,9,2,AA,04,00,00,00,00,00,00,
4297862,000000AA,false,Rx,9,2,AA,04,00,00,00,00,00,00,
4297866,000000AA,false,Rx,9,2,AA,04,00,00,00,00,00,00,
4297870,000000AA,false,Rx,9,2,AA,04,00,00,00,00,00,00,
4297874,000000AA,false,Rx,9,2,AA,04,00,00,00,00,00,00,
4297878,000000AA,false,Rx,9,2,AA,04,00,00,00,00,00,00,
4297881,000000AA,false,Rx,9,2,AA,04,00,00,00,00,00,00,
4297885,000000AA,false,Rx,9,2,AA,04,00,00,00,00,00,00,
4297889,000000AA,false,Rx,9,2,AA,04,00,00,00,00,00,00,
4297893,000000AA,false,Rx,9,2,AA,04,00,00,00,00,00,00,
4297897,000000AA,false,Rx,9,2,AA,04,00,00,00,00,00,00,
4297900,000000AA,false,Rx,9,2,AA,04,00,00,00,00,00,00,
4297904,000000AA,false,Rx,9,2,AA,04,00,00,00,00,00,00,
4297908,000000AA,false,Rx,9,2,AA,04,00,00,00,00,00,00,
4297912,000000AA,false,Rx,9,2,AA,04,00,00,00,00,00,00,
4297916,000000AA,false,Rx,9,2,AA,04,00,00,00,00,00,00,
4297920,000000AA,false,Rx,9,2,AA,04,00,00,00,00,00,00,
4297923,000000AA,false,Rx,9,2,AA,04,00,00,00,00,00,00,
4297927,000000AA,false,Rx,9,2,AA,04,00,00,00,00,00,00,
4297932,000000AA,false,Rx,9,2,AA,04,00,00,00,00,00,00,
4297935,000000AA,false,Rx,9,2,AA,04,00,00,00,00,00,00,
4297939,000000AA,false,Rx,9,2,AA,04,00,00,00,00,00,00,
4297942,000000AA,false,Rx,9,2,AA,04,00,00,00,00,00,00,
4297946,000000AA,false,Rx,9,2,AA,04,00,00,00,00,00,00,
4297950,000000AA,false,Rx,9,2,AA,04,00,00,00,00,00,00,
4297954,000000AA,false,Rx,9,2,AA,04,00,00,00,00,00,00,
4297958,000000AA,false,Rx,9,2,AA,04,00,00,00,00,00,00,
4297962,000000AA,false,Rx,9,2,AA,04,00,00,00,00,00,00,
4297964,000000AA,false,Rx,9,2,AA,04,00,00,00,00,00,00,
4297968,00000040,false,Rx,9,8,27,00,00,FD,00,80,00,00,
4297973,00000040,false,Rx,9,8,13,01,00,00,00,FF,00,00,
4297989,000000AA,false,Rx,9,2,AA,04,00,00,00,00,00,00,
4297993,0000029C,false,Rx,9,3,03,00,1A,00,00,00,00,00,
4297999,00000010,false,Rx,9,4,30,08,00,01,00,00,00,00,
4298000,00000040,false,Rx,9,3,B0,01,10,00,00,00,00,00,
4298009,000000AA,false,Rx,9,2,AA,04,00,00,00,00,00,00,
4298012,00000040,false,Rx,9,3,B0,01,10,00,00,00,00,00,
4298015,000002BC,false,Rx,9,3,03,00,0B,00,00,00,00,00,
4298029,000000AA,false,Rx,9,2,AA,04,00,00,00,00,00,00,
4298032,00000040,false,Rx,9,3,B0,01,10,00,00,00,00,00,
4298034,000002B4,false,Rx,9,3,03,00,0A,00,00,00,00,00,
4298035,00000040,false,Rx,9,5,30,02,00,01,08,00,00,00,
4298037,00000010,false,Rx,9,3,B0,01,00,00,00,00,00,00,
4298039,00000010,false,Rx,9,4,30,01,00,01,00,00,00,00,
4298040,00000008,false,Rx,9,3,B0,01,02,00,00,00,00,00,
4298049,000000AA,false,Rx,9,2,AA,04,00,00,00,00,00,00,
4298052,00000040,false,Rx,9,3,B0,01,0C,00,00,00,00,00,
4298053,000003AC,false,Rx,9,3,03,00,1D,00,00,00,00,00,
4298055,00000010,false,Rx,9,3,B0,01,02,00,00,00,00,00,
4298062,00000008,false,Rx,9,5,B0,01,02,0C,B5,00,00,00,
4298063,00000008,false,Rx,9,8,10,00,00,00,00,FF,00,00,
4298068,00000040,false,Rx,9,8,90,01,00,00,06,29,00,00,
4298070,000000AA,false,Rx,9,2,AA,04,00,00,00,00,00,00,
4298073,00000040,false,Rx,9,3,B0,01,10,00,00,00,00,00,
4298074,000003A4,false,Rx,9,3,03,00,2C,00,00,00,00,00,
4298075,00000010,false,Rx,9,3,B0,01,02,00,00,00,00,00,
4298082,00000008,false,Rx,9,3,B0,01,02,00,00,00,00,00,
4298084,00000008,false,Rx,9,8,10,00,00,01,06,29,00,00,
4298085,00000040,false,Rx,9,8,90,01,00,01,47,22,00,00,
4298089,000000AA,false,Rx,9,2,AA,04,00,00,00,00,00,00,
4298093,00000040,false,Rx,9,3,B0,01,10,00,00,00,00,00,
4298095,00000010,false,Rx,9,3,B0,01,02,00,00,00,00,00,
4298102,00000008,false,Rx,9,3,B0,01,02,00,00,00,00,00,
4298104,00000008,false,Rx,9,8,12,00,00,00,7F,00,00,00,
4298105,00000040,false,Rx,9,8,13,02,00,00,00,FF,00,00,
4298106,00000008,false,Rx,9,4,30,02,00,11,00,00,00,00,
4298108,00000010,false,Rx,9,3,B0,11,10,00,00,00,00,00,
4298109,000000AA,false,Rx,9,2,AA,04,00,00,00,00,00,00,
4298113,00000040,false,Rx,9,3,B0,01,10,00,00,00,00,00,
4298114,0000029C,false,Rx,9,3,03,00,1A,00,00,00,00,00,
4298116,00000010,false,Rx,9,5,B0,01,02,11,10,00,00,00,
4298117,00000010,false,Rx,9,8,10,00,00,00,00,FF,00,00,
4298122,00000008,false,Rx,9,3,B0,01,10,00,00,00,00,00,
4298124,00000040,false,Rx,9,8,90,02,00,00,02,7C,00,00,
4298129,000000AA,false,Rx,9,2,AA,04,00,00,00,00,00,00,
4298132,00000040,false,Rx,9,3,B0,01,10,00,00,00,00,00,
4298133,000002BC,false,Rx,9,3,03,00,0B,00,00,00,00,00,
4298137,00000010,false,Rx,9,5,B0,01,10,11,10,00,00,00,
4298138,00000010,false,Rx,9,8,10,00,00,01,02,7C,00,00,
4298139,00000040,false,Rx,9,8,90,02,00,01,47,22,00,00,
4298142,00000008,false,Rx,9,3,B0,01,10,00,00,00,00,00,
4298149,000000AA,false,Rx,9,2,AA,04,00,00,00,00,00,00,
4298153,00000040,false,Rx,9,3,B0,01,10,00,00,00,00,00,
4298153,000002B4,false,Rx,9,3,03,00,0A,00,00,00,00,00,
4298155,00000040,false,Rx,9,5,30,02,00,0E,03,00,00,00,
4298156,00000010,false,Rx,9,5,B0,01,10,11,10,00,00,00,
4298157,00000010,false,Rx,9,8,12,00,00,00,00,0C,00,00,
4298158,00000040,false,Rx,9,5,30,02,00,0D,03,00,00,00,
4298159,00000010,false,Rx,9,3,B0,0E,00,00,00,00,00,00,
4298160,00000010,false,Rx,9,3,B0,0D,00,00,00,00,00,00,
4298161,00000010,false,Rx,9,4,30,01,00,0F,00,00,00,00,
4298162,00000010,false,Rx,9,4,30,01,00,0E,00,00,00,00,
4298162,00000010,false,Rx,9,4,30,01,00,07,00,00,00,00,
4298163,00000040,false,Rx,9,5,30,01,00,0D,03,00,00,00,
4298164,00000010,false,Rx,9,4,30,08,00,14,00,00,00,00,
4298165,00000008,false,Rx,9,7,B0,01,10,0F,FF,0E,00,00,
4298166,00000010,false,Rx,9,4,30,08,00,13,00,00,00,00,
4298167,00000008,false,Rx,9,5,B0,07,00,0D,00,00,00,00,
4298168,00000010,false,Rx,9,4,30,08,00,12,00,00,00,00,
4298169,000000AA,false,Rx,9,2,AA,04,00,00,00,00,00,00,
4298173,00000040,false,Rx,9,6,B0,01,10,92,FF,FF,00,00,
4298174,00000040,false,Rx,9,6,B0,93,E2,00,14,00,00,00, NV93 Profile = 2
4298175,00000010,false,Rx,9,7,B0,01,10,11,10,0D,00,00,
4298176,000003AC,false,Rx,9,3,03,00,1D,00,00,00,00,00,
4298183,00000008,false,Rx,9,7,B0,01,10,0F,FF,07,00,00,
4298188,000000AA,false,Rx,9,2,AA,04,00,00,00,00,00,00,
4298190,00000040,false,Rx,9,3,B0,01,10,00,00,00,00,00,
4298196,00000010,false,Rx,9,7,B0,01,10,11,10,0E,00,00,
4298197,00000010,false,Rx,9,3,B0,0D,00,00,00,00,00,00,
4298198,000003A4,false,Rx,9,3,03,00,2C,00,00,00,00,00,
4298202,00000008,false,Rx,9,7,B0,01,10,0F,FF,07,00,00,
4298208,000000AA,false,Rx,9,2,AA,04,00,00,00,00,00,00,
4298211,00000040,false,Rx,9,3,B0,01,10,00,00,00,00,00,
4298216,00000010,false,Rx,9,7,B0,01,10,11,10,0D,00,00,
4298222,00000008,false,Rx,9,7,B0,01,10,0F,FF,07,00,00,
4298229,000000AA,false,Rx,9,2,AA,04,00,00,00,00,00,00,
4298231,00000040,false,Rx,9,3,B0,01,10,00,00,00,00,00,
4298234,0000029C,false,Rx,9,3,03,00,1A,00,00,00,00,00,
4298236,00000010,false,Rx,9,7,B0,01,10,11,10,0D,00,00,
4298242,00000008,false,Rx,9,7,B0,01,10,0C,B5,0F,FF,00,
4298244,00000008,false,Rx,9,7,B0,0E,00,07,00,0D,00,00,
4298250,000000AA,false,Rx,9,2,AA,04,00,00,00,00,00,00,
4298253,00000040,false,Rx,9,3,B0,01,10,00,00,00,00,00,
4298256,00000010,false,Rx,9,7,B0,01,10,11,10,0D,00,00,
4298262,00000008,false,Rx,9,7,B0,01,10,0F,FF,07,00,00,
4298265,000002BC,false,Rx,9,3,03,00,0B,00,00,00,00,00,
4298268,000000AA,false,Rx,9,2,AA,04,00,00,00,00,00,00,
4298270,00000040,false,Rx,9,3,B0,01,10,00,00,00,00,00,
4298276,00000010,false,Rx,9,7,B0,01,10,11,10,0D,00,00,
4298282,00000008,false,Rx,9,7,B0,01,10,0F,FF,07,00,00,
4298288,000002B4,false,Rx,9,3,03,00,0A,00,00,00,00,00,
4298290,000000AA,false,Rx,9,2,AA,04,00,00,00,00,00,00,
4298293,00000040,false,Rx,9,3,B0,01,10,00,00,00,00,00,
4298296,00000010,false,Rx,9,7,B0,01,10,11,10,0D,00,00,
4298302,00000008,false,Rx,9,7,B0,01,10,0F,FF,07,00,00,
4298308,000003AC,false,Rx,9,3,03,00,1D,00,00,00,00,00,
4298310,000000AA,false,Rx,9,2,AA,04,00,00,00,00,00,00,
4298313,00000040,false,Rx,9,3,B0,01,10,00,00,00,00,00,
4298316,00000010,false,Rx,9,7,B0,01,10,11,10,0D,00,00,
4298322,00000008,false,Rx,9,7,B0,01,10,0F,FF,07,00,00,
4298328,000000AA,false,Rx,9,2,AA,04,00,00,00,00,00,00,
4298333,00000040,false,Rx,9,3,B0,01,10,00,00,00,00,00,
4298336,00000010,false,Rx,9,7,B0,01,10,11,10,0D,00,00,
4298337,000003A4,false,Rx,9,3,03,00,2C,00,00,00,00,00,
4298342,00000008,false,Rx,9,7,B0,01,10,0F,FF,07,00,00,
4298348,000000AA,false,Rx,9,2,AA,04,00,00,00,00,00,00,
4298351,00000040,false,Rx,9,3,B0,01,10,00,00,00,00,00,
4298356,00000010,false,Rx,9,7,B0,01,10,11,10,0D,00,00,
4298362,00000008,false,Rx,9,7,B0,01,10,0F,FF,07,00,00,
4298369,000000AA,false,Rx,9,2,AA,04,00,00,00,00,00,00,
4298373,00000040,false,Rx,9,6,B0,01,10,92,FF,FF,00,00,
4298373,00000040,false,Rx,9,6,B0,93,E2,00,14,00,00,00,
4298376,0000029C,false,Rx,9,3,03,00,1A,00,00,00,00,00,
4298377,00000010,false,Rx,9,7,B0,01,10,11,10,0D,00,00,
4298382,00000008,false,Rx,9,7,B0,01,10,0F,FF,07,00,00,
4298388,000000AA,false,Rx,9,2,AA,04,00,00,00,00,00,00,
4298391,00000040,false,Rx,9,3,B0,01,10,00,00,00,00,00,
4298393,000002BC,false,Rx,9,3,03,00,0B,00,00,00,00,00,
4298396,00000010,false,Rx,9,7,B0,01,10,11,10,0E,00,00,
4298397,00000010,false,Rx,9,3,B0,0D,00,00,00,00,00,00,
4298402,00000008,false,Rx,9,7,B0,01,10,0F,FF,07,00,00,
4298409,000000AA,false,Rx,9,2,AA,04,00,00,00,00,00,00,
4298411,00000040,false,Rx,9,3,B0,01,10,00,00,00,00,00,
4298413,000002B4,false,Rx,9,3,03,00,0A,00,00,00,00,00,
4298416,00000010,false,Rx,9,7,B0,01,10,11,10,0D,00,00,
4298422,00000008,false,Rx,9,7,B0,01,10,0F,FF,07,00,00,
4298428,000000AA,false,Rx,9,2,AA,04,00,00,00,00,00,00,
4298431,00000040,false,Rx,9,3,B0,01,10,00,00,00,00,00,
4298433,000003AC,false,Rx,9,3,03,00,1D,00,00,00,00,00,
4298436,00000010,false,Rx,9,7,B0,01,10,11,10,0D,00,00,
4298442,00000008,false,Rx,9,7,B0,01,10,0C,B5,0F,FF,00,
4298444,00000008,false,Rx,9,7,B0,0E,00,07,00,0D,00,00,
4298448,000000AA,false,Rx,9,2,AA,04,00,00,00,00,00,00,
4298451,00000040,false,Rx,9,3,B0,01,10,00,00,00,00,00,
4298454,000003A4,false,Rx,9,3,03,00,2C,00,00,00,00,00,
4298456,00000010,false,Rx,9,7,B0,01,10,11,10,0D,00,00,
4298462,00000008,false,Rx,9,7,B0,01,10,0F,FF,07,00,00,
4298468,000000AA,false,Rx,9,2,AA,04,00,00,00,00,00,00,
4298471,00000040,false,Rx,9,3,B0,01,10,00,00,00,00,00,
4298476,00000010,false,Rx,9,7,B0,01,10,11,10,0D,00,00,
4298482,00000008,false,Rx,9,7,B0,01,10,0F,FF,07,00,00,
4298488,000000AA,false,Rx,9,2,AA,04,00,00,00,00,00,00,
4298491,00000040,false,Rx,9,3,B0,01,10,00,00,00,00,00,
4298494,0000029C,false,Rx,9,3,03,00,1A,00,00,00,00,00,
4298496,00000010,false,Rx,9,7,B0,01,10,11,10,0D,00,00,
4298502,00000008,false,Rx,9,7,B0,01,10,0F,FF,07,00,00,
4298509,000000AA,false,Rx,9,2,AA,04,00,00,00,00,00,00,
4298511,00000040,false,Rx,9,3,B0,01,10,00,00,00,00,00,
4298514,000002BC,false,Rx,9,3,03,00,0B,00,00,00,00,00,
4298516,00000010,false,Rx,9,7,B0,01,10,11,10,0D,00,00,
4298522,00000008,false,Rx,9,7,B0,01,10,0F,FF,07,00,00,
4298528,000000AA,false,Rx,9,2,AA,04,00,00,00,00,00,00,
4298531,00000040,false,Rx,9,3,B0,01,10,00,00,00,00,00,
4298534,000002B4,false,Rx,9,3,03,00,0A,00,00,00,00,00,
4298536,00000010,false,Rx,9,7,B0,01,10,11,10,0D,00,00,
4298542,00000008,false,Rx,9,7,B0,01,10,0F,FF,07,00,00,
4298549,000000AA,false,Rx,9,2,AA,04,00,00,00,00,00,00,
4298551,00000040,false,Rx,9,3,B0,01,10,00,00,00,00,00,
4298554,000003AC,false,Rx,9,3,03,00,1D,00,00,00,00,00,
4298556,00000010,false,Rx,9,7,B0,01,10,11,10,0D,00,00,
4298561,00000010,false,Rx,9,4,30,08,00,2C,00,00,00,00,
4298562,00000040,false,Rx,9,3,B0,2C,59,00,00,00,00,00,
4298563,00000008,false,Rx,9,7,B0,01,10,0F,FF,07,00,00,
4298568,000000AA,false,Rx,9,2,AA,04,00,00,00,00,00,00,
4298572,00000040,false,Rx,9,6,B0,01,10,92,FF,FF,00,00,
4298574,00000040,false,Rx,9,8,B0,93,E2,00,14,00,2C,59,
4298575,000003A4,false,Rx,9,3,03,00,2C,00,00,00,00,00,
4298577,00000010,false,Rx,9,7,B0,01,10,11,10,0D,00,00,
4298582,00000008,false,Rx,9,7,B0,01,10,0F,FF,07,00,00,
4298589,000000AA,false,Rx,9,2,AA,04,00,00,00,00,00,00,
4298591,00000040,false,Rx,9,3,B0,01,10,00,00,00,00,00,
4298596,00000010,false,Rx,9,7,B0,01,10,11,10,0E,00,00,
4298597,00000010,false,Rx,9,3,B0,0D,00,00,00,00,00,00,
4298602,00000008,false,Rx,9,7,B0,01,10,0F,FF,07,00,00,
4298608,000000AA,false,Rx,9,2,AA,04,00,00,00,00,00,00,
4298611,00000040,false,Rx,9,3,B0,01,10,00,00,00,00,00,
4298614,0000029C,false,Rx,9,3,03,00,1A,00,00,00,00,00,
4298616,00000010,false,Rx,9,7,B0,01,10,11,10,0D,00,00,
4298622,00000008,false,Rx,9,7,B0,01,10,0F,FF,07,00,00,
4298629,000000AA,false,Rx,9,2,AA,04,00,00,00,00,00,00,
4298631,00000040,false,Rx,9,3,B0,01,10,00,00,00,00,00,
4298634,000002BC,false,Rx,9,3,03,00,0B,00,00,00,00,00,
4298636,00000010,false,Rx,9,7,B0,01,10,11,10,0D,00,00,
4298642,00000008,false,Rx,9,7,B0,01,10,0C,B5,0F,FF,00,
4298644,00000008,false,Rx,9,7,B0,0E,00,07,00,0D,00,00,
4298648,000000AA,false,Rx,9,2,AA,04,00,00,00,00,00,00,
4298651,00000040,false,Rx,9,3,B0,01,10,00,00,00,00,00,
4298654,000002B4,false,Rx,9,3,03,00,0A,00,00,00,00,00,
4298656,00000010,false,Rx,9,7,B0,01,10,11,10,0D,00,00,
4298662,00000008,false,Rx,9,7,B0,01,10,0F,FF,07,00,00,
4298669,000000AA,false,Rx,9,2,AA,04,00,00,00,00,00,00,
4298671,00000040,false,Rx,9,3,B0,01,10,00,00,00,00,00,
4298674,000003AC,false,Rx,9,3,03,00,1D,00,00,00,00,00,
4298676,00000010,false,Rx,9,7,B0,01,10,11,10,0D,00,00,
4298682,00000008,false,Rx,9,7,B0,01,10,0F,FF,07,00,00,
4298688,000000AA,false,Rx,9,2,AA,04,00,00,00,00,00,00,
4298691,00000040,false,Rx,9,3,B0,01,10,00,00,00,00,00,
4298694,000003A4,false,Rx,9,3,03,00,2C,00,00,00,00,00, Requests the 2C
4298696,00000010,false,Rx,9,7,B0,01,10,11,10,0D,00,00,
4298702,00000008,false,Rx,9,7,B0,01,10,0F,FF,07,00,00,
4298708,000000AA,false,Rx,9,2,AA,04,00,00,00,00,00,00,
4298711,00000040,false,Rx,9,3,B0,01,10,00,00,00,00,00,
4298716,00000010,false,Rx,9,7,B0,01,10,11,10,0D,00,00,
4298722,00000008,false,Rx,9,7,B0,01,10,0F,FF,07,00,00,
4298728,000000AA,false,Rx,9,2,AA,04,00,00,00,00,00,00,
4298731,00000040,false,Rx,9,3,B0,01,10,00,00,00,00,00,
4298734,0000029C,false,Rx,9,3,03,00,1A,00,00,00,00,00,
4298736,00000010,false,Rx,9,7,B0,01,10,11,10,0D,00,00,
4298742,00000008,false,Rx,9,7,B0,01,10,0F,FF,07,00,00,
4298749,000000AA,false,Rx,9,2,AA,04,00,00,00,00,00,00,
4298751,00000040,false,Rx,9,3,B0,01,10,00,00,00,00,00,
4298754,000002BC,false,Rx,9,3,03,00,0B,00,00,00,00,00,
4298756,00000010,false,Rx,9,7,B0,01,10,11,10,0D,00,00,
4298762,00000008,false,Rx,9,7,B0,01,10,0F,FF,07,00,00,
4298769,000000AA,false,Rx,9,2,AA,04,00,00,00,00,00,00,
4298772,00000040,false,Rx,9,6,B0,01,10,92,FF,FF,00,00,
4298774,00000040,false,Rx,9,8,B0,93,E2,00,14,00,2C,59,  data for 2C
4298775,000002B4,false,Rx,9,3,03,00,0A,00,00,00,00,00,
4298777,00000010,false,Rx,9,7,B0,01,10,11,10,0D,00,00,
4298782,00000008,false,Rx,9,7,B0,01,10,0F,FF,07,00,00,
4298789,000000AA,false,Rx,9,2,AA,04,00,00,00,00,00,00,
4298791,00000040,false,Rx,9,3,B0,01,10,00,00,00,00,00,
4298794,000003AC,false,Rx,9,3,03,00,1D,00,00,00,00,00,
4298796,00000010,false,Rx,9,7,B0,01,10,11,10,0E,00,00,
4298797,00000010,false,Rx,9,3,B0,0D,00,00,00,00,00,00,
4298802,00000008,false,Rx,9,7,B0,01,10,0F,FF,07,00,00,
4298809,000000AA,false,Rx,9,2,AA,04,00,00,00,00,00,00,
4298811,00000040,false,Rx,9,3,B0,01,10,00,00,00,00,00,
4298814,000003A4,false,Rx,9,3,03,00,2C,00,00,00,00,00,
4298816,00000010,false,Rx,9,7,B0,01,10,11,10,0D,00,00,
4298822,00000008,false,Rx,9,7,B0,01,10,0F,FF,07,00,00,
4298828,000000AA,false,Rx,9,2,AA,04,00,00,00,00,00,00,
4298831,00000040,false,Rx,9,3,B0,01,10,00,00,00,00,00,
4298836,00000010,false,Rx,9,7,B0,01,10,11,10,0D,00,00,
4298842,00000008,false,Rx,9,7,B0,01,10,0C,B5,0F,FF,00,
4298844,00000008,false,Rx,9,7,B0,0E,00,07,00,0D,00,00,
4298849,000000AA,false,Rx,9,2,AA,04,00,00,00,00,00,00,
4298851,00000040,false,Rx,9,3,B0,01,10,00,00,00,00,00,
4298855,0000029C,false,Rx,9,3,03,00,1A,00,00,00,00,00,
4298856,00000010,false,Rx,9,7,B0,01,10,11,10,0D,00,00,
4298862,00000008,false,Rx,9,7,B0,01,10,0F,FF,07,00,00,
4298869,000000AA,false,Rx,9,2,AA,04,00,00,00,00,00,00,
4298871,00000040,false,Rx,9,3,B0,01,10,00,00,00,00,00,
4298875,000002BC,false,Rx,9,3,03,00,0B,00,00,00,00,00,
4298876,00000010,false,Rx,9,7,B0,01,10,11,10,0D,00,00,
4298882,00000008,false,Rx,9,7,B0,01,10,0F,FF,07,00,00,
4298889,000000AA,false,Rx,9,2,AA,04,00,00,00,00,00,00,
4298891,00000040,false,Rx,9,3,B0,01,10,00,00,00,00,00,
4298895,000002B4,false,Rx,9,3,03,00,0A,00,00,00,00,00,
4298896,00000010,false,Rx,9,7,B0,01,10,11,10,0D,00,00,
4298902,00000008,false,Rx,9,7,B0,01,10,0F,FF,07,00,00,
4298909,000000AA,false,Rx,9,2,AA,04,00,00,00,00,00,00,
4298911,00000040,false,Rx,9,3,B0,01,10,00,00,00,00,00,
4298913,000003AC,false,Rx,9,3,03,00,1D,00,00,00,00,00,
4298916,00000010,false,Rx,9,7,B0,01,10,11,10,0D,00,00,
4298922,00000008,false,Rx,9,7,B0,01,10,0F,FF,07,00,00,
4298929,000000AA,false,Rx,9,2,AA,04,00,00,00,00,00,00,
4298931,00000040,false,Rx,9,3,B0,01,10,00,00,00,00,00,
4298933,000003A4,false,Rx,9,3,03,00,2C,00,00,00,00,00,
4298936,00000010,false,Rx,9,7,B0,01,10,11,10,0D,00,00,
4298942,00000008,false,Rx,9,7,B0,01,10,0F,FF,07,00,00,
4298949,000000AA,false,Rx,9,2,AA,04,00,00,00,00,00,00,
4298952,00000040,false,Rx,9,3,B0,01,10,00,00,00,00,00,
4298956,00000010,false,Rx,9,7,B0,01,10,11,10,0D,00,00,
4298960,00000010,false,Rx,9,4,30,08,00,2D,00,00,00,00,  Requests the 2D
4298961,00000010,false,Rx,9,4,31,08,00,2C,00,00,00,00,  Stops the 2C
4298962,00000040,false,Rx,9,3,B0,2D,66,00,00,00,00,00,    data for 2D
4298963,00000008,false,Rx,9,7,B0,01,10,0F,FF,07,00,00,
4298969,000000AA,false,Rx,9,2,AA,04,00,00,00,00,00,00,
4298972,00000040,false,Rx,9,6,B0,01,10,92,FF,FF,00,00,
4298975,00000040,false,Rx,9,8,B0,93,E2,00,14,00,2D,66,    data for 2D
4298976,0000029C,false,Rx,9,3,03,00,1A,00,00,00,00,00,
4298978,00000010,false,Rx,9,7,B0,01,10,11,10,0D,00,00,
4298982,00000008,false,Rx,9,7,B0,01,10,0F,FF,07,00,00,
4298989,000000AA,false,Rx,9,2,AA,04,00,00,00,00,00,00,
4298991,00000040,false,Rx,9,3,B0,01,10,00,00,00,00,00,
4298993,000002BC,false,Rx,9,3,03,00,0B,00,00,00,00,00,
4298996,00000010,false,Rx,9,7,B0,01,10,11,10,0E,00,00,
4298997,00000010,false,Rx,9,3,B0,0D,00,00,00,00,00,00,
4299002,00000008,false,Rx,9,7,B0,01,10,0F,FF,07,00,00,
4299009,000000AA,false,Rx,9,2,AA,04,00,00,00,00,00,00,
4299011,00000040,false,Rx,9,3,B0,01,10,00,00,00,00,00,
4299013,000002B4,false,Rx,9,3,03,00,0A,00,00,00,00,00,
4299016,00000010,false,Rx,9,7,B0,01,10,11,10,0D,00,00,
4299022,00000008,false,Rx,9,7,B0,01,10,0F,FF,07,00,00,
4299029,000000AA,false,Rx,9,2,AA,04,00,00,00,00,00,00,
4299032,00000040,false,Rx,9,3,B0,01,10,00,00,00,00,00,
4299035,000003AC,false,Rx,9,3,03,00,1D,00,00,00,00,00,
4299036,00000010,false,Rx,9,7,B0,01,10,11,10,0D,00,00,
4299042,00000008,false,Rx,9,7,B0,01,10,0C,B5,0F,FF,00,
4299044,00000008,false,Rx,9,7,B0,0E,00,07,00,0D,00,00,
4299049,000000AA,false,Rx,9,2,AA,04,00,00,00,00,00,00,
4299052,00000040,false,Rx,9,3,B0,01,10,00,00,00,00,00,
4299055,000003A4,false,Rx,9,3,03,00,2C,00,00,00,00,00,
4299056,00000010,false,Rx,9,7,B0,01,10,11,10,0D,00,00,
4299062,00000008,false,Rx,9,7,B0,01,10,0F,FF,07,00,00,
4299069,000000AA,false,Rx,9,2,AA,04,00,00,00,00,00,00,
4299071,00000040,false,Rx,9,3,B0,01,10,00,00,00,00,00,
4299076,00000010,false,Rx,9,7,B0,01,10,11,10,0D,00,00,
4299082,00000008,false,Rx,9,7,B0,01,10,0F,FF,07,00,00,
4299089,000000AA,false,Rx,9,2,AA,04,00,00,00,00,00,00,
4299092,00000040,false,Rx,9,3,B0,01,10,00,00,00,00,00,
4299095,0000029C,false,Rx,9,3,03,00,1A,00,00,00,00,00,
4299096,00000010,false,Rx,9,7,B0,01,10,11,10,0D,00,00,
4299102,00000008,false,Rx,9,7,B0,01,10,0F,FF,07,00,00,
4299109,000000AA,false,Rx,9,2,AA,04,00,00,00,00,00,00,
4299112,00000040,false,Rx,9,3,B0,01,10,00,00,00,00,00,
4299113,000002BC,false,Rx,9,3,03,00,0B,00,00,00,00,00,
4299116,00000010,false,Rx,9,7,B0,01,10,11,10,0D,00,00,
4299122,00000008,false,Rx,9,7,B0,01,10,0F,FF,07,00,00,
4299129,000000AA,false,Rx,9,2,AA,04,00,00,00,00,00,00,
4299132,00000040,false,Rx,9,3,B0,01,10,00,00,00,00,00,
4299133,000002B4,false,Rx,9,3,03,00,0A,00,00,00,00,00,
4299136,00000010,false,Rx,9,7,B0,01,10,11,10,0D,00,00,
4299142,00000008,false,Rx,9,7,B0,01,10,0F,FF,07,00,00,
4299149,000000AA,false,Rx,9,2,AA,04,00,00,00,00,00,00,
4299152,00000040,false,Rx,9,3,B0,01,10,00,00,00,00,00,
4299153,000003AC,false,Rx,9,3,03,00,1D,00,00,00,00,00,
4299156,00000010,false,Rx,9,7,B0,01,10,11,10,0D,00,00,
4299162,00000008,false,Rx,9,7,B0,01,10,0F,FF,07,00,00,
4299169,000000AA,false,Rx,9,2,AA,04,00,00,00,00,00,00,
4299172,00000040,false,Rx,9,6,B0,01,10,92,FF,FF,00,00,
4299174,00000040,false,Rx,9,8,B0,93,E2,00,14,00,2D,66,    data for 2D
4299175,000003A4,false,Rx,9,3,03,00,2C,00,00,00,00,00,
4299177,00000010,false,Rx,9,7,B0,01,10,11,10,0D,00,00,
4299182,00000008,false,Rx,9,7,B0,01,10,0F,FF,07,00,00,
4299189,000000AA,false,Rx,9,2,AA,04,00,00,00,00,00,00,
4299192,00000040,false,Rx,9,3,B0,01,10,00,00,00,00,00,
4299196,00000010,false,Rx,9,7,B0,01,10,11,10,0E,00,00,
4299197,00000010,false,Rx,9,3,B0,0D,00,00,00,00,00,00,
4299202,00000008,false,Rx,9,7,B0,01,10,0F,FF,07,00,00,
4299209,000000AA,false,Rx,9,2,AA,04,00,00,00,00,00,00,
4299212,00000040,false,Rx,9,3,B0,01,10,00,00,00,00,00,
4299216,0000029C,false,Rx,9,3,03,00,1A,00,00,00,00,00,
4299216,00000010,false,Rx,9,7,B0,01,10,11,10,0D,00,00,
4299222,00000008,false,Rx,9,7,B0,01,10,0F,FF,07,00,00,
4299229,000000AA,false,Rx,9,2,AA,04,00,00,00,00,00,00,
4299232,00000040,false,Rx,9,3,B0,01,10,00,00,00,00,00,
4299233,000002BC,false,Rx,9,3,03,00,0B,00,00,00,00,00,
4299236,00000010,false,Rx,9,7,B0,01,10,11,10,0D,00,00,
4299242,00000008,false,Rx,9,7,B0,01,10,0C,B5,0F,FF,00,
4299244,00000008,false,Rx,9,7,B0,0E,00,07,00,0D,09,00,
4299249,000000AA,false,Rx,9,2,AA,04,00,00,00,00,00,00,
4299252,00000040,false,Rx,9,3,B0,01,10,00,00,00,00,00,
4299254,000002B4,false,Rx,9,3,03,00,0A,00,00,00,00,00,
4299256,00000010,false,Rx,9,7,B0,01,10,11,10,0D,00,00,
4299262,00000008,false,Rx,9,7,B0,01,10,0F,FF,07,00,00,
4299269,000000AA,false,Rx,9,2,AA,04,00,00,00,00,00,00,
4299272,00000040,false,Rx,9,3,B0,01,10,00,00,00,00,00,
4299273,000003AC,false,Rx,9,3,03,00,1D,00,00,00,00,00,
4299276,00000010,false,Rx,9,7,B0,01,10,11,10,0D,00,00,
4299282,00000008,false,Rx,9,7,B0,01,10,0F,FF,07,00,00,
4299289,000000AA,false,Rx,9,2,AA,04,00,00,00,00,00,00,
4299292,00000040,false,Rx,9,3,B0,01,10,00,00,00,00,00,
4299293,000003A4,false,Rx,9,3,03,00,2C,00,00,00,00,00,
4299296,00000010,false,Rx,9,7,B0,01,10,11,10,0D,00,00,
4299302,00000008,false,Rx,9,7,B0,01,10,0F,FF,07,00,00,
4299309,000000AA,false,Rx,9,2,AA,04,00,00,00,00,00,00,
4299312,00000040,false,Rx,9,3,B0,01,10,00,00,00,00,00,
4299316,00000010,false,Rx,9,7,B0,01,10,11,10,0D,00,00,
4299322,00000008,false,Rx,9,7,B0,01,10,0F,FF,07,00,00,
4299329,000000AA,false,Rx,9,2,AA,04,00,00,00,00,00,00,
4299332,00000040,false,Rx,9,3,B0,01,10,00,00,00,00,00,
4299336,0000029C,false,Rx,9,3,03,00,1A,00,00,00,00,00,
4299336,00000010,false,Rx,9,7,B0,01,10,11,10,0D,00,00,
4299342,00000008,false,Rx,9,7,B0,01,10,0F,FF,07,00,00,
4299349,000000AA,false,Rx,9,2,AA,04,00,00,00,00,00,00,
4299352,00000040,false,Rx,9,3,B0,01,10,00,00,00,00,00,
4299353,000002BC,false,Rx,9,3,03,00,0B,00,00,00,00,00,
4299356,00000010,false,Rx,9,7,B0,01,10,11,10,0D,00,00,
4299360,00000010,false,Rx,9,4,30,08,00,2E,00,00,00,00, Request for 2E
4299361,00000010,false,Rx,9,4,31,08,00,2D,00,00,00,00, Stops the 2D
4299363,00000008,false,Rx,9,7,B0,01,10,0F,FF,07,00,00,
4299363,00000040,false,Rx,9,3,B0,2E,80,00,00,00,00,00,   data for 2E
4299369,000000AA,false,Rx,9,2,AA,04,00,00,00,00,00,00,
4299372,00000040,false,Rx,9,6,B0,01,10,92,FF,FF,00,00,
4299374,00000040,false,Rx,9,8,B0,93,E2,00,14,00,2E,80,   data for 2E
4299376,000002B4,false,Rx,9,3,03,00,0A,00,00,00,00,00,
4299377,00000010,false,Rx,9,7,B0,01,10,11,10,0D,00,00,
4299382,00000008,false,Rx,9,7,B0,01,10,0F,FF,07,00,00,
4299389,000000AA,false,Rx,9,2,AA,04,00,00,00,00,00,00,
4299392,00000040,false,Rx,9,3,B0,01,10,00,00,00,00,00,
4299394,000003AC,false,Rx,9,3,03,00,1D,00,00,00,00,00,
4299396,00000010,false,Rx,9,7,B0,01,10,11,10,0E,00,00,
4299397,00000010,false,Rx,9,3,B0,0D,00,00,00,00,00,00,
4299402,00000008,false,Rx,9,7,B0,01,10,0F,FF,07,00,00,
4299409,000000AA,false,Rx,9,2,AA,04,00,00,00,00,00,00,
4299412,00000040,false,Rx,9,3,B0,01,10,00,00,00,00,00,
4299413,000003A4,false,Rx,9,3,03,00,2C,00,00,00,00,00,
4299416,00000010,false,Rx,9,7,B0,01,10,11,10,0D,00,00,
4299422,00000008,false,Rx,9,7,B0,01,10,0F,FF,07,00,00,
4299429,000000AA,false,Rx,9,2,AA,04,00,00,00,00,00,00,
4299432,00000040,false,Rx,9,3,B0,01,10,00,00,00,00,00,
4299436,00000010,false,Rx,9,7,B0,01,10,11,10,0D,00,00,
4299442,00000008,false,Rx,9,7,B0,01,10,0C,B5,0F,FF,00,
4299444,00000008,false,Rx,9,7,B0,0E,00,07,00,0D,09,00,
4299449,000000AA,false,Rx,9,2,AA,04,00,00,00,00,00,00,
4299452,00000040,false,Rx,9,3,B0,01,10,00,00,00,00,00,
4299455,0000029C,false,Rx,9,3,03,00,1A,00,00,00,00,00,
4299457,00000010,false,Rx,9,7,B0,01,10,11,10,0D,00,00,
4299462,00000008,false,Rx,9,7,B0,01,10,0F,FF,07,00,00,
4299469,000000AA,false,Rx,9,2,AA,04,00,00,00,00,00,00,
4299472,00000040,false,Rx,9,3,B0,01,10,00,00,00,00,00,
4299473,000002BC,false,Rx,9,3,03,00,0B,00,00,00,00,00,
4299477,00000010,false,Rx,9,7,B0,01,10,11,10,0D,00,00,
4299483,00000008,false,Rx,9,7,B0,01,10,0F,FF,07,00,00,
4299489,000000AA,false,Rx,9,2,AA,04,00,00,00,00,00,00,
4299492,00000040,false,Rx,9,3,B0,01,10,00,00,00,00,00,
4299493,000002B4,false,Rx,9,3,03,00,0A,00,00,00,00,00,
4299497,00000010,false,Rx,9,7,B0,01,10,11,10,0D,00,00,
4299502,00000008,false,Rx,9,7,B0,01,10,0F,FF,07,00,00,
4299509,000000AA,false,Rx,9,2,AA,04,00,00,00,00,00,00,
4299512,00000040,false,Rx,9,3,B0,01,10,00,00,00,00,00,
4299513,000003AC,false,Rx,9,3,03,00,1D,00,00,00,00,00,
4299517,00000010,false,Rx,9,7,B0,01,10,11,10,0D,00,00,
4299522,00000008,false,Rx,9,7,B0,01,10,0F,FF,07,00,00,
4299529,000000AA,false,Rx,9,2,AA,04,00,00,00,00,00,00,
4299532,00000040,false,Rx,9,3,B0,01,10,00,00,00,00,00,
4299533,000003A4,false,Rx,9,3,03,00,2C,00,00,00,00,00,
4299537,00000010,false,Rx,9,7,B0,01,10,11,10,0D,00,00,
4299542,00000008,false,Rx,9,7,B0,01,10,0F,FF,07,00,00,
4299549,000000AA,false,Rx,9,2,AA,04,00,00,00,00,00,00,
4299552,00000040,false,Rx,9,3,B0,01,10,00,00,00,00,00,
4299557,00000010,false,Rx,9,7,B0,01,10,11,10,0D,00,00,
4299562,00000008,false,Rx,9,7,B0,01,10,0F,FF,07,00,00,
4299569,000000AA,false,Rx,9,2,AA,04,00,00,00,00,00,00,
4299572,00000040,false,Rx,9,6,B0,01,10,92,FF,FF,00,00,
4299574,00000040,false,Rx,9,8,B0,93,E2,00,14,00,2E,80,   data for 2E
4299577,0000029C,false,Rx,9,3,03,00,1A,00,00,00,00,00,
4299578,00000010,false,Rx,9,7,B0,01,10,11,10,0D,00,00,
4299582,00000008,false,Rx,9,7,B0,01,10,0F,FF,07,00,00,
4299590,000000AA,false,Rx,9,2,AA,04,00,00,00,00,00,00,
4299592,00000040,false,Rx,9,3,B0,01,10,00,00,00,00,00,
4299593,000002BC,false,Rx,9,3,03,00,0F,00,00,00,00,00,
4299597,00000010,false,Rx,9,7,B0,01,10,11,10,0E,00,00,
4299597,00000010,false,Rx,9,3,B0,0D,00,00,00,00,00,00,
4299602,00000008,false,Rx,9,7,B0,01,10,0F,FF,07,00,00,
4299609,000000AA,false,Rx,9,2,AA,04,00,00,00,00,00,00,
4299612,00000040,false,Rx,9,3,B0,01,20,00,00,00,00,00,
4299614,000002B4,false,Rx,9,3,03,00,0A,00,00,00,00,00,
4299617,00000010,false,Rx,9,7,B0,01,10,11,20,0D,00,00,
4299623,00000008,false,Rx,9,7,B0,01,20,0F,FF,07,00,00,
4299629,000000AA,false,Rx,9,2,AA,04,00,00,00,00,00,00,
4299632,00000040,false,Rx,9,3,B0,01,20,00,00,00,00,00,
4299634,000003AC,false,Rx,9,3,03,00,1D,00,00,00,00,00,
4299637,00000010,false,Rx,9,7,B0,01,20,11,20,0D,00,00,
4299643,00000008,false,Rx,9,7,B0,01,20,0C,B5,0F,FF,00,
4299644,00000008,false,Rx,9,7,B0,0E,00,07,00,0D,09,00,
4299650,000000AA,false,Rx,9,2,AA,04,00,00,00,00,00,00,
4299652,00000040,false,Rx,9,3,B0,01,20,00,00,00,00,00,
4299653,000003A4,false,Rx,9,3,03,00,2C,00,00,00,00,00,
4299657,00000010,false,Rx,9,7,B0,01,20,11,20,0D,00,00,
4299663,00000008,false,Rx,9,7,B0,01,20,0F,FF,07,00,00,
4299669,000000AA,false,Rx,9,2,AA,04,00,00,00,00,00,00,
4299672,00000040,false,Rx,9,3,B0,01,20,00,00,00,00,00,
4299677,00000010,false,Rx,9,7,B0,01,20,11,20,0D,00,00,
4299683,00000008,false,Rx,9,7,B0,01,20,0F,FF,07,00,00,
4299689,000000AA,false,Rx,9,2,AA,04,00,00,00,00,00,00,
4299692,00000040,false,Rx,9,3,B0,01,20,00,00,00,00,00,
4299695,0000029C,false,Rx,9,3,03,00,1A,00,00,00,00,00,
4299697,00000010,false,Rx,9,7,B0,01,20,11,20,0D,00,00,
4299703,00000008,false,Rx,9,7,B0,01,20,0F,FF,07,00,00,
4299709,000000AA,false,Rx,9,2,AA,04,00,00,00,00,00,00,
4299712,00000040,false,Rx,9,3,B0,01,20,00,00,00,00,00,
4299714,000002BC,false,Rx,9,3,03,00,0F,00,00,00,00,00,
4299717,00000010,false,Rx,9,7,B0,01,20,11,20,0D,00,00,
4299723,00000008,false,Rx,9,7,B0,01,20,0F,FF,07,00,00,
4299729,000000AA,false,Rx,9,2,AA,04,00,00,00,00,00,00,
4299732,00000040,false,Rx,9,3,B0,01,20,00,00,00,00,00,
4299734,000002B4,false,Rx,9,3,03,00,0A,00,00,00,00,00,
4299737,00000010,false,Rx,9,7,B0,01,20,11,20,0D,00,00,
4299743,00000008,false,Rx,9,7,B0,01,20,0F,FF,07,00,00,
4299749,000000AA,false,Rx,9,2,AA,04,00,00,00,00,00,00,
4299752,00000040,false,Rx,9,3,B0,01,20,00,00,00,00,00,
4299754,000003AC,false,Rx,9,3,03,00,1D,00,00,00,00,00,
4299757,00000010,false,Rx,9,7,B0,01,20,11,20,0D,00,00,
4299761,00000010,false,Rx,9,4,30,08,00,2F,00,00,00,00,
4299762,00000010,false,Rx,9,4,31,08,00,2E,00,00,00,00,   stop 2E
4299763,00000008,false,Rx,9,7,B0,01,20,0F,FF,07,00,00,
4299764,00000040,false,Rx,9,3,B0,2F,66,00,00,00,00,00,
4299770,000000AA,false,Rx,9,2,AA,04,00,00,00,00,00,00,
4299772,00000040,false,Rx,9,6,B0,01,20,92,FF,FF,00,00,
4299774,00000040,false,Rx,9,8,B0,93,E2,00,14,00,2F,66,
4299775,000003A4,false,Rx,9,3,03,00,2C,00,00,00,00,00,
4299777,00000010,false,Rx,9,7,B0,01,20,11,20,0D,00,00,
4299783,00000008,false,Rx,9,7,B0,01,20,0F,FF,07,00,00,
4299789,000000AA,false,Rx,9,2,AA,04,00,00,00,00,00,00,
4299792,00000040,false,Rx,9,3,B0,01,20,00,00,00,00,00,
4299797,00000010,false,Rx,9,7,B0,01,20,11,20,0E,00,00,
4299797,00000010,false,Rx,9,3,B0,0D,00,00,00,00,00,00,
4299803,00000008,false,Rx,9,7,B0,01,20,0F,FF,07,00,00,
4299810,000000AA,false,Rx,9,2,AA,04,00,00,00,00,00,00,
4299812,00000040,false,Rx,9,3,B0,01,20,00,00,00,00,00,
4299815,0000029C,false,Rx,9,3,03,00,1A,00,00,00,00,00,
4299817,00000010,false,Rx,9,7,B0,01,20,11,20,0D,00,00,
4299823,00000008,false,Rx,9,7,B0,01,20,0F,FF,07,00,00,
4299829,000000AA,false,Rx,9,2,AA,04,00,00,00,00,00,00,
4299832,00000040,false,Rx,9,3,B0,01,20,00,00,00,00,00,
4299834,000002BC,false,Rx,9,3,03,00,0F,00,00,00,00,00,
4299838,00000010,false,Rx,9,7,B0,01,20,11,20,0D,00,00,
4299843,00000008,false,Rx,9,7,B0,01,20,0C,B5,0F,FF,00,
4299844,00000008,false,Rx,9,7,B0,0E,00,07,00,0D,09,00,
4299849,000000AA,false,Rx,9,2,AA,04,00,00,00,00,00,00,
4299852,00000040,false,Rx,9,3,B0,01,20,00,00,00,00,00,
4299854,000002B4,false,Rx,9,3,03,00,0A,00,00,00,00,00,
4299858,00000010,false,Rx,9,7,B0,01,20,11,20,0D,00,00,
4299863,00000008,false,Rx,9,7,B0,01,20,0F,FF,07,00,00,
4299870,000000AA,false,Rx,9,2,AA,04,00,00,00,00,00,00,
4299872,00000040,false,Rx,9,3,B0,01,20,00,00,00,00,00,
4299874,000003AC,false,Rx,9,3,03,00,1D,00,00,00,00,00,
4299878,00000010,false,Rx,9,7,B0,01,20,11,20,0D,00,00,
4299883,00000008,false,Rx,9,7,B0,01,20,0F,FF,07,00,00,
4299889,000000AA,false,Rx,9,2,AA,04,00,00,00,00,00,00,
4299892,00000040,false,Rx,9,3,B0,01,20,00,00,00,00,00,
4299894,000003A4,false,Rx,9,3,03,00,2C,00,00,00,00,00,
4299898,00000010,false,Rx,9,7,B0,01,20,11,20,0D,00,00,
4299903,00000008,false,Rx,9,7,B0,01,20,0F,FF,07,00,00,
4299909,000000AA,false,Rx,9,2,AA,04,00,00,00,00,00,00,
4299912,00000040,false,Rx,9,3,B0,01,20,00,00,00,00,00,
4299918,00000010,false,Rx,9,7,B0,01,20,11,20,0D,00,00,
4299923,00000008,false,Rx,9,7,B0,01,20,0F,FF,07,00,00,
4299930,000000AA,false,Rx,9,2,AA,04,00,00,00,00,00,00,
4299932,00000040,false,Rx,9,3,B0,01,20,00,00,00,00,00,
4299935,0000029C,false,Rx,9,3,03,00,1A,00,00,00,00,00,
4299938,00000010,false,Rx,9,7,B0,01,20,11,20,0D,00,00,
4299943,00000008,false,Rx,9,7,B0,01,20,0F,FF,07,00,00,
4299949,000000AA,false,Rx,9,2,AA,04,00,00,00,00,00,00,
4299952,00000040,false,Rx,9,3,B0,01,20,00,00,00,00,00,
4299954,000002BC,false,Rx,9,3,03,00,0F,00,00,00,00,00,
4299958,00000010,false,Rx,9,7,B0,01,20,11,20,0D,00,00,
4299963,00000008,false,Rx,9,7,B0,01,20,0F,FF,07,00,00,
4299969,000000AA,false,Rx,9,2,AA,04,00,00,00,00,00,00,
4299972,00000040,false,Rx,9,6,B0,01,20,92,FF,FF,00,00,
4299974,00000040,false,Rx,9,8,B0,93,E2,00,14,00,2F,66,
4299975,000002B4,false,Rx,9,3,03,00,0A,00,00,00,00,00,
4299978,00000010,false,Rx,9,7,B0,01,20,11,20,0D,00,00,
4299983,00000008,false,Rx,9,7,B0,01,20,0F,FF,07,00,00,
4299990,000000AA,false,Rx,9,2,AA,04,00,00,00,00,00,00,
4299992,00000040,false,Rx,9,3,B0,01,20,00,00,00,00,00,
4299994,000003AC,false,Rx,9,3,03,00,1D,00,00,00,00,00,
4299996,00000010,false,Rx,9,7,B0,01,20,11,20,0E,00,00,
4299998,00000010,false,Rx,9,3,B0,0D,00,00,00,00,00,00,
4300003,00000008,false,Rx,9,7,B0,01,20,0F,FF,07,00,00,
4300010,000000AA,false,Rx,9,2,AA,04,00,00,00,00,00,00,
4300012,00000040,false,Rx,9,3,B0,01,20,00,00,00,00,00,
4300014,000003A4,false,Rx,9,3,03,00,2C,00,00,00,00,00,
4300016,00000010,false,Rx,9,7,B0,01,20,11,20,0D,00,00,
4300023,00000008,false,Rx,9,7,B0,01,20,0F,FF,07,00,00,
4300030,000000AA,false,Rx,9,2,AA,04,00,00,00,00,00,00,
4300032,00000040,false,Rx,9,3,B0,01,20,00,00,00,00,00,
4300036,00000010,false,Rx,9,7,B0,01,20,11,20,0D,00,00,
4300043,00000008,false,Rx,9,7,B0,01,20,0C,B5,0F,FF,00,
4300044,00000008,false,Rx,9,7,B0,0E,00,07,00,0D,09,00,
4300050,000000AA,false,Rx,9,2,AA,04,00,00,00,00,00,00,
4300052,00000040,false,Rx,9,3,B0,01,20,00,00,00,00,00,
4300055,0000029C,false,Rx,9,3,03,00,1A,00,00,00,00,00,
4300057,00000010,false,Rx,9,7,B0,01,20,11,20,0D,00,00,
4300063,00000008,false,Rx,9,7,B0,01,20,0F,FF,07,00,00,
4300069,000000AA,false,Rx,9,2,AA,04,00,00,00,00,00,00,
4300072,00000040,false,Rx,9,3,B0,01,20,00,00,00,00,00,
4300074,000002BC,false,Rx,9,3,03,00,0F,00,00,00,00,00,
4300076,00000010,false,Rx,9,7,B0,01,20,11,20,0D,00,00,
4300083,00000008,false,Rx,9,7,B0,01,20,0F,FF,07,00,00,
4300089,000000AA,false,Rx,9,2,AA,04,00,00,00,00,00,00,
4300092,00000040,false,Rx,9,3,B0,01,20,00,00,00,00,00,
4300094,000002B4,false,Rx,9,3,03,00,0A,00,00,00,00,00,
4300096,00000010,false,Rx,9,7,B0,01,20,11,20,0D,00,00,
4300103,00000008,false,Rx,9,7,B0,01,20,0F,FF,07,00,00,
4300109,000000AA,false,Rx,9,2,AA,04,00,00,00,00,00,00,
4300112,00000040,false,Rx,9,3,B0,01,20,00,00,00,00,00,
4300114,000003AC,false,Rx,9,3,03,00,1D,00,00,00,00,00,
4300116,00000010,false,Rx,9,7,B0,01,20,11,20,0D,00,00,
4300123,00000008,false,Rx,9,7,B0,01,20,0F,FF,07,00,00,
4300129,000000AA,false,Rx,9,2,AA,04,00,00,00,00,00,00,
4300132,00000040,false,Rx,9,3,B0,01,20,00,00,00,00,00,
4300134,000003A4,false,Rx,9,3,03,00,2C,00,00,00,00,00,
4300136,00000010,false,Rx,9,7,B0,01,20,11,20,0D,00,00,
4300143,00000008,false,Rx,9,7,B0,01,20,0F,FF,07,00,00,
4300149,000000AA,false,Rx,9,2,AA,04,00,00,00,00,00,00,
4300152,00000040,false,Rx,9,3,B0,01,20,00,00,00,00,00,
4300156,00000010,false,Rx,9,7,B0,01,20,11,20,0D,00,00,
4300161,00000010,false,Rx,9,4,30,08,00,30,00,00,00,00,
4300161,00000010,false,Rx,9,4,31,08,00,2F,00,00,00,00,
4300163,00000008,false,Rx,9,7,B0,01,20,0F,FF,07,00,00,
4300164,00000040,false,Rx,9,3,B0,30,66,00,00,00,00,00,
4300170,000000AA,false,Rx,9,2,AA,04,00,00,00,00,00,00,
4300172,00000040,false,Rx,9,6,B0,01,20,92,FF,FF,00,00,
4300174,00000040,false,Rx,9,8,B0,93,E2,00,14,00,30,66,
4300177,0000029C,false,Rx,9,3,03,00,1A,00,00,00,00,00,
4300179,00000010,false,Rx,9,7,B0,01,20,11,20,0D,00,00,
4300183,00000008,false,Rx,9,7,B0,01,20,0F,FF,07,00,00,
4300190,000000AA,false,Rx,9,2,AA,04,00,00,00,00,00,00,
4300192,00000040,false,Rx,9,3,B0,01,20,00,00,00,00,00,
4300194,000002BC,false,Rx,9,3,03,00,0F,00,00,00,00,00,
4300196,00000010,false,Rx,9,7,B0,01,20,11,20,0E,00,00,
4300199,00000010,false,Rx,9,3,B0,0D,00,00,00,00,00,00,
4300203,00000008,false,Rx,9,7,B0,01,20,0F,FF,07,00,00,
4300210,000000AA,false,Rx,9,2,AA,04,00,00,00,00,00,00,
4300212,00000040,false,Rx,9,3,B0,01,20,00,00,00,00,00,
4300214,000002B4,false,Rx,9,3,03,00,02,00,00,00,00,00,
4300216,00000010,false,Rx,9,7,B0,01,20,11,20,0D,00,00,
4300223,00000008,false,Rx,9,7,B0,01,20,0F,FF,07,00,00,
4300229,000000AA,false,Rx,9,2,AA,04,00,00,00,00,00,00,
4300232,00000040,false,Rx,9,3,B0,01,20,00,00,00,00,00,
4300234,000003AC,false,Rx,9,3,03,00,1D,00,00,00,00,00,
4300236,00000010,false,Rx,9,7,B0,01,20,11,20,0D,00,00,
4300243,00000008,false,Rx,9,7,B0,01,20,0C,B5,0F,FF,00,
4300244,00000008,false,Rx,9,7,B0,0E,00,07,00,0D,09,00,
4300249,000000AA,false,Rx,9,2,AA,04,00,00,00,00,00,00,
4300252,00000040,false,Rx,9,3,B0,01,20,00,00,00,00,00,
4300254,000003A4,false,Rx,9,3,03,00,2C,00,00,00,00,00,
4300256,00000010,false,Rx,9,7,B0,01,20,11,20,0D,00,00,
4300263,00000008,false,Rx,9,7,B0,01,20,0F,FF,07,00,00,
4300269,000000AA,false,Rx,9,2,AA,04,00,00,00,00,00,00,
4300272,00000040,false,Rx,9,3,B0,01,20,00,00,00,00,00,
4300276,00000010,false,Rx,9,7,B0,01,20,11,20,0D,00,00,
4300283,00000008,false,Rx,9,7,B0,01,20,0F,FF,07,00,00,
4300290,000000AA,false,Rx,9,2,AA,04,00,00,00,00,00,00,
4300292,00000040,false,Rx,9,3,B0,01,20,00,00,00,00,00,
4300295,0000029C,false,Rx,9,3,03,00,1A,00,00,00,00,00,
4300297,00000010,false,Rx,9,7,B0,01,20,11,20,0D,00,00,
4300303,00000008,false,Rx,9,7,B0,01,20,0F,FF,07,00,00,
4300309,000000AA,false,Rx,9,2,AA,04,00,00,00,00,00,00,
4300312,00000040,false,Rx,9,3,B0,01,20,00,00,00,00,00,
4300314,000002BC,false,Rx,9,3,03,00,0F,00,00,00,00,00,
4300316,00000010,false,Rx,9,7,B0,01,20,11,20,0D,00,00,
4300323,00000008,false,Rx,9,7,B0,01,20,0F,FF,07,00,00,
4300329,000000AA,false,Rx,9,2,AA,04,00,00,00,00,00,00,
4300332,00000040,false,Rx,9,3,B0,01,20,00,00,00,00,00,
4300334,000002B4,false,Rx,9,3,03,00,02,00,00,00,00,00,
4300336,00000010,false,Rx,9,7,B0,01,20,11,20,0D,00,00,
4300343,00000008,false,Rx,9,7,B0,01,20,0F,FF,07,00,00,
4300349,000000AA,false,Rx,9,2,AA,04,00,00,00,00,00,00,
4300352,00000040,false,Rx,9,3,B0,01,20,00,00,00,00,00,
4300354,000003AC,false,Rx,9,3,03,00,1D,00,00,00,00,00,
4300356,00000010,false,Rx,9,7,B0,01,20,11,20,0D,00,00,
4300363,00000008,false,Rx,9,7,B0,01,20,0F,FF,07,00,00,
4300369,000000AA,false,Rx,9,2,AA,04,00,00,00,00,00,00,
4300372,00000040,false,Rx,9,6,B0,01,20,92,FF,FF,00,00,
4300374,00000040,false,Rx,9,8,B0,93,E2,00,14,00,30,66,
4300375,000003A4,false,Rx,9,3,03,00,2C,00,00,00,00,00,
4300379,00000010,false,Rx,9,7,B0,01,20,11,20,0D,00,00,
4300383,00000008,false,Rx,9,7,B0,01,20,0F,FF,07,00,00,
4300389,000000AA,false,Rx,9,2,AA,04,00,00,00,00,00,00,
4300392,00000040,false,Rx,9,3,B0,01,20,00,00,00,00,00,
4300396,00000010,false,Rx,9,7,B0,01,20,11,20,0E,00,00,
4300397,00000010,false,Rx,9,3,B0,0D,00,00,00,00,00,00,
4300403,00000008,false,Rx,9,7,B0,01,20,0F,FF,07,00,00,
4300409,000000AA,false,Rx,9,2,AA,04,00,00,00,00,00,00,
4300412,00000040,false,Rx,9,3,B0,01,20,00,00,00,00,00,
4300415,0000029C,false,Rx,9,3,03,00,1A,00,00,00,00,00,
4300417,00000010,false,Rx,9,7,B0,01,20,11,20,0D,00,00,
4300423,00000008,false,Rx,9,7,B0,01,20,0F,FF,07,00,00,
4300429,000000AA,false,Rx,9,2,AA,04,00,00,00,00,00,00,
4300432,00000040,false,Rx,9,3,B0,01,20,00,00,00,00,00,
4300434,000002BC,false,Rx,9,3,03,00,0F,00,00,00,00,00,
4300436,00000010,false,Rx,9,7,B0,01,20,11,20,0D,00,00,
4300443,00000008,false,Rx,9,7,B0,01,20,0C,B5,0F,FF,00,
4300444,00000008,false,Rx,9,7,B0,0E,00,07,00,0D,09,00,
4300450,000000AA,false,Rx,9,2,AA,04,00,00,00,00,00,00,
4300452,00000040,false,Rx,9,3,B0,01,20,00,00,00,00,00,
4300454,000002B4,false,Rx,9,3,03,00,0A,00,00,00,00,00,
4300456,00000010,false,Rx,9,7,B0,01,20,11,20,0D,00,00,
4300463,00000008,false,Rx,9,7,B0,01,20,0F,FF,07,00,00,
4300469,000000AA,false,Rx,9,2,AA,04,00,00,00,00,00,00,
4300472,00000040,false,Rx,9,3,B0,01,20,00,00,00,00,00,
4300474,000003AC,false,Rx,9,3,03,00,1D,00,00,00,00,00,
4300476,00000010,false,Rx,9,7,B0,01,20,11,20,0D,00,00,
4300483,00000008,false,Rx,9,7,B0,01,20,0F,FF,07,00,00,
4300489,000000AA,false,Rx,9,2,AA,04,00,00,00,00,00,00,
4300492,00000040,false,Rx,9,3,B0,01,20,00,00,00,00,00,
4300494,000003A4,false,Rx,9,3,03,00,2C,00,00,00,00,00,
4300496,00000010,false,Rx,9,7,B0,01,20,11,20,0D,00,00,
4300503,00000008,false,Rx,9,7,B0,01,20,0F,FF,07,00,00,
4300509,000000AA,false,Rx,9,2,AA,04,00,00,00,00,00,00,
4300512,00000040,false,Rx,9,3,B0,01,20,00,00,00,00,00,
4300516,00000010,false,Rx,9,7,B0,01,20,11,20,0D,00,00,
4300523,00000008,false,Rx,9,7,B0,01,20,0F,FF,07,00,00,
4300529,000000AA,false,Rx,9,2,AA,04,00,00,00,00,00,00,
4300532,00000040,false,Rx,9,3,B0,01,20,00,00,00,00,00,
4300535,0000029C,false,Rx,9,3,03,00,1A,00,00,00,00,00,
4300537,00000010,false,Rx,9,7,B0,01,20,11,20,0D,00,00,
4300543,00000008,false,Rx,9,7,B0,01,20,0F,FF,07,00,00,
4300549,000000AA,false,Rx,9,2,AA,04,00,00,00,00,00,00,
4300552,00000040,false,Rx,9,3,B0,01,20,00,00,00,00,00,
4300554,000002BC,false,Rx,9,3,03,00,0F,00,00,00,00,00,
4300556,00000010,false,Rx,9,7,B0,01,20,11,20,0D,00,00,
4300561,00000010,false,Rx,9,4,30,08,00,31,00,00,00,00,
4300561,00000010,false,Rx,9,4,31,08,00,30,00,00,00,00,
4300562,00000040,false,Rx,9,3,B0,31,99,00,00,00,00,00,
4300563,00000008,false,Rx,9,7,B0,01,20,0F,FF,07,00,00,
4300569,000000AA,false,Rx,9,2,AA,04,00,00,00,00,00,00,
4300573,00000040,false,Rx,9,6,B0,01,20,92,FF,FF,00,00,
4300574,00000040,false,Rx,9,8,B0,93,E2,00,14,00,31,99,
4300576,000002B4,false,Rx,9,3,03,00,02,00,00,00,00,00,
4300578,00000010,false,Rx,9,7,B0,01,20,11,20,0D,00,00,
4300583,00000008,false,Rx,9,7,B0,01,20,0F,FF,07,00,00,
4300589,000000AA,false,Rx,9,2,AA,04,00,00,00,00,00,00,
4300592,00000040,false,Rx,9,3,B0,01,20,00,00,00,00,00,
4300594,000003AC,false,Rx,9,3,03,00,1D,00,00,00,00,00,
4300596,00000010,false,Rx,9,7,B0,01,20,11,20,0E,00,00,
4300597,00000010,false,Rx,9,3,B0,0D,00,00,00,00,00,00,
4300603,00000008,false,Rx,9,7,B0,01,20,0F,FF,07,00,00,
4300610,000000AA,false,Rx,9,2,AA,04,00,00,00,00,00,00,
4300612,00000040,false,Rx,9,3,B0,01,20,00,00,00,00,00,
4300614,000003A4,false,Rx,9,3,03,00,2C,00,00,00,00,00,
4300616,00000010,false,Rx,9,7,B0,01,20,11,20,0D,00,00,
4300623,00000008,false,Rx,9,7,B0,01,20,0F,FF,07,00,00,
4300629,000000AA,false,Rx,9,2,AA,04,00,00,00,00,00,00,
4300632,00000040,false,Rx,9,3,B0,01,20,00,00,00,00,00,
4300636,00000010,false,Rx,9,7,B0,01,20,11,20,0D,00,00,
4300643,00000008,false,Rx,9,7,B0,01,20,0C,B5,0F,FF,00,
4300644,00000008,false,Rx,9,7,B0,0E,00,07,00,0D,09,00,
4300649,000000AA,false,Rx,9,2,AA,04,00,00,00,00,00,00,
4300652,00000040,false,Rx,9,3,B0,01,20,00,00,00,00,00,
4300655,0000029C,false,Rx,9,3,03,00,1A,00,00,00,00,00,
4300657,00000010,false,Rx,9,7,B0,01,20,11,20,0D,00,00,
4300663,00000008,false,Rx,9,7,B0,01,20,0F,FF,07,00,00,
4300669,000000AA,false,Rx,9,2,AA,04,00,00,00,00,00,00,
4300672,00000040,false,Rx,9,3,B0,01,20,00,00,00,00,00,
4300674,000002BC,false,Rx,9,3,03,00,0F,00,00,00,00,00,
4300676,00000010,false,Rx,9,7,B0,01,20,11,20,0D,00,00,
4300683,00000008,false,Rx,9,7,B0,01,20,0F,FF,07,00,00,
4300689,000000AA,false,Rx,9,2,AA,04,00,00,00,00,00,00,
4300692,00000040,false,Rx,9,3,B0,01,20,00,00,00,00,00,
4300694,000002B4,false,Rx,9,3,03,00,02,00,00,00,00,00,
4300696,00000010,false,Rx,9,7,B0,01,20,11,20,0D,00,00,
4300703,00000008,false,Rx,9,7,B0,01,20,0F,FF,07,00,00,
4300709,000000AA,false,Rx,9,2,AA,04,00,00,00,00,00,00,
4300712,00000040,false,Rx,9,3,B0,01,20,00,00,00,00,00,
4300714,000003AC,false,Rx,9,3,03,00,1D,00,00,00,00,00,
4300716,00000010,false,Rx,9,7,B0,01,20,11,20,0D,00,00,
4300723,00000008,false,Rx,9,7,B0,01,20,0F,FF,07,00,00,
4300729,000000AA,false,Rx,9,2,AA,04,00,00,00,00,00,00,
4300732,00000040,false,Rx,9,3,B0,01,20,00,00,00,00,00,
4300734,000003A4,false,Rx,9,3,03,00,2C,00,00,00,00,00,
4300736,00000010,false,Rx,9,7,B0,01,20,11,20,0D,00,00,
4300743,00000008,false,Rx,9,7,B0,01,20,0F,FF,07,00,00,
4300750,000000AA,false,Rx,9,2,AA,04,00,00,00,00,00,00,
4300752,00000040,false,Rx,9,3,B0,01,20,00,00,00,00,00,
4300756,00000010,false,Rx,9,7,B0,01,20,11,20,0D,00,00,
4300763,00000008,false,Rx,9,7,B0,01,20,0F,FF,07,00,00,
4300769,000000AA,false,Rx,9,2,AA,04,00,00,00,00,00,00,
4300773,00000040,false,Rx,9,6,B0,01,20,92,FF,FF,00,00,
4300774,00000040,false,Rx,9,8,B0,93,E2,00,14,00,31,99,
4300777,0000029C,false,Rx,9,3,03,00,1A,00,00,00,00,00,
4300778,00000010,false,Rx,9,7,B0,01,20,11,20,0D,00,00,
4300783,00000008,false,Rx,9,7,B0,01,20,0F,FF,07,00,00,
4300790,000000AA,false,Rx,9,2,AA,04,00,00,00,00,00,00,
4300792,00000040,false,Rx,9,3,B0,01,20,00,00,00,00,00,
4300794,000002BC,false,Rx,9,3,03,00,0F,00,00,00,00,00,
4300796,00000010,false,Rx,9,7,B0,01,20,11,20,0E,00,00,
4300797,00000010,false,Rx,9,3,B0,0D,00,00,00,00,00,00,
4300803,00000008,false,Rx,9,7,B0,01,20,0F,FF,07,00,00,
4300810,000000AA,false,Rx,9,2,AA,04,00,00,00,00,00,00,
4300812,00000040,false,Rx,9,3,B0,01,20,00,00,00,00,00,
4300814,000002B4,false,Rx,9,3,03,00,0A,00,00,00,00,00,
4300817,00000010,false,Rx,9,7,B0,01,20,11,20,0D,00,00,
4300823,00000008,false,Rx,9,7,B0,01,20,0F,FF,07,00,00,
4300829,000000AA,false,Rx,9,2,AA,04,00,00,00,00,00,00,
4300832,00000040,false,Rx,9,3,B0,01,20,00,00,00,00,00,
4300834,000003AC,false,Rx,9,3,03,00,1D,00,00,00,00,00,
4300836,00000010,false,Rx,9,7,B0,01,20,11,20,0D,00,00,
4300843,00000008,false,Rx,9,7,B0,01,20,0C,B5,0F,FF,00,
4300844,00000008,false,Rx,9,7,B0,0E,00,07,00,0D,09,00,
4300849,000000AA,false,Rx,9,2,AA,04,00,00,00,00,00,00,
4300852,00000040,false,Rx,9,3,B0,01,20,00,00,00,00,00,
4300854,000003A4,false,Rx,9,3,03,00,2C,00,00,00,00,00,
4300856,00000010,false,Rx,9,7,B0,01,20,11,20,0D,00,00,
4300863,00000008,false,Rx,9,7,B0,01,20,0F,FF,07,00,00,
4300869,000000AA,false,Rx,9,2,AA,04,00,00,00,00,00,00,
4300872,00000040,false,Rx,9,3,B0,01,20,00,00,00,00,00,
4300876,00000010,false,Rx,9,7,B0,01,20,11,20,0D,00,00,
4300883,00000008,false,Rx,9,7,B0,01,20,0F,FF,07,00,00,
4300889,000000AA,false,Rx,9,2,AA,04,00,00,00,00,00,00,
4300892,00000040,false,Rx,9,3,B0,01,20,00,00,00,00,00,
4300895,0000029C,false,Rx,9,3,03,00,1A,00,00,00,00,00,
4300897,00000010,false,Rx,9,7,B0,01,20,11,20,0D,00,00,
4300903,00000008,false,Rx,9,7,B0,01,20,0F,FF,07,00,00,
4300909,000000AA,false,Rx,9,2,AA,04,00,00,00,00,00,00,
4300912,00000040,false,Rx,9,3,B0,01,20,00,00,00,00,00,
4300914,000002BC,false,Rx,9,3,03,00,0F,00,00,00,00,00,
4300917,00000010,false,Rx,9,7,B0,01,20,11,20,0D,00,00,
4300923,00000008,false,Rx,9,7,B0,01,20,0F,FF,07,00,00,
4300929,000000AA,false,Rx,9,2,AA,04,00,00,00,00,00,00,
4300932,00000040,false,Rx,9,3,B0,01,20,00,00,00,00,00,
4300934,000002B4,false,Rx,9,3,03,00,0A,00,00,00,00,00,
4300936,00000010,false,Rx,9,7,B0,01,20,11,20,0D,00,00,
4300943,00000008,false,Rx,9,7,B0,01,20,0F,FF,07,00,00,
4300949,000000AA,false,Rx,9,2,AA,04,00,00,00,00,00,00,
4300952,00000040,false,Rx,9,3,B0,01,20,00,00,00,00,00,
4300954,000003AC,false,Rx,9,3,03,00,1D,00,00,00,00,00,
4300956,00000010,false,Rx,9,7,B0,01,20,11,20,0D,00,00,
4300961,00000010,false,Rx,9,4,30,08,00,32,00,00,00,00,
4300961,00000010,false,Rx,9,4,31,08,00,31,00,00,00,00,
4300962,00000040,false,Rx,9,3,B0,32,CC,00,00,00,00,00,
4300963,00000008,false,Rx,9,7,B0,01,20,0F,FF,07,00,00,
4300970,000000AA,false,Rx,9,2,AA,04,00,00,00,00,00,00,
4300973,00000040,false,Rx,9,6,B0,01,20,92,FF,FF,00,00,
4300974,00000040,false,Rx,9,8,B0,93,E2,00,14,00,32,CC,
4300976,000003A4,false,Rx,9,3,03,00,2C,00,00,00,00,00,
4300978,00000010,false,Rx,9,7,B0,01,20,11,20,0D,00,00,
4300983,00000008,false,Rx,9,7,B0,01,20,0F,FF,07,00,00,
4300989,000000AA,false,Rx,9,2,AA,04,00,00,00,00,00,00,
4300992,00000040,false,Rx,9,3,B0,01,20,00,00,00,00,00,
4300996,00000010,false,Rx,9,7,B0,01,20,11,20,0E,00,00,
4300997,00000010,false,Rx,9,3,B0,0D,00,00,00,00,00,00,
4301003,00000008,false,Rx,9,7,B0,01,20,0F,FF,07,00,00,
4301009,000000AA,false,Rx,9,2,AA,04,00,00,00,00,00,00,
4301012,00000040,false,Rx,9,3,B0,01,20,00,00,00,00,00,
4301015,0000029C,false,Rx,9,3,03,00,1A,00,00,00,00,00,
4301017,00000010,false,Rx,9,7,B0,01,20,11,20,0D,00,00,
4301023,00000008,false,Rx,9,7,B0,01,20,0F,FF,07,00,00,
4301030,000000AA,false,Rx,9,2,AA,04,00,00,00,00,00,00,
4301033,00000040,false,Rx,9,3,B0,01,20,00,00,00,00,00,
4301034,000002BC,false,Rx,9,3,03,00,0F,00,00,00,00,00,
4301037,00000010,false,Rx,9,7,B0,01,20,11,20,0D,00,00,
4301043,00000008,false,Rx,9,7,B0,01,20,0C,B5,0F,FF,00,
4301044,00000008,false,Rx,9,7,B0,0E,00,07,00,0D,09,00,
4301050,000000AA,false,Rx,9,2,AA,04,00,00,00,00,00,00,
4301052,00000040,false,Rx,9,3,B0,01,20,00,00,00,00,00,
4301054,000002B4,false,Rx,9,3,03,00,02,00,00,00,00,00,
4301056,00000010,false,Rx,9,7,B0,01,20,11,20,0D,00,00,
4301063,00000008,false,Rx,9,7,B0,01,20,0F,FF,07,00,00,
4301070,000000AA,false,Rx,9,2,AA,04,00,00,00,00,00,00,
4301072,00000040,false,Rx,9,3,B0,01,20,00,00,00,00,00,
4301074,000003AC,false,Rx,9,3,03,00,1D,00,00,00,00,00,
4301076,00000010,false,Rx,9,7,B0,01,20,11,20,0D,00,00,
4301083,00000008,false,Rx,9,7,B0,01,20,0F,FF,07,00,00,
4301089,000000AA,false,Rx,9,2,AA,04,00,00,00,00,00,00,
4301092,00000040,false,Rx,9,3,B0,01,20,00,00,00,00,00,
4301094,000003A4,false,Rx,9,3,03,00,2C,00,00,00,00,00,
4301097,00000010,false,Rx,9,7,B0,01,20,11,20,0D,00,00,
4301103,00000008,false,Rx,9,7,B0,01,20,0F,FF,07,00,00,
4301110,000000AA,false,Rx,9,2,AA,04,00,00,00,00,00,00,
4301113,00000040,false,Rx,9,3,B0,01,20,00,00,00,00,00,
4301116,00000010,false,Rx,9,7,B0,01,20,11,20,0D,00,00,
4301123,00000008,false,Rx,9,7,B0,01,20,0F,FF,07,00,00,
4301130,000000AA,false,Rx,9,2,AA,04,00,00,00,00,00,00,
4301133,00000040,false,Rx,9,3,B0,01,20,00,00,00,00,00,
4301135,0000029C,false,Rx,9,3,03,00,1A,00,00,00,00,00,
4301137,00000010,false,Rx,9,7,B0,01,20,11,20,0D,00,00,
4301143,00000008,false,Rx,9,7,B0,01,20,0F,FF,07,00,00,
4301150,000000AA,false,Rx,9,2,AA,04,00,00,00,00,00,00,
4301153,00000040,false,Rx,9,3,B0,01,20,00,00,00,00,00,
4301154,000002BC,false,Rx,9,3,03,00,0F,00,00,00,00,00,
4301157,00000010,false,Rx,9,7,B0,01,20,11,20,0D,00,00,
4301163,00000008,false,Rx,9,7,B0,01,20,0F,FF,07,00,00,
4301169,000000AA,false,Rx,9,2,AA,04,00,00,00,00,00,00,
4301173,00000040,false,Rx,9,6,B0,01,20,92,FF,FF,00,00,
4301174,00000040,false,Rx,9,8,B0,93,E2,00,14,00,32,CC,
4301176,000002B4,false,Rx,9,3,03,00,0A,00,00,00,00,00,
4301178,00000010,false,Rx,9,7,B0,01,20,11,20,0D,00,00,
4301183,00000008,false,Rx,9,7,B0,01,20,0F,FF,07,00,00,
4301190,000000AA,false,Rx,9,2,AA,04,00,00,00,00,00,00,
4301192,00000040,false,Rx,9,3,B0,01,20,00,00,00,00,00,
4301194,000003AC,false,Rx,9,3,03,00,1D,00,00,00,00,00,
4301197,00000010,false,Rx,9,7,B0,01,20,11,20,0E,00,00,
4301197,00000010,false,Rx,9,3,B0,0D,00,00,00,00,00,00,
4301203,00000008,false,Rx,9,7,B0,01,20,0F,FF,07,00,00,
4301210,000000AA,false,Rx,9,2,AA,04,00,00,00,00,00,00,
4301213,00000040,false,Rx,9,3,B0,01,20,00,00,00,00,00,
4301214,000003A4,false,Rx,9,3,03,00,2C,00,00,00,00,00,
4301217,00000010,false,Rx,9,7,B0,01,20,11,20,0D,00,00,
4301223,00000008,false,Rx,9,7,B0,01,20,0F,FF,07,00,00,
4301230,000000AA,false,Rx,9,2,AA,04,00,00,00,00,00,00,
4301233,00000040,false,Rx,9,3,B0,01,20,00,00,00,00,00,
4301236,00000010,false,Rx,9,7,B0,01,20,11,20,0D,00,00,
4301243,00000008,false,Rx,9,7,B0,01,20,0C,B5,0F,FF,00,
4301244,00000008,false,Rx,9,7,B0,0E,00,07,00,0D,09,00,
4301249,000000AA,false,Rx,9,2,AA,04,00,00,00,00,00,00,
4301252,00000040,false,Rx,9,3,B0,01,20,00,00,00,00,00,
4301256,0000029C,false,Rx,9,3,03,00,1A,00,00,00,00,00,
4301257,00000010,false,Rx,9,7,B0,01,20,11,20,0D,00,00,
4301263,00000008,false,Rx,9,7,B0,01,20,0F,FF,07,00,00,
4301270,000000AA,false,Rx,9,2,AA,04,00,00,00,00,00,00,
4301272,00000040,false,Rx,9,3,B0,01,20,00,00,00,00,00,
4301274,000002BC,false,Rx,9,3,03,00,0F,00,00,00,00,00,
4301277,00000010,false,Rx,9,7,B0,01,20,11,20,0D,00,00,
4301283,00000008,false,Rx,9,7,B0,01,20,0F,FF,07,00,00,
4301290,000000AA,false,Rx,9,2,AA,04,00,00,00,00,00,00,
4301293,00000040,false,Rx,9,3,B0,01,20,00,00,00,00,00,
4301294,000002B4,false,Rx,9,3,03,00,0A,00,00,00,00,00,
4301297,00000010,false,Rx,9,7,B0,01,20,11,20,0D,00,00,
4301303,00000008,false,Rx,9,7,B0,01,20,0F,FF,07,00,00,
4301310,000000AA,false,Rx,9,2,AA,04,00,00,00,00,00,00,
4301313,00000040,false,Rx,9,3,B0,01,20,00,00,00,00,00,
4301314,000003AC,false,Rx,9,3,03,00,1D,00,00,00,00,00,
4301317,00000010,false,Rx,9,7,B0,01,20,11,20,0D,00,00,
4301323,00000008,false,Rx,9,7,B0,01,20,0F,FF,07,00,00,
4301330,000000AA,false,Rx,9,2,AA,04,00,00,00,00,00,00,
4301333,00000040,false,Rx,9,3,B0,01,20,00,00,00,00,00,
4301334,000003A4,false,Rx,9,3,03,00,2C,00,00,00,00,00,
4301337,00000010,false,Rx,9,7,B0,01,20,11,20,0D,00,00,
4301343,00000008,false,Rx,9,7,B0,01,20,0F,FF,07,00,00,
4301350,000000AA,false,Rx,9,2,AA,04,00,00,00,00,00,00,
4301353,00000040,false,Rx,9,3,B0,01,20,00,00,00,00,00,
4301356,00000010,false,Rx,9,7,B0,01,20,11,20,0D,00,00,
4301362,00000010,false,Rx,9,4,30,08,00,33,00,00,00,00,
4301362,00000010,false,Rx,9,4,31,08,00,32,00,00,00,00,
4301362,00000040,false,Rx,9,3,B0,33,B3,00,00,00,00,00,
4301363,00000008,false,Rx,9,7,B0,01,20,0F,FF,07,00,00,
4301370,000000AA,false,Rx,9,2,AA,04,00,00,00,00,00,00,
4301373,00000040,false,Rx,9,6,B0,01,20,92,FF,FF,00,00,
4301375,00000040,false,Rx,9,8,B0,93,E2,00,14,00,33,B3,
4301377,0000029C,false,Rx,9,3,03,00,1A,00,00,00,00,00,
4301379,00000010,false,Rx,9,7,B0,01,20,11,20,0D,00,00,
4301383,00000008,false,Rx,9,7,B0,01,20,0F,FF,07,00,00,
4301391,000000AA,false,Rx,9,2,AA,04,00,00,00,00,00,00,
4301393,00000040,false,Rx,9,3,B0,01,20,00,00,00,00,00,
4301394,000002BC,false,Rx,9,3,03,00,0F,00,00,00,00,00,
4301397,00000010,false,Rx,9,7,B0,01,20,11,20,0E,00,00,
4301398,00000010,false,Rx,9,3,B0,0D,00,00,00,00,00,00,
4301403,00000008,false,Rx,9,7,B0,01,20,0F,FF,07,00,00,
4301410,000000AA,false,Rx,9,2,AA,04,00,00,00,00,00,00,
4301413,00000040,false,Rx,9,3,B0,01,20,00,00,00,00,00,
4301414,000002B4,false,Rx,9,3,03,00,02,00,00,00,00,00,
4301417,00000010,false,Rx,9,7,B0,01,20,11,20,0D,00,00,
4301423,00000008,false,Rx,9,7,B0,01,20,0F,FF,07,00,00,
4301430,000000AA,false,Rx,9,2,AA,04,00,00,00,00,00,00,
4301433,00000040,false,Rx,9,3,B0,01,20,00,00,00,00,00,
4301434,000003AC,false,Rx,9,3,03,00,1D,00,00,00,00,00,
4301437,00000010,false,Rx,9,7,B0,01,20,11,20,0D,00,00,
4301443,00000008,false,Rx,9,7,B0,01,20,0C,B5,0F,FF,00,
4301444,00000008,false,Rx,9,7,B0,0E,00,07,00,0D,09,00,
4301450,000000AA,false,Rx,9,2,AA,04,00,00,00,00,00,00,
4301453,00000040,false,Rx,9,3,B0,01,20,00,00,00,00,00,
4301454,000003A4,false,Rx,9,3,03,00,2C,00,00,00,00,00,
4301457,00000010,false,Rx,9,7,B0,01,20,11,20,0D,00,00,
4301463,00000008,false,Rx,9,7,B0,01,20,0F,FF,07,00,00,
4301470,000000AA,false,Rx,9,2,AA,04,00,00,00,00,00,00,
4301473,00000040,false,Rx,9,3,B0,01,20,00,00,00,00,00,
4301476,00000010,false,Rx,9,7,B0,01,20,11,20,0D,00,00,
4301483,00000008,false,Rx,9,7,B0,01,20,0F,FF,07,00,00,
4301490,000000AA,false,Rx,9,2,AA,04,00,00,00,00,00,00,
4301493,00000040,false,Rx,9,3,B0,01,20,00,00,00,00,00,
4301496,0000029C,false,Rx,9,3,03,00,1A,00,00,00,00,00,
4301497,00000010,false,Rx,9,7,B0,01,20,11,20,0D,00,00,
4301503,00000008,false,Rx,9,7,B0,01,20,0F,FF,07,00,00,
4301510,000000AA,false,Rx,9,2,AA,04,00,00,00,00,00,00,
4301513,00000040,false,Rx,9,3,B0,01,20,00,00,00,00,00,
4301514,000002BC,false,Rx,9,3,03,00,0F,00,00,00,00,00,
4301517,00000010,false,Rx,9,7,B0,01,20,11,20,0D,00,00,
4301523,00000008,false,Rx,9,7,B0,01,20,0F,FF,07,00,00,
4301531,000000AA,false,Rx,9,2,AA,04,00,00,00,00,00,00,
4301533,00000040,false,Rx,9,3,B0,01,20,00,00,00,00,00,
4301534,000002B4,false,Rx,9,3,03,00,02,00,00,00,00,00,
4301537,00000010,false,Rx,9,7,B0,01,20,11,20,0D,00,00,
4301543,00000008,false,Rx,9,7,B0,01,20,0F,FF,07,00,00,
4301550,000000AA,false,Rx,9,2,AA,04,00,00,00,00,00,00,
4301553,00000040,false,Rx,9,3,B0,01,20,00,00,00,00,00,
4301554,000003AC,false,Rx,9,3,03,00,1D,00,00,00,00,00,
4301557,00000010,false,Rx,9,7,B0,01,20,11,20,0D,00,00,
4301563,00000008,false,Rx,9,7,B0,01,20,0F,FF,07,00,00,
4301571,000000AA,false,Rx,9,2,AA,04,00,00,00,00,00,00,
4301573,00000040,false,Rx,9,6,B0,01,20,92,FF,FF,00,00,
4301575,00000040,false,Rx,9,8,B0,93,E2,00,14,00,33,B3,
4301576,000003A4,false,Rx,9,3,03,00,2C,00,00,00,00,00,
4301578,00000010,false,Rx,9,7,B0,01,20,11,20,0D,00,00,
4301583,00000008,false,Rx,9,7,B0,01,20,0F,FF,07,00,00,
4301590,000000AA,false,Rx,9,2,AA,04,00,00,00,00,00,00,
4301593,00000040,false,Rx,9,3,B0,01,20,00,00,00,00,00,
4301597,00000010,false,Rx,9,7,B0,01,20,11,20,0E,00,00,
4301597,00000010,false,Rx,9,3,B0,0D,00,00,00,00,00,00,
4301603,00000008,false,Rx,9,7,B0,01,20,0F,FF,07,00,00,
4301610,000000AA,false,Rx,9,2,AA,04,00,00,00,00,00,00,
4301613,00000040,false,Rx,9,3,B0,01,20,00,00,00,00,00,
4301616,0000029C,false,Rx,9,3,03,00,1A,00,00,00,00,00,
4301617,00000010,false,Rx,9,7,B0,01,20,11,20,0D,00,00,
4301623,00000008,false,Rx,9,7,B0,01,20,0F,FF,07,00,00,
4301630,000000AA,false,Rx,9,2,AA,04,00,00,00,00,00,00,
4301633,00000040,false,Rx,9,3,B0,01,20,00,00,00,00,00,
4301635,000002BC,false,Rx,9,3,03,00,0F,00,00,00,00,00,
4301637,00000010,false,Rx,9,7,B0,01,20,11,20,0D,00,00,
4301643,00000008,false,Rx,9,7,B0,01,20,0C,B5,0F,FF,00,
4301644,00000008,false,Rx,9,7,B0,0E,00,07,00,0D,09,00,
4301650,000000AA,false,Rx,9,2,AA,04,00,00,00,00,00,00,
4301653,00000040,false,Rx,9,3,B0,01,20,00,00,00,00,00,
4301654,000002B4,false,Rx,9,3,03,00,0A,00,00,00,00,00,
4301657,00000010,false,Rx,9,7,B0,01,20,11,20,0D,00,00,
4301663,00000008,false,Rx,9,7,B0,01,20,0F,FF,07,00,00,
4301670,000000AA,false,Rx,9,2,AA,04,00,00,00,00,00,00,
4301673,00000040,false,Rx,9,3,B0,01,20,00,00,00,00,00,
4301674,000003AC,false,Rx,9,3,03,00,1D,00,00,00,00,00,
4301677,00000010,false,Rx,9,7,B0,01,20,11,20,0D,00,00,
4301683,00000008,false,Rx,9,7,B0,01,20,0F,FF,07,00,00,
4301691,000000AA,false,Rx,9,2,AA,04,00,00,00,00,00,00,
4301693,00000040,false,Rx,9,3,B0,01,20,00,00,00,00,00,
4301695,000003A4,false,Rx,9,3,03,00,2C,00,00,00,00,00,
4301697,00000010,false,Rx,9,7,B0,01,20,11,20,0D,00,00,
4301703,00000008,false,Rx,9,7,B0,01,20,0F,FF,07,00,00,
4301710,000000AA,false,Rx,9,2,AA,04,00,00,00,00,00,00,
4301713,00000040,false,Rx,9,3,B0,01,20,00,00,00,00,00,
4301717,00000010,false,Rx,9,7,B0,01,20,11,20,0D,00,00,
4301723,00000008,false,Rx,9,7,B0,01,20,0F,FF,07,00,00,
4301731,000000AA,false,Rx,9,2,AA,04,00,00,00,00,00,00,
4301733,00000040,false,Rx,9,3,B0,01,20,00,00,00,00,00,
4301736,0000029C,false,Rx,9,3,03,00,1A,00,00,00,00,00,
4301737,00000010,false,Rx,9,7,B0,01,20,11,20,0D,00,00,
4301743,00000008,false,Rx,9,7,B0,01,20,0F,FF,07,00,00,
4301750,000000AA,false,Rx,9,2,AA,04,00,00,00,00,00,00,
4301753,00000040,false,Rx,9,3,B0,01,20,00,00,00,00,00,
4301755,000002BC,false,Rx,9,3,03,00,0F,00,00,00,00,00,
4301757,00000010,false,Rx,9,7,B0,01,20,11,20,0D,00,00,
4301761,00000010,false,Rx,9,4,30,08,00,34,00,00,00,00,
4301763,00000010,false,Rx,9,4,31,08,00,33,00,00,00,00,
4301763,00000008,false,Rx,9,7,B0,01,20,0F,FF,07,00,00,
4301764,00000040,false,Rx,9,3,B0,34,33,00,00,00,00,00,
4301770,000000AA,false,Rx,9,2,AA,04,00,00,00,00,00,00,
4301773,00000040,false,Rx,9,6,B0,01,20,92,FF,FF,00,00,
4301775,00000040,false,Rx,9,8,B0,93,E2,00,14,00,34,33,
4301776,000002B4,false,Rx,9,3,03,00,02,00,00,00,00,00,
4301778,00000010,false,Rx,9,7,B0,01,20,11,20,0D,00,00,
4301783,00000008,false,Rx,9,7,B0,01,20,0F,FF,07,00,00,
4301790,000000AA,false,Rx,9,2,AA,04,00,00,00,00,00,00,
4301793,00000040,false,Rx,9,3,B0,01,20,00,00,00,00,00,
4301795,000003AC,false,Rx,9,3,03,00,1D,00,00,00,00,00,
4301797,00000010,false,Rx,9,7,B0,01,20,11,20,0E,00,00,
4301798,00000010,false,Rx,9,3,B0,0D,00,00,00,00,00,00,
4301803,00000008,false,Rx,9,7,B0,01,20,0F,FF,07,00,00,
4301812,000000AA,false,Rx,9,2,AA,04,00,00,00,00,00,00,
4301815,00000040,false,Rx,9,3,B0,01,23,00,00,00,00,00,
4301817,000003A4,false,Rx,9,3,03,00,2C,00,00,00,00,00,
4301818,00000010,false,Rx,9,7,B0,01,20,11,23,0D,00,00,
4301823,00000008,false,Rx,9,7,B0,01,20,0F,FF,07,00,00,
4301826,00000008,false,Rx,9,4,30,02,00,0B,00,00,00,00,
4301827,00000010,false,Rx,9,3,B0,0B,00,00,00,00,00,00,
4301830,000000AA,false,Rx,9,2,AA,04,00,00,00,00,00,00,
4301834,00000040,false,Rx,9,3,B0,01,23,00,00,00,00,00,
4301836,00000010,false,Rx,9,7,B0,01,20,11,23,0D,00,00,
4301837,00000010,false,Rx,9,3,B0,0B,00,00,00,00,00,00,
4301841,00000010,false,Rx,9,4,30,08,00,10,00,00,00,00,
4301843,00000040,false,Rx,9,4,B0,90,8B,80,00,00,00,00,
4301843,00000008,false,Rx,9,7,B0,01,20,0C,B5,0F,FF,00,
4301844,00000008,false,Rx,9,7,B0,0E,00,07,00,0D,09,00,
4301850,000000AA,false,Rx,9,2,AA,04,00,00,00,00,00,00,
4301854,00000040,false,Rx,9,6,B0,01,23,90,8B,80,00,00,
4301857,00000010,false,Rx,9,7,B0,01,20,11,23,0D,00,00,
4301858,0000029C,false,Rx,9,3,03,00,1A,00,00,00,00,00,
4301858,00000010,false,Rx,9,3,B0,0B,00,00,00,00,00,00,
4301863,00000008,false,Rx,9,7,B0,01,20,0F,FF,07,00,00,
4301870,000000AA,false,Rx,9,2,AA,04,00,00,00,00,00,00,
4301874,00000040,false,Rx,9,6,B0,01,23,90,8D,80,00,00,
4301875,000002BC,false,Rx,9,3,03,00,0F,00,00,00,00,00,
4301877,00000010,false,Rx,9,7,B0,01,20,11,23,0D,00,00,
4301878,00000010,false,Rx,9,3,B0,0B,00,00,00,00,00,00,
4301883,00000008,false,Rx,9,7,B0,01,20,0F,FF,07,00,00,
4301890,000000AA,false,Rx,9,2,AA,04,00,00,00,00,00,00,
4301894,00000040,false,Rx,9,6,B0,01,23,90,8E,7F,00,00,
4301896,000002B4,false,Rx,9,3,03,00,02,00,00,00,00,00,
4301897,00000010,false,Rx,9,7,B0,01,20,11,23,0D,00,00,
4301898,00000010,false,Rx,9,3,B0,0B,00,00,00,00,00,00,
4301903,00000008,false,Rx,9,7,B0,01,23,0F,FF,07,00,00,
4301910,000000AA,false,Rx,9,2,AA,04,00,00,00,00,00,00,
4301914,00000040,false,Rx,9,6,B0,01,23,90,8E,80,00,00,
4301916,000003AC,false,Rx,9,3,03,00,1D,00,00,00,00,00,
4301918,00000010,false,Rx,9,7,B0,01,23,11,23,0D,00,00,
4301919,00000010,false,Rx,9,3,B0,0B,00,00,00,00,00,00,
4301923,00000008,false,Rx,9,7,B0,01,25,0F,FF,07,00,00,
4301932,000000AA,false,Rx,9,2,AA,04,00,00,00,00,00,00,
4301934,00000040,false,Rx,9,6,B0,01,23,90,8E,7F,00,00,
4301936,000003A4,false,Rx,9,3,03,00,2C,00,00,00,00,00,
4301938,00000010,false,Rx,9,7,B0,01,25,11,23,0D,00,00,
4301939,00000010,false,Rx,9,3,B0,0B,00,00,00,00,00,00,
4301943,00000008,false,Rx,9,7,B0,01,25,0F,FF,07,00,00,
4301951,000000AA,false,Rx,9,2,AA,04,00,00,00,00,00,00,
4301954,00000040,false,Rx,9,6,B0,01,24,90,8E,80,00,00,
4301958,00000010,false,Rx,9,7,B0,01,25,11,24,0D,00,00,
4301959,00000010,false,Rx,9,3,B0,0B,00,00,00,00,00,00,
4301964,00000008,false,Rx,9,7,B0,01,25,0F,FF,07,00,00,
4301970,000000AA,false,Rx,9,2,AA,04,00,00,00,00,00,00,
4301974,00000040,false,Rx,9,6,B0,01,25,90,8E,7F,00,00,
4301976,00000040,false,Rx,9,7,B0,92,FF,FF,93,E2,00,00,
4301978,00000040,false,Rx,9,5,B0,14,00,34,33,00,00,00,
4301980,00000010,false,Rx,9,7,B0,01,25,11,25,0D,00,00,
4301981,0000029C,false,Rx,9,3,03,00,1A,00,00,00,00,00,
4301982,00000010,false,Rx,9,3,B0,0B,00,00,00,00,00,00,
4301985,00000008,false,Rx,9,7,B0,01,25,0F,FF,07,00,00,
4301991,000000AA,false,Rx,9,2,AA,04,00,00,00,00,00,00,
4301994,00000040,false,Rx,9,6,B0,01,25,90,8E,7F,00,00,
4301995,000002BC,false,Rx,9,3,03,00,0F,00,00,00,00,00,
4301999,00000010,false,Rx,9,7,B0,01,25,11,25,0E,00,00,
4302000,00000010,false,Rx,9,5,B0,0D,00,0B,00,00,00,00,
4302004,00000008,false,Rx,9,7,B0,01,25,0F,FF,07,00,00,
4302011,000000AA,false,Rx,9,2,AA,04,00,00,00,00,00,00,
4302014,00000040,false,Rx,9,6,B0,01,25,90,8E,80,00,00,
4302015,000002B4,false,Rx,9,3,03,00,0A,00,00,00,00,00,
4302019,00000010,false,Rx,9,7,B0,01,25,11,25,0D,00,00,
4302020,00000010,false,Rx,9,3,B0,0B,00,00,00,00,00,00,
4302024,00000008,false,Rx,9,7,B0,01,25,0F,FF,07,00,00,
4302030,000000AA,false,Rx,9,2,AA,04,00,00,00,00,00,00,
4302033,00000040,false,Rx,9,6,B0,01,25,90,8E,80,00,00,
4302035,000003AC,false,Rx,9,3,03,00,1D,00,00,00,00,00,
4302039,00000010,false,Rx,9,7,B0,01,25,11,25,0D,00,00,
4302040,00000010,false,Rx,9,3,B0,0B,01,00,00,00,00,00,
4302044,00000008,false,Rx,9,7,B0,01,25,0C,B5,0F,FF,00,
4302050,00000008,false,Rx,9,7,B0,0E,00,07,00,0D,09,00,
4302050,000000AA,false,Rx,9,2,AA,04,00,00,00,00,00,00,
4302053,00000040,false,Rx,9,6,B0,01,25,90,8E,80,00,00,
4302055,000003A4,false,Rx,9,3,03,00,2C,00,00,00,00,00,
4302059,00000010,false,Rx,9,7,B0,01,25,11,25,0D,00,00,
4302060,00000010,false,Rx,9,3,B0,0B,01,00,00,00,00,00,
4302064,00000008,false,Rx,9,7,B0,01,25,0F,FF,07,00,00,
4302071,000000AA,false,Rx,9,2,AA,04,00,00,00,00,00,00,
4302073,00000040,false,Rx,9,6,B0,01,25,90,8E,80,00,00,
4302079,00000010,false,Rx,9,7,B0,01,25,11,25,0D,00,00,
4302080,00000010,false,Rx,9,3,B0,0B,01,00,00,00,00,00,
4302084,00000008,false,Rx,9,7,B0,01,25,0F,FF,07,00,00,
4302091,000000AA,false,Rx,9,2,AA,04,00,00,00,00,00,00,
4302093,00000040,false,Rx,9,6,B0,01,25,90,8E,80,00,00,
4302096,0000029C,false,Rx,9,3,03,00,1A,00,00,00,00,00,
4302099,00000010,false,Rx,9,7,B0,01,25,11,25,0D,00,00,
4302100,00000010,false,Rx,9,3,B0,0B,02,00,00,00,00,00,
4302104,00000008,false,Rx,9,7,B0,01,25,0F,FF,07,00,00,
4302110,000000AA,false,Rx,9,2,AA,04,00,00,00,00,00,00,
4302113,00000040,false,Rx,9,6,B0,01,25,90,8E,80,00,00,
4302115,000002BC,false,Rx,9,3,03,00,0F,00,00,00,00,00,
4302119,00000010,false,Rx,9,7,B0,01,25,11,25,0D,00,00,
4302120,00000010,false,Rx,9,3,B0,0B,02,00,00,00,00,00,
4302124,00000008,false,Rx,9,7,B0,01,25,0F,FF,07,00,00,
4302130,000000AA,false,Rx,9,2,AA,04,00,00,00,00,00,00,
4302133,00000040,false,Rx,9,6,B0,01,25,90,8E,80,00,00,
4302135,000002B4,false,Rx,9,3,03,00,0A,00,00,00,00,00,
4302139,00000010,false,Rx,9,7,B0,01,25,11,25,0D,00,00,
4302140,00000010,false,Rx,9,3,B0,0B,02,00,00,00,00,00,
4302145,00000008,false,Rx,9,7,B0,01,25,0F,FF,07,00,00,
4302150,000000AA,false,Rx,9,2,AA,04,00,00,00,00,00,00,
4302153,00000040,false,Rx,9,6,B0,01,25,90,8E,80,00,00,
4302155,000003AC,false,Rx,9,3,03,00,1D,00,00,00,00,00,
4302159,00000010,false,Rx,9,7,B0,01,25,11,25,0D,00,00,
4302160,00000010,false,Rx,9,3,B0,0B,02,00,00,00,00,00,
4302161,00000010,false,Rx,9,4,30,08,00,35,00,00,00,00, Subscribe 35
4302162,00000040,false,Rx,9,3,B0,35,80,00,00,00,00,00,  value of 35 is 80
4302164,00000008,false,Rx,9,7,B0,01,25,0F,FF,07,00,00,
4302165,00000010,false,Rx,9,4,31,08,00,34,00,00,00,00,
4302170,000000AA,false,Rx,9,2,AA,04,00,00,00,00,00,00,
4302173,00000040,false,Rx,9,6,B0,01,25,90,8E,80,00,00,
4302175,00000040,false,Rx,9,7,B0,92,FF,FF,93,E2,00,00,
4302176,00000040,false,Rx,9,5,B0,14,00,35,80,00,00,00,  value of 35 is 80
4302177,000003A4,false,Rx,9,3,03,00,2C,00,00,00,00,00,
4302180,00000010,false,Rx,9,7,B0,01,25,11,25,0D,00,00,
4302181,00000010,false,Rx,9,3,B0,0B,03,00,00,00,00,00,
4302184,00000008,false,Rx,9,7,B0,01,25,0F,FF,07,00,00,
4302191,000000AA,false,Rx,9,2,AA,04,00,00,00,00,00,00,
4302193,00000040,false,Rx,9,6,B0,01,25,90,8F,80,00,00,
4302199,00000010,false,Rx,9,7,B0,01,25,11,25,0E,00,00,
4302200,00000010,false,Rx,9,5,B0,0D,00,0B,03,00,00,00,
4302204,00000008,false,Rx,9,7,B0,01,25,0F,FF,07,00,00,
4302210,000000AA,false,Rx,9,2,AA,04,00,00,00,00,00,00,
4302213,00000040,false,Rx,9,6,B0,01,25,90,90,80,00,00,
4302216,0000029C,false,Rx,9,3,03,00,1A,00,00,00,00,00,
4302219,00000010,false,Rx,9,7,B0,01,25,11,25,0D,00,00,
4302220,00000010,false,Rx,9,3,B0,0B,03,00,00,00,00,00,
4302224,00000008,false,Rx,9,7,B0,01,25,0F,FF,07,00,00,
4302230,000000AA,false,Rx,9,2,AA,04,00,00,00,00,00,00,
4302233,00000040,false,Rx,9,6,B0,01,25,90,90,80,00,00,
4302235,000002BC,false,Rx,9,3,03,00,0F,00,00,00,00,00,
4302239,00000010,false,Rx,9,7,B0,01,25,11,25,0D,00,00,
4302240,00000010,false,Rx,9,3,B0,0B,04,00,00,00,00,00,
4302244,00000008,false,Rx,9,7,B0,01,25,0C,B5,0F,FF,00,
4302245,00000008,false,Rx,9,7,B0,0E,00,07,00,0D,09,00,
4302250,000000AA,false,Rx,9,2,AA,04,00,00,00,00,00,00,
4302253,00000040,false,Rx,9,6,B0,01,25,90,90,80,00,00,
4302255,000002B4,false,Rx,9,3,03,00,02,00,00,00,00,00,
4302259,00000010,false,Rx,9,7,B0,01,25,11,25,0D,00,00,
4302260,00000010,false,Rx,9,3,B0,0B,04,00,00,00,00,00,
4302264,00000008,false,Rx,9,7,B0,01,25,0F,FF,07,00,00,
4302271,000000AA,false,Rx,9,2,AA,04,00,00,00,00,00,00,
4302273,00000040,false,Rx,9,6,B0,01,25,90,90,80,00,00,
4302275,000003AC,false,Rx,9,3,03,00,1D,00,00,00,00,00,
4302279,00000010,false,Rx,9,7,B0,01,25,11,25,0D,00,00,
4302280,00000010,false,Rx,9,3,B0,0B,04,00,00,00,00,00,
4302284,00000008,false,Rx,9,7,B0,01,25,0F,FF,07,00,00,
4302290,000000AA,false,Rx,9,2,AA,04,00,00,00,00,00,00,
4302294,00000040,false,Rx,9,6,B0,01,25,90,92,80,00,00,
4302296,000003A4,false,Rx,9,3,03,00,2C,00,00,00,00,00,
4302299,00000010,false,Rx,9,7,B0,01,25,11,25,0D,00,00,
4302300,00000010,false,Rx,9,3,B0,0B,05,00,00,00,00,00,
4302304,00000008,false,Rx,9,7,B0,01,25,0F,FF,07,00,00,
4302310,000000AA,false,Rx,9,2,AA,04,00,00,00,00,00,00,
4302313,00000040,false,Rx,9,6,B0,01,25,90,93,80,00,00,
4302319,00000010,false,Rx,9,7,B0,01,25,11,25,0D,00,00,
4302320,00000010,false,Rx,9,3,B0,0B,05,00,00,00,00,00,
4302324,00000008,false,Rx,9,7,B0,01,25,0F,FF,07,00,00,
4302331,000000AA,false,Rx,9,2,AA,04,00,00,00,00,00,00,
4302334,00000040,false,Rx,9,6,B0,01,25,90,94,80,00,00,
4302337,0000029C,false,Rx,9,3,03,00,1A,00,00,00,00,00,
4302339,00000010,false,Rx,9,7,B0,01,25,11,25,0D,00,00,
4302340,00000010,false,Rx,9,3,B0,0B,05,00,00,00,00,00,
4302344,00000008,false,Rx,9,7,B0,01,25,0F,FF,07,00,00,
4302350,000000AA,false,Rx,9,2,AA,04,00,00,00,00,00,00,
4302353,00000040,false,Rx,9,6,B0,01,25,90,94,80,00,00,
4302355,000002BC,false,Rx,9,3,03,00,0F,00,00,00,00,00,
4302359,00000010,false,Rx,9,7,B0,01,25,11,25,0D,00,00,
4302360,00000010,false,Rx,9,3,B0,0B,05,00,00,00,00,00,
4302364,00000008,false,Rx,9,7,B0,01,25,0F,FF,07,00,00,
4302370,000000AA,false,Rx,9,2,AA,04,00,00,00,00,00,00,
4302374,00000040,false,Rx,9,6,B0,01,25,90,94,80,00,00,
4302375,00000040,false,Rx,9,7,B0,92,FF,FF,93,E2,00,00,
4302376,00000040,false,Rx,9,5,B0,14,00,35,80,00,00,00,  value of 35 is 80
4302378,000002B4,false,Rx,9,3,03,00,0A,00,00,00,00,00,
4302380,00000010,false,Rx,9,7,B0,01,25,11,25,0D,00,00,
4302381,00000010,false,Rx,9,3,B0,0B,06,00,00,00,00,00,
4302384,00000008,false,Rx,9,7,B0,01,25,0F,FF,07,00,00,
4302390,000000AA,false,Rx,9,2,AA,04,00,00,00,00,00,00,
4302393,00000040,false,Rx,9,6,B0,01,25,90,94,80,00,00,
4302395,000003AC,false,Rx,9,3,03,00,1D,00,00,00,00,00,
4302399,00000010,false,Rx,9,7,B0,01,25,11,25,0E,00,00,
4302400,00000010,false,Rx,9,5,B0,0D,00,0B,06,00,00,00,
4302405,00000008,false,Rx,9,7,B0,01,25,0F,FF,07,00,00,
4302410,000000AA,false,Rx,9,2,AA,04,00,00,00,00,00,00,
4302413,00000040,false,Rx,9,6,B0,01,25,90,94,80,00,00,
4302415,000003A4,false,Rx,9,3,03,00,2C,00,00,00,00,00,
4302419,00000010,false,Rx,9,7,B0,01,25,11,25,0D,00,00,
4302420,00000010,false,Rx,9,3,B0,0B,06,00,00,00,00,00,
4302425,00000008,false,Rx,9,7,B0,01,25,0F,FF,07,00,00,
4302431,000000AA,false,Rx,9,2,AA,04,00,00,00,00,00,00,
4302433,00000040,false,Rx,9,6,B0,01,25,90,94,80,00,00,
4302439,00000010,false,Rx,9,7,B0,01,25,11,25,0D,00,00,
4302440,00000010,false,Rx,9,3,B0,0B,07,00,00,00,00,00,
4302445,00000008,false,Rx,9,7,B0,01,25,0C,B5,0F,FF,00,
4302445,00000008,false,Rx,9,7,B0,0E,00,07,00,0D,09,00,
4302450,000000AA,false,Rx,9,2,AA,04,00,00,00,00,00,00,
4302453,00000040,false,Rx,9,6,B0,01,25,90,94,80,00,00,
4302456,0000029C,false,Rx,9,3,03,00,1A,00,00,00,00,00,
4302459,00000010,false,Rx,9,7,B0,01,25,11,25,0D,00,00,
4302460,00000010,false,Rx,9,3,B0,0B,07,00,00,00,00,00,
4302465,00000008,false,Rx,9,7,B0,01,25,0F,FF,07,00,00,
4302470,000000AA,false,Rx,9,2,AA,04,00,00,00,00,00,00,
4302474,00000040,false,Rx,9,6,B0,01,25,90,94,80,00,00,
4302475,000002BC,false,Rx,9,3,03,00,0F,00,00,00,00,00,
4302479,00000010,false,Rx,9,7,B0,01,25,11,25,0D,00,00,
4302480,00000010,false,Rx,9,3,B0,0B,07,00,00,00,00,00,
4302485,00000008,false,Rx,9,7,B0,01,25,0F,FF,07,00,00,
4302490,000000AA,false,Rx,9,2,AA,04,00,00,00,00,00,00,
4302493,00000040,false,Rx,9,6,B0,01,25,90,94,80,00,00,
4302495,000002B4,false,Rx,9,3,03,00,0A,00,00,00,00,00,
4302499,00000010,false,Rx,9,7,B0,01,25,11,25,0D,00,00,
4302500,00000010,false,Rx,9,3,B0,0B,08,00,00,00,00,00,
4302505,00000008,false,Rx,9,7,B0,01,25,0F,FF,07,00,00,
4302511,000000AA,false,Rx,9,2,AA,04,00,00,00,00,00,00,
4302513,00000040,false,Rx,9,6,B0,01,25,90,96,80,00,00,
4302515,000003AC,false,Rx,9,3,03,00,1D,00,00,00,00,00,
4302519,00000010,false,Rx,9,7,B0,01,25,11,25,0D,00,00,
4302520,00000010,false,Rx,9,3,B0,0B,08,00,00,00,00,00,
4302525,00000008,false,Rx,9,7,B0,01,25,0F,FF,07,00,00,
4302530,000000AA,false,Rx,9,2,AA,04,00,00,00,00,00,00,
4302534,00000040,false,Rx,9,6,B0,01,25,90,98,80,00,00,
4302535,000003A4,false,Rx,9,3,03,00,2C,00,00,00,00,00,
4302539,00000010,false,Rx,9,7,B0,01,25,11,25,0D,00,00,
4302540,00000010,false,Rx,9,3,B0,0B,08,00,00,00,00,00,
4302545,00000008,false,Rx,9,7,B0,01,25,0F,FF,07,00,00,
4302550,000000AA,false,Rx,9,2,AA,04,00,00,00,00,00,00,
4302553,00000040,false,Rx,9,6,B0,01,25,90,98,80,00,00,
4302559,00000010,false,Rx,9,7,B0,01,25,11,25,0D,00,00,
4302560,00000010,false,Rx,9,3,B0,0B,08,00,00,00,00,00,
4302561,00000010,false,Rx,9,4,31,08,00,35,00,00,00,00, Unsubscribe 35
4302565,00000008,false,Rx,9,7,B0,01,25,0F,FF,07,00,00,
4302570,000000AA,false,Rx,9,2,AA,04,00,00,00,00,00,00,
4302573,00000040,false,Rx,9,6,B0,01,25,90,99,80,00,00,
4302575,00000040,false,Rx,9,7,B0,92,FF,FF,93,E2,00,00,
4302576,00000040,false,Rx,9,3,B0,14,00,00,00,00,00,00,
4302578,0000029C,false,Rx,9,3,03,00,1A,00,00,00,00,00,
4302581,00000010,false,Rx,9,7,B0,01,25,11,25,0D,00,00,
4302581,00000010,false,Rx,9,3,B0,0B,09,00,00,00,00,00,
4302585,00000008,false,Rx,9,7,B0,01,25,0F,FF,07,00,00,
4302590,000000AA,false,Rx,9,2,AA,04,00,00,00,00,00,00,
4302594,00000040,false,Rx,9,6,B0,01,25,90,9B,80,00,00,
4302596,000002BC,false,Rx,9,3,03,00,0F,00,00,00,00,00,
4302599,00000010,false,Rx,9,7,B0,01,25,11,25,0E,00,00,
4302600,00000010,false,Rx,9,5,B0,0D,00,0B,09,00,00,00,
4302605,00000008,false,Rx,9,7,B0,01,25,0F,FF,07,00,00,
4302611,000000AA,false,Rx,9,2,AA,04,00,00,00,00,00,00,
4302614,00000040,false,Rx,9,6,B0,01,25,90,9C,80,00,00,
4302615,000002B4,false,Rx,9,3,03,00,02,00,00,00,00,00,
4302619,00000010,false,Rx,9,7,B0,01,25,11,25,0D,00,00,
4302620,00000010,false,Rx,9,3,B0,0B,09,00,00,00,00,00,
4302625,00000008,false,Rx,9,7,B0,01,25,0F,FF,07,00,00,
4302630,000000AA,false,Rx,9,2,AA,04,00,00,00,00,00,00,
4302633,00000040,false,Rx,9,6,B0,01,25,90,9C,80,00,00,
4302635,000003AC,false,Rx,9,3,03,00,1D,00,00,00,00,00,
4302639,00000010,false,Rx,9,7,B0,01,25,11,25,0D,00,00,
4302640,00000010,false,Rx,9,3,B0,0B,0A,00,00,00,00,00,
4302645,00000008,false,Rx,9,7,B0,01,25,0C,B4,0F,FF,00,
4302645,00000008,false,Rx,9,7,B0,0E,00,07,00,0D,09,00,
4302650,000000AA,false,Rx,9,2,AA,04,00,00,00,00,00,00,
4302653,00000040,false,Rx,9,6,B0,01,25,90,9C,80,00,00,
4302655,000003A4,false,Rx,9,3,03,00,2C,00,00,00,00,00,
4302659,00000010,false,Rx,9,7,B0,01,25,11,25,0D,00,00,
4302660,00000010,false,Rx,9,3,B0,0B,0A,00,00,00,00,00,
4302665,00000008,false,Rx,9,7,B0,01,25,0F,FF,07,00,00,
4302670,000000AA,false,Rx,9,2,AA,04,00,00,00,00,00,00,
4302673,00000040,false,Rx,9,6,B0,01,25,90,9C,80,00,00,
4302679,00000010,false,Rx,9,7,B0,01,25,11,25,0D,00,00,
4302680,00000010,false,Rx,9,3,B0,0B,0A,00,00,00,00,00,
4302684,00000008,false,Rx,9,7,B0,01,25,0F,FF,07,00,00,
4302691,000000AA,false,Rx,9,2,AA,04,00,00,00,00,00,00,
4302693,00000040,false,Rx,9,6,B0,01,25,90,9E,80,00,00,
4302696,0000029C,false,Rx,9,3,03,00,1A,00,00,00,00,00,
4302699,00000010,false,Rx,9,7,B0,01,25,11,25,0D,00,00,
4302700,00000010,false,Rx,9,3,B0,0B,0A,00,00,00,00,00,
4302705,00000008,false,Rx,9,7,B0,01,25,0F,FF,07,00,00,
4302712,000000AA,false,Rx,9,2,AA,04,00,00,00,00,00,00,
4302714,00000040,false,Rx,9,6,B0,01,25,90,A0,80,00,00,
4302716,000002BC,false,Rx,9,3,03,00,0F,00,00,00,00,00,
4302719,00000010,false,Rx,9,7,B0,01,25,11,25,0D,00,00,
4302720,00000010,false,Rx,9,3,B0,0B,0B,00,00,00,00,00,
4302724,00000008,false,Rx,9,7,B0,01,25,0F,FF,07,00,00,
4302730,000000AA,false,Rx,9,2,AA,04,00,00,00,00,00,00,
4302733,00000040,false,Rx,9,6,B0,01,25,90,A0,80,00,00,
4302735,000002B4,false,Rx,9,3,03,00,02,00,00,00,00,00,
4302739,00000010,false,Rx,9,7,B0,01,25,11,25,0D,00,00,
4302740,00000010,false,Rx,9,3,B0,0B,0B,00,00,00,00,00,
4302744,00000008,false,Rx,9,7,B0,01,25,0F,FF,07,00,00,
4302751,000000AA,false,Rx,9,2,AA,04,00,00,00,00,00,00,
4302753,00000040,false,Rx,9,6,B0,01,25,90,A1,81,00,00,
4302755,000003AC,false,Rx,9,3,03,00,1D,00,00,00,00,00,
4302759,00000010,false,Rx,9,7,B0,01,25,11,25,0D,00,00,
4302760,00000010,false,Rx,9,3,B0,0B,0B,00,00,00,00,00,
4302764,00000008,false,Rx,9,7,B0,01,25,0F,FF,07,00,00,
4302771,000000AA,false,Rx,9,2,AA,04,00,00,00,00,00,00,
4302773,00000040,false,Rx,9,6,B0,01,25,90,A2,81,00,00,
4302775,00000040,false,Rx,9,7,B0,92,FF,FF,93,E2,00,00,
4302776,00000040,false,Rx,9,3,B0,14,00,00,00,00,00,00,
4302777,000003A4,false,Rx,9,3,03,00,2C,00,00,00,00,00,
4302780,00000010,false,Rx,9,7,B0,01,25,11,25,0D,00,00,
4302781,00000010,false,Rx,9,3,B0,0B,0C,00,00,00,00,00,
4302784,00000008,false,Rx,9,7,B0,01,25,0F,FF,07,00,00,
4302791,000000AA,false,Rx,9,2,AA,04,00,00,00,00,00,00,
4302794,00000040,false,Rx,9,6,B0,01,25,90,A4,81,00,00,
4302799,00000010,false,Rx,9,7,B0,01,25,11,25,0E,00,00,
4302800,00000010,false,Rx,9,5,B0,0D,00,0B,0C,00,00,00,
4302804,00000008,false,Rx,9,7,B0,01,25,0F,FF,07,00,00,
4302810,000000AA,false,Rx,9,2,AA,04,00,00,00,00,00,00,
4302814,00000040,false,Rx,9,6,B0,01,25,90,A5,81,00,00,
4302816,0000029C,false,Rx,9,3,03,00,1A,00,00,00,00,00,
4302819,00000010,false,Rx,9,7,B0,01,25,11,25,0D,00,00,
4302820,00000010,false,Rx,9,3,B0,0B,0C,00,00,00,00,00,
4302824,00000008,false,Rx,9,7,B0,01,25,0F,FF,07,00,00,
4302830,000000AA,false,Rx,9,2,AA,04,00,00,00,00,00,00,
4302835,00000040,false,Rx,9,6,B0,01,25,90,A6,82,00,00,
4302837,000002BC,false,Rx,9,3,03,00,0F,00,00,00,00,00,
4302839,00000010,false,Rx,9,7,B0,01,25,11,25,0D,00,00,
4302840,00000010,false,Rx,9,3,B0,0B,0D,00,00,00,00,00,
4302844,00000008,false,Rx,9,7,B0,01,25,0C,B4,0F,FF,00,
4302846,00000008,false,Rx,9,7,B0,0E,00,07,00,0D,09,00,
4302850,000000AA,false,Rx,9,2,AA,04,00,00,00,00,00,00,
4302854,00000040,false,Rx,9,6,B0,01,25,90,A7,82,00,00,
4302855,000002B4,false,Rx,9,3,03,00,0A,00,00,00,00,00,
4302859,00000010,false,Rx,9,7,B0,01,25,11,25,0D,00,00,
4302860,00000010,false,Rx,9,3,B0,0B,0D,00,00,00,00,00,
4302864,00000008,false,Rx,9,7,B0,01,25,0F,FF,07,00,00,
4302871,000000AA,false,Rx,9,2,AA,04,00,00,00,00,00,00,
4302873,00000040,false,Rx,9,6,B0,01,25,90,A7,82,00,00,
4302875,000003AC,false,Rx,9,3,03,00,1D,00,00,00,00,00,
4302879,00000010,false,Rx,9,7,B0,01,25,11,25,0D,00,00,
4302880,00000010,false,Rx,9,3,B0,0B,0D,00,00,00,00,00,
4302884,00000008,false,Rx,9,7,B0,01,25,0F,FF,07,00,00,
4302890,000000AA,false,Rx,9,2,AA,04,00,00,00,00,00,00,
4302893,00000040,false,Rx,9,6,B0,01,25,90,A7,82,00,00,
4302895,000003A4,false,Rx,9,3,03,00,2C,00,00,00,00,00,
4302899,00000010,false,Rx,9,7,B0,01,25,11,25,0D,00,00,
4302900,00000010,false,Rx,9,3,B0,0B,0D,00,00,00,00,00,
4302904,00000008,false,Rx,9,7,B0,01,25,0F,FF,07,00,00,
4302911,000000AA,false,Rx,9,2,AA,04,00,00,00,00,00,00,
4302913,00000040,false,Rx,9,6,B0,01,25,90,A7,82,00,00,
4302919,00000010,false,Rx,9,7,B0,01,25,11,25,0D,00,00,
4302920,00000010,false,Rx,9,3,B0,0B,0E,00,00,00,00,00,
4302924,00000008,false,Rx,9,7,B0,01,25,0F,FF,07,00,00,
4302931,000000AA,false,Rx,9,2,AA,04,00,00,00,00,00,00,
4302933,00000040,false,Rx,9,6,B0,01,25,90,A7,82,00,00,
4302936,0000029C,false,Rx,9,3,03,00,1A,00,00,00,00,00,
4302940,00000010,false,Rx,9,7,B0,01,25,11,25,0D,00,00,
4302940,00000010,false,Rx,9,3,B0,0B,0E,00,00,00,00,00,
4302944,00000008,false,Rx,9,7,B0,01,25,0F,FF,07,00,00,
4302951,000000AA,false,Rx,9,2,AA,04,00,00,00,00,00,00,
4302953,00000040,false,Rx,9,6,B0,01,25,90,A8,82,00,00,
4302955,000002BC,false,Rx,9,3,03,00,0F,00,00,00,00,00,
4302959,00000010,false,Rx,9,7,B0,01,25,11,25,0D,00,00,
4302960,00000010,false,Rx,9,3,B0,0B,0E,00,00,00,00,00,
4302964,00000008,false,Rx,9,7,B0,01,25,0F,FF,07,00,00,
4302970,000000AA,false,Rx,9,2,AA,04,00,00,00,00,00,00,
4302973,00000040,false,Rx,9,6,B0,01,25,90,A8,82,00,00,
4302975,00000040,false,Rx,9,7,B0,92,FF,FF,93,E2,00,00,
4302976,00000040,false,Rx,9,3,B0,14,00,00,00,00,00,00,
4302977,000002B4,false,Rx,9,3,03,00,02,00,00,00,00,00,
4302980,00000010,false,Rx,9,7,B0,01,25,11,25,0D,00,00,
4302981,00000010,false,Rx,9,3,B0,0B,0F,00,00,00,00,00,
4302984,00000008,false,Rx,9,7,B0,01,25,0F,FF,07,00,00,
4302992,000000AA,false,Rx,9,2,AA,04,00,00,00,00,00,00,
4302994,00000040,false,Rx,9,6,B0,01,25,90,A8,82,00,00,
4302996,000003AC,false,Rx,9,3,03,00,1D,00,00,00,00,00,
4302999,00000010,false,Rx,9,7,B0,01,25,11,25,0E,00,00,
4303000,00000010,false,Rx,9,5,B0,0D,00,0B,0F,00,00,00,
4303004,00000008,false,Rx,9,7,B0,01,25,0F,FF,07,00,00,
4303010,000000AA,false,Rx,9,2,AA,04,00,00,00,00,00,00,
4303013,00000040,false,Rx,9,6,B0,01,25,90,A9,82,00,00,
4303015,000003A4,false,Rx,9,3,03,00,2C,00,00,00,00,00,
4303019,00000010,false,Rx,9,7,B0,01,25,11,25,0D,00,00,
4303020,00000010,false,Rx,9,3,B0,0B,0F,00,00,00,00,00,
4303024,00000008,false,Rx,9,7,B0,01,25,0F,FF,07,00,00,
4303030,000000AA,false,Rx,9,2,AA,04,00,00,00,00,00,00,
4303034,00000040,false,Rx,9,6,B0,01,25,90,A9,82,00,00,
4303039,00000010,false,Rx,9,7,B0,01,25,11,25,0D,00,00,
4303040,00000010,false,Rx,9,3,B0,0B,10,00,00,00,00,00,
4303044,00000008,false,Rx,9,7,B0,01,25,0C,B4,0F,FF,00,
4303049,00000008,false,Rx,9,7,B0,0E,00,07,00,0D,09,00,
4303051,000000AA,false,Rx,9,2,AA,04,00,00,00,00,00,00,
4303054,00000040,false,Rx,9,6,B0,01,25,90,AB,82,00,00,
4303057,0000029C,false,Rx,9,3,03,00,1A,00,00,00,00,00,
4303060,00000010,false,Rx,9,7,B0,01,25,11,25,0D,00,00,
4303060,00000010,false,Rx,9,3,B0,0B,10,00,00,00,00,00,
4303064,00000008,false,Rx,9,7,B0,01,25,0F,FF,07,00,00,
4303071,000000AA,false,Rx,9,2,AA,04,00,00,00,00,00,00,
4303074,00000040,false,Rx,9,6,B0,01,25,90,AE,82,00,00,
4303076,000002BC,false,Rx,9,3,03,00,0F,00,00,00,00,00,
4303079,00000010,false,Rx,9,7,B0,01,25,11,25,0D,00,00,
4303080,00000010,false,Rx,9,3,B0,0B,10,00,00,00,00,00,
4303084,00000008,false,Rx,9,7,B0,01,25,0F,FF,07,00,00,
4303091,000000AA,false,Rx,9,2,AA,04,00,00,00,00,00,00,
4303093,00000040,false,Rx,9,6,B0,01,25,90,B0,82,00,00,
4303095,000002B4,false,Rx,9,3,03,00,02,00,00,00,00,00,
4303099,00000010,false,Rx,9,7,B0,01,25,11,25,0D,00,00,
4303100,00000010,false,Rx,9,3,B0,0B,10,00,00,00,00,00,
4303104,00000008,false,Rx,9,7,B0,01,25,0F,FF,07,00,00,
4303111,000000AA,false,Rx,9,2,AA,04,00,00,00,00,00,00,
4303114,00000040,false,Rx,9,6,B0,01,25,90,B2,82,00,00,
4303115,000003AC,false,Rx,9,3,03,00,1D,00,00,00,00,00,
4303119,00000010,false,Rx,9,7,B0,01,25,11,25,0D,00,00,
4303120,00000010,false,Rx,9,3,B0,0B,11,00,00,00,00,00,
4303124,00000008,false,Rx,9,7,B0,01,25,0F,FF,07,00,00,
4303131,000000AA,false,Rx,9,2,AA,04,00,00,00,00,00,00,
4303134,00000040,false,Rx,9,6,B0,01,25,90,B3,82,00,00,
4303135,000003A4,false,Rx,9,3,03,00,2C,00,00,00,00,00,
4303139,00000010,false,Rx,9,7,B0,01,25,11,25,0D,00,00,
4303140,00000010,false,Rx,9,3,B0,0B,11,00,00,00,00,00,
4303144,00000008,false,Rx,9,7,B0,01,25,0F,FF,07,00,00,
4303151,000000AA,false,Rx,9,2,AA,04,00,00,00,00,00,00,
4303154,00000040,false,Rx,9,6,B0,01,25,90,B3,82,00,00,
4303159,00000010,false,Rx,9,7,B0,01,25,11,25,0D,00,00,
4303160,00000010,false,Rx,9,3,B0,0B,11,00,00,00,00,00,
4303164,00000008,false,Rx,9,7,B0,01,25,0F,FF,07,00,00,
4303171,000000AA,false,Rx,9,2,AA,04,00,00,00,00,00,00,
4303174,00000040,false,Rx,9,6,B0,01,25,90,B3,83,00,00,
4303176,00000040,false,Rx,9,7,B0,92,FF,FF,93,E2,00,00,
4303177,00000040,false,Rx,9,3,B0,14,00,00,00,00,00,00,
4303179,0000029C,false,Rx,9,3,03,00,1A,00,00,00,00,00,
4303181,00000010,false,Rx,9,7,B0,01,25,11,25,0D,00,00,
4303182,00000010,false,Rx,9,3,B0,0B,12,00,00,00,00,00,
4303184,00000008,false,Rx,9,7,B0,01,25,0F,FF,07,00,00,
4303191,000000AA,false,Rx,9,2,AA,04,00,00,00,00,00,00,
4303194,00000040,false,Rx,9,6,B0,01,25,90,B3,83,00,00,
4303195,000002BC,false,Rx,9,3,03,00,0F,00,00,00,00,00,
4303199,00000010,false,Rx,9,7,B0,01,25,11,25,0E,00,00,
4303200,00000010,false,Rx,9,5,B0,0D,00,0B,12,00,00,00,
4303204,00000008,false,Rx,9,7,B0,01,25,0F,FF,07,00,00,
4303211,000000AA,false,Rx,9,2,AA,04,00,00,00,00,00,00,
4303214,00000040,false,Rx,9,6,B0,01,25,90,B2,83,00,00,
4303215,000002B4,false,Rx,9,3,03,00,0A,00,00,00,00,00,
4303219,00000010,false,Rx,9,7,B0,01,25,11,25,0D,00,00,
4303220,00000010,false,Rx,9,3,B0,0B,12,00,00,00,00,00,
4303224,00000008,false,Rx,9,7,B0,01,25,0F,FF,07,00,00,
4303231,000000AA,false,Rx,9,2,AA,04,00,00,00,00,00,00,
4303234,00000040,false,Rx,9,6,B0,01,25,90,B3,83,00,00,
4303235,000003AC,false,Rx,9,3,03,00,1D,00,00,00,00,00,
4303239,00000010,false,Rx,9,7,B0,01,25,11,25,0D,00,00,
4303240,00000010,false,Rx,9,3,B0,0B,13,00,00,00,00,00,
4303244,00000008,false,Rx,9,7,B0,01,25,0C,B4,0F,FF,00,
4303245,00000008,false,Rx,9,7,B0,0E,00,07,00,0D,09,00,
4303251,000000AA,false,Rx,9,2,AA,04,00,00,00,00,00,00,
4303253,00000040,false,Rx,9,6,B0,01,25,90,B3,83,00,00,
4303255,000003A4,false,Rx,9,3,03,00,2C,00,00,00,00,00,
4303259,00000010,false,Rx,9,7,B0,01,25,11,25,0D,00,00,
4303260,00000010,false,Rx,9,3,B0,0B,13,00,00,00,00,00,
4303264,00000008,false,Rx,9,7,B0,01,25,0F,FF,07,00,00,
4303272,000000AA,false,Rx,9,2,AA,04,00,00,00,00,00,00,
4303274,00000040,false,Rx,9,6,B0,01,25,90,B4,83,00,00,
4303279,00000010,false,Rx,9,7,B0,01,25,11,25,0D,00,00,
4303280,00000010,false,Rx,9,3,B0,0B,13,00,00,00,00,00,
4303284,00000008,false,Rx,9,7,B0,01,25,0F,FF,07,00,00,
4303292,000000AA,false,Rx,9,2,AA,04,00,00,00,00,00,00,
4303294,00000040,false,Rx,9,6,B0,01,25,90,B4,84,00,00,
4303297,0000029C,false,Rx,9,3,03,00,1A,00,00,00,00,00,
4303300,00000010,false,Rx,9,7,B0,01,25,11,25,0D,00,00,
4303300,00000010,false,Rx,9,3,B0,0B,13,00,00,00,00,00,
4303304,00000008,false,Rx,9,7,B0,01,25,0F,FF,07,00,00,
4303312,000000AA,false,Rx,9,2,AA,04,00,00,00,00,00,00,
4303314,00000040,false,Rx,9,6,B0,01,25,90,B5,84,00,00,
4303315,000002BC,false,Rx,9,3,03,00,0F,00,00,00,00,00,
4303319,00000010,false,Rx,9,7,B0,01,25,11,25,0D,00,00,
4303320,00000010,false,Rx,9,3,B0,0B,14,00,00,00,00,00,
4303324,00000008,false,Rx,9,7,B0,01,25,0F,FF,07,00,00,
4303332,000000AA,false,Rx,9,2,AA,04,00,00,00,00,00,00,
4303334,00000040,false,Rx,9,6,B0,01,25,90,B5,84,00,00,
4303335,000002B4,false,Rx,9,3,03,00,0A,00,00,00,00,00,
4303339,00000010,false,Rx,9,7,B0,01,25,11,25,0D,00,00,
4303340,00000010,false,Rx,9,3,B0,0B,14,00,00,00,00,00,
4303344,00000008,false,Rx,9,7,B0,01,25,0F,FF,07,00,00,
4303352,000000AA,false,Rx,9,2,AA,04,00,00,00,00,00,00,
4303354,00000040,false,Rx,9,6,B0,01,25,90,B5,84,00,00,
4303355,000003AC,false,Rx,9,3,03,00,1D,00,00,00,00,00,
4303359,00000010,false,Rx,9,7,B0,01,25,11,25,0D,00,00,
4303360,00000010,false,Rx,9,3,B0,0B,14,00,00,00,00,00,
4303364,00000008,false,Rx,9,7,B0,01,25,0F,FF,07,00,00,
4303372,000000AA,false,Rx,9,2,AA,04,00,00,00,00,00,00,
4303374,00000040,false,Rx,9,6,B0,01,25,90,B5,85,00,00,
4303375,00000040,false,Rx,9,7,B0,92,FF,FF,93,E2,00,00,
4303376,00000040,false,Rx,9,3,B0,14,00,00,00,00,00,00,
4303377,000003A4,false,Rx,9,3,03,00,2C,00,00,00,00,00,
4303380,00000010,false,Rx,9,7,B0,01,25,11,25,0D,00,00,
4303381,00000010,false,Rx,9,3,B0,0B,15,00,00,00,00,00,
4303384,00000008,false,Rx,9,7,B0,01,25,0F,FF,07,00,00,
4303392,000000AA,false,Rx,9,2,AA,04,00,00,00,00,00,00,
4303394,00000040,false,Rx,9,6,B0,01,25,90,B5,86,00,00,
4303399,00000010,false,Rx,9,7,B0,01,25,11,25,0E,00,00,
4303400,00000010,false,Rx,9,5,B0,0D,00,0B,15,00,00,00,
4303404,00000008,false,Rx,9,7,B0,01,25,0F,FF,07,00,00,
4303412,000000AA,false,Rx,9,2,AA,04,00,00,00,00,00,00,
4303414,00000040,false,Rx,9,6,B0,01,25,90,B5,86,00,00,
4303416,0000029C,false,Rx,9,3,03,00,1A,00,00,00,00,00,
4303420,00000010,false,Rx,9,7,B0,01,25,11,25,0D,00,00,
4303420,00000010,false,Rx,9,3,B0,0B,15,00,00,00,00,00,
4303424,00000008,false,Rx,9,7,B0,01,25,0F,FF,07,00,00,
4303432,000000AA,false,Rx,9,2,AA,04,00,00,00,00,00,00,
4303434,00000040,false,Rx,9,6,B0,01,25,90,B5,86,00,00,
4303435,000002BC,false,Rx,9,3,03,00,0F,00,00,00,00,00,
4303439,00000010,false,Rx,9,7,B0,01,25,11,25,0D,00,00,
4303440,00000010,false,Rx,9,3,B0,0B,15,00,00,00,00,00,
4303444,00000008,false,Rx,9,7,B0,01,25,0C,B4,0F,FF,00,
4303445,00000008,false,Rx,9,7,B0,0E,00,07,00,0D,09,00,
4303452,000000AA,false,Rx,9,2,AA,04,00,00,00,00,00,00,
4303454,00000040,false,Rx,9,6,B0,01,25,90,B5,87,00,00,
4303456,000002B4,false,Rx,9,3,03,00,02,00,00,00,00,00,
4303459,00000010,false,Rx,9,7,B0,01,25,11,25,0D,00,00,
4303460,00000010,false,Rx,9,3,B0,0B,16,00,00,00,00,00,
4303464,00000008,false,Rx,9,7,B0,01,25,0F,FF,07,00,00,
4303470,000000AA,false,Rx,9,2,AA,04,00,00,00,00,00,00,
4303474,00000040,false,Rx,9,6,B0,01,25,90,B5,88,00,00,
4303475,000003AC,false,Rx,9,3,03,00,1D,00,00,00,00,00,
4303479,00000010,false,Rx,9,7,B0,01,25,11,25,0D,00,00,
4303480,00000010,false,Rx,9,3,B0,0B,16,00,00,00,00,00,
4303484,00000008,false,Rx,9,7,B0,01,25,0F,FF,07,00,00,
4303490,000000AA,false,Rx,9,2,AA,04,00,00,00,00,00,00,
4303494,00000040,false,Rx,9,6,B0,01,25,90,B4,89,00,00,
4303496,000003A4,false,Rx,9,3,03,00,2C,00,00,00,00,00,
4303499,00000010,false,Rx,9,7,B0,01,25,11,25,0D,00,00,
4303500,00000010,false,Rx,9,3,B0,0B,16,00,00,00,00,00,
4303504,00000008,false,Rx,9,7,B0,01,25,0F,FF,07,00,00,
4303511,000000AA,false,Rx,9,2,AA,04,00,00,00,00,00,00,
4303514,00000040,false,Rx,9,6,B0,01,25,90,B4,8A,00,00,
4303519,00000010,false,Rx,9,7,B0,01,25,11,25,0D,00,00,
4303520,00000010,false,Rx,9,3,B0,0B,16,00,00,00,00,00,
4303524,00000008,false,Rx,9,7,B0,01,25,0F,FF,07,00,00,
4303531,000000AA,false,Rx,9,2,AA,04,00,00,00,00,00,00,
4303534,00000040,false,Rx,9,6,B0,01,25,90,B4,8B,00,00,
4303536,0000029C,false,Rx,9,3,03,00,1A,00,00,00,00,00,
4303539,00000010,false,Rx,9,7,B0,01,25,11,25,0D,00,00,
4303540,00000010,false,Rx,9,3,B0,0B,16,00,00,00,00,00,
4303544,00000008,false,Rx,9,7,B0,01,25,0F,FF,07,00,00,
4303552,000000AA,false,Rx,9,2,AA,04,00,00,00,00,00,00,
4303554,00000040,false,Rx,9,6,B0,01,25,90,B3,8C,00,00,
4303555,000002BC,false,Rx,9,3,03,00,0F,00,00,00,00,00,
4303559,00000010,false,Rx,9,7,B0,01,25,11,25,0D,00,00,
4303560,00000010,false,Rx,9,3,B0,0B,15,00,00,00,00,00,
4303564,00000008,false,Rx,9,7,B0,01,25,0F,FF,07,00,00,
4303570,000000AA,false,Rx,9,2,AA,04,00,00,00,00,00,00,
4303574,00000040,false,Rx,9,6,B0,01,25,90,B3,8D,00,00,
4303576,00000040,false,Rx,9,7,B0,92,FF,FF,93,E2,00,00,
4303577,00000040,false,Rx,9,3,B0,14,00,00,00,00,00,00,
4303578,000002B4,false,Rx,9,3,03,00,0A,00,00,00,00,00,
4303580,00000010,false,Rx,9,7,B0,01,25,11,25,0D,00,00,
4303581,00000010,false,Rx,9,3,B0,0B,15,00,00,00,00,00,
4303584,00000008,false,Rx,9,7,B0,01,25,0F,FF,07,00,00,
4303593,000000AA,false,Rx,9,2,AA,04,00,00,00,00,00,00,
4303594,00000040,false,Rx,9,6,B0,01,25,90,B2,8E,00,00,
4303596,000003AC,false,Rx,9,3,03,00,1D,00,00,00,00,00,
4303599,00000010,false,Rx,9,7,B0,01,25,11,25,0E,00,00,
4303601,00000010,false,Rx,9,5,B0,0D,00,0B,15,00,00,00,
4303604,00000008,false,Rx,9,7,B0,01,25,0F,FF,07,00,00,
4303611,000000AA,false,Rx,9,2,AA,04,00,00,00,00,00,00,
4303614,00000040,false,Rx,9,6,B0,01,25,90,B2,90,00,00,
4303616,000003A4,false,Rx,9,3,03,00,2C,00,00,00,00,00,
4303619,00000010,false,Rx,9,7,B0,01,25,11,25,0D,00,00,
4303620,00000010,false,Rx,9,3,B0,0B,15,00,00,00,00,00,
4303624,00000008,false,Rx,9,7,B0,01,25,0F,FF,07,00,00,
4303631,000000AA,false,Rx,9,2,AA,04,00,00,00,00,00,00,
4303635,00000040,false,Rx,9,6,B0,01,25,90,B1,92,00,00,
4303639,00000010,false,Rx,9,7,B0,01,25,11,25,0D,00,00,
4303640,00000010,false,Rx,9,3,B0,0B,15,00,00,00,00,00,
4303644,00000008,false,Rx,9,7,B0,01,25,0C,B4,0F,FF,00,
4303645,00000008,false,Rx,9,7,B0,0E,00,07,00,0D,09,00,
4303653,000000AA,false,Rx,9,2,AA,04,00,00,00,00,00,00,
4303654,00000040,false,Rx,9,6,B0,01,25,90,B2,94,00,00,
4303657,0000029C,false,Rx,9,3,03,00,1A,00,00,00,00,00,
4303660,00000010,false,Rx,9,7,B0,01,25,11,25,0D,00,00,
4303660,00000010,false,Rx,9,3,B0,0B,15,00,00,00,00,00,
4303664,00000008,false,Rx,9,7,B0,01,25,0F,FF,07,00,00,
4303673,000000AA,false,Rx,9,2,AA,04,00,00,00,00,00,00,
4303675,00000040,false,Rx,9,6,B0,01,25,90,B4,95,00,00,
4303676,000002BC,false,Rx,9,3,03,00,0F,00,00,00,00,00,
4303679,00000010,false,Rx,9,7,B0,01,25,11,25,0D,00,00,
4303680,00000010,false,Rx,9,3,B0,0B,15,00,00,00,00,00,
4303684,00000008,false,Rx,9,7,B0,01,25,0F,FF,07,00,00,
4303693,000000AA,false,Rx,9,2,AA,04,00,00,00,00,00,00,
4303695,00000040,false,Rx,9,6,B0,01,25,90,B4,97,00,00,
4303696,000002B4,false,Rx,9,3,03,00,0A,00,00,00,00,00,
4303699,00000010,false,Rx,9,7,B0,01,25,11,25,0D,00,00,
4303700,00000010,false,Rx,9,3,B0,0B,15,00,00,00,00,00,
4303704,00000008,false,Rx,9,7,B0,01,25,0F,FF,07,00,00,
4303711,000000AA,false,Rx,9,2,AA,04,00,00,00,00,00,00,
4303715,00000040,false,Rx,9,6,B0,01,25,90,B3,99,00,00,
4303717,000003AC,false,Rx,9,3,03,00,1D,00,00,00,00,00,
4303719,00000010,false,Rx,9,7,B0,01,25,11,25,0D,00,00,
4303720,00000010,false,Rx,9,3,B0,0B,15,00,00,00,00,00,
4303724,00000008,false,Rx,9,7,B0,01,25,0F,FF,07,00,00,
4303731,000000AA,false,Rx,9,2,AA,04,00,00,00,00,00,00,
4303735,00000040,false,Rx,9,6,B0,01,25,90,B2,9A,00,00,
4303736,000003A4,false,Rx,9,3,03,00,2C,00,00,00,00,00,
4303739,00000010,false,Rx,9,7,B0,01,25,11,25,0D,00,00,
4303740,00000010,false,Rx,9,3,B0,0B,15,00,00,00,00,00,
4303744,00000008,false,Rx,9,7,B0,01,25,0F,FF,07,00,00,
4303751,000000AA,false,Rx,9,2,AA,04,00,00,00,00,00,00,
4303755,00000040,false,Rx,9,6,B0,01,25,90,B2,9B,00,00,
4303759,00000010,false,Rx,9,7,B0,01,25,11,25,0D,00,00,
4303760,00000010,false,Rx,9,3,B0,0B,15,00,00,00,00,00,
4303764,00000008,false,Rx,9,7,B0,01,25,0F,FF,07,00,00,
4303771,000000AA,false,Rx,9,2,AA,04,00,00,00,00,00,00,
4303774,00000040,false,Rx,9,6,B0,01,25,90,B2,9C,00,00,
4303775,00000040,false,Rx,9,7,B0,92,FF,FF,93,E2,00,00,
4303776,00000040,false,Rx,9,3,B0,14,00,00,00,00,00,00,
4303779,0000029C,false,Rx,9,3,03,00,1A,00,00,00,00,00,
4303780,00000010,false,Rx,9,7,B0,01,25,11,25,0D,00,00,
4303781,00000010,false,Rx,9,3,B0,0B,15,00,00,00,00,00,
4303784,00000008,false,Rx,9,7,B0,01,25,0F,FF,07,00,00,
4303791,000000AA,false,Rx,9,2,AA,04,00,00,00,00,00,00,
4303794,00000040,false,Rx,9,6,B0,01,25,90,B2,9E,00,00,
4303796,000002BC,false,Rx,9,3,03,00,0F,00,00,00,00,00,
4303799,00000010,false,Rx,9,7,B0,01,25,11,25,0E,00,00,
4303800,00000010,false,Rx,9,5,B0,0D,00,0B,15,00,00,00,
4303804,00000008,false,Rx,9,7,B0,01,25,0F,FF,07,00,00,
4303811,000000AA,false,Rx,9,2,AA,04,00,00,00,00,00,00,
4303815,00000040,false,Rx,9,6,B0,01,25,90,B1,9F,00,00,
4303816,000002B4,false,Rx,9,3,03,00,02,00,00,00,00,00,
4303819,00000010,false,Rx,9,7,B0,01,25,11,25,0D,00,00,
4303820,00000010,false,Rx,9,3,B0,0B,15,00,00,00,00,00,
4303824,00000008,false,Rx,9,7,B0,01,25,0F,FF,07,00,00,
4303832,000000AA,false,Rx,9,2,AA,04,00,00,00,00,00,00,
4303834,00000040,false,Rx,9,6,B0,01,25,90,B1,A0,00,00,
4303835,000003AC,false,Rx,9,3,03,00,1D,00,00,00,00,00,
4303839,00000010,false,Rx,9,7,B0,01,25,11,25,0D,00,00,
4303840,00000010,false,Rx,9,3,B0,0B,14,00,00,00,00,00,
4303844,00000008,false,Rx,9,7,B0,01,25,0C,B4,0F,FF,00,
4303845,00000008,false,Rx,9,7,B0,0E,00,07,00,0D,09,00,
4303851,000000AA,false,Rx,9,2,AA,04,00,00,00,00,00,00,
4303855,00000040,false,Rx,9,6,B0,01,25,90,B1,A0,00,00,
4303857,000003A4,false,Rx,9,3,03,00,2C,00,00,00,00,00,
4303859,00000010,false,Rx,9,7,B0,01,25,11,25,0D,00,00,
4303860,00000010,false,Rx,9,3,B0,0B,14,00,00,00,00,00,
4303864,00000008,false,Rx,9,7,B0,01,25,0F,FF,07,00,00,
4303872,000000AA,false,Rx,9,2,AA,04,00,00,00,00,00,00,
4303874,00000040,false,Rx,9,6,B0,01,25,90,B1,A2,00,00,
4303879,00000010,false,Rx,9,7,B0,01,25,11,25,0D,00,00,
4303880,00000010,false,Rx,9,3,B0,0B,14,00,00,00,00,00,
4303884,00000008,false,Rx,9,7,B0,01,25,0F,FF,07,00,00,
4303891,000000AA,false,Rx,9,2,AA,04,00,00,00,00,00,00,
4303895,00000040,false,Rx,9,6,B0,01,25,90,B1,A4,00,00,
4303898,0000029C,false,Rx,9,3,03,00,1A,00,00,00,00,00,
4303900,00000010,false,Rx,9,7,B0,01,25,11,25,0D,00,00,
4303900,00000010,false,Rx,9,3,B0,0B,14,00,00,00,00,00,
4303904,00000008,false,Rx,9,7,B0,01,25,0F,FF,07,00,00,
4303911,000000AA,false,Rx,9,2,AA,04,00,00,00,00,00,00,
4303915,00000040,false,Rx,9,6,B0,01,25,90,B1,A6,00,00,
4303916,000002BC,false,Rx,9,3,03,00,0F,00,00,00,00,00,
4303919,00000010,false,Rx,9,7,B0,01,25,11,25,0D,00,00,
4303920,00000010,false,Rx,9,3,B0,0B,14,00,00,00,00,00,
4303924,00000008,false,Rx,9,7,B0,01,25,0F,FF,07,00,00,
4303931,000000AA,false,Rx,9,2,AA,04,00,00,00,00,00,00,
4303934,00000040,false,Rx,9,6,B0,01,25,90,B0,A8,00,00,
4303936,000002B4,false,Rx,9,3,03,00,02,00,00,00,00,00,
4303939,00000010,false,Rx,9,7,B0,01,25,11,25,0D,00,00,
4303940,00000010,false,Rx,9,3,B0,0B,14,00,00,00,00,00,
4303944,00000008,false,Rx,9,7,B0,01,25,0F,FF,07,00,00,
4303954,000000AA,false,Rx,9,2,AA,04,00,00,00,00,00,00,
4303955,00000040,false,Rx,9,6,B0,01,25,90,B1,AA,00,00,
4303956,000003AC,false,Rx,9,3,03,00,1D,00,00,00,00,00,
4303959,00000010,false,Rx,9,7,B0,01,25,11,25,0D,00,00,
4303960,00000010,false,Rx,9,3,B0,0B,14,00,00,00,00,00,
4303964,00000008,false,Rx,9,7,B0,01,25,0F,FF,07,00,00,
4303971,000000AA,false,Rx,9,2,AA,04,00,00,00,00,00,00,
4303974,00000040,false,Rx,9,6,B0,01,25,90,B0,AB,00,00,
4303976,00000040,false,Rx,9,7,B0,92,FF,FF,93,E2,00,00,
4303977,00000040,false,Rx,9,3,B0,14,00,00,00,00,00,00,
4303978,000003A4,false,Rx,9,3,03,00,2C,00,00,00,00,00,
4303980,00000010,false,Rx,9,7,B0,01,25,11,25,0D,00,00,
4303981,00000010,false,Rx,9,3,B0,0B,14,00,00,00,00,00,
4303984,00000008,false,Rx,9,7,B0,01,25,0F,FF,07,00,00,
4303991,000000AA,false,Rx,9,2,AA,04,00,00,00,00,00,00,
4303995,00000040,false,Rx,9,6,B0,01,25,90,B1,AC,00,00,
4303999,00000010,false,Rx,9,7,B0,01,25,11,25,0E,00,00,
4304000,00000010,false,Rx,9,5,B0,0D,00,0B,14,00,00,00,
4304004,00000008,false,Rx,9,7,B0,01,25,0F,FF,07,00,00,
4304011,000000AA,false,Rx,9,2,AA,04,00,00,00,00,00,00,
4304015,00000040,false,Rx,9,6,B0,01,25,90,B2,AD,00,00,
4304018,0000029C,false,Rx,9,3,03,00,1A,00,00,00,00,00,
4304019,00000010,false,Rx,9,7,B0,01,25,11,25,0D,00,00,
4304021,00000010,false,Rx,9,3,B0,0B,14,00,00,00,00,00,
4304024,00000008,false,Rx,9,7,B0,01,25,0F,FF,07,00,00,
4304031,000000AA,false,Rx,9,2,AA,04,00,00,00,00,00,00,
4304035,00000040,false,Rx,9,6,B0,01,25,90,B2,AF,00,00,
4304036,000002BC,false,Rx,9,3,03,00,0F,00,00,00,00,00,
4304039,00000010,false,Rx,9,7,B0,01,25,11,25,0D,00,00,
4304040,00000010,false,Rx,9,3,B0,0B,14,00,00,00,00,00,
4304044,00000008,false,Rx,9,7,B0,01,25,0C,B4,0F,FF,00,
4304050,00000008,false,Rx,9,7,B0,0E,00,07,00,0D,09,00,
4304051,000000AA,false,Rx,9,2,AA,04,00,00,00,00,00,00,
4304054,00000040,false,Rx,9,6,B0,01,25,90,B3,B0,00,00,
4304056,000002B4,false,Rx,9,3,03,00,0A,00,00,00,00,00,
4304059,00000010,false,Rx,9,7,B0,01,25,11,25,0D,00,00,
4304060,00000010,false,Rx,9,3,B0,0B,15,00,00,00,00,00,
4304064,00000008,false,Rx,9,7,B0,01,25,0F,FF,07,00,00,
4304071,000000AA,false,Rx,9,2,AA,04,00,00,00,00,00,00,
4304075,00000040,false,Rx,9,6,B0,01,25,90,B3,B2,00,00,
4304076,000003AC,false,Rx,9,3,03,00,1D,00,00,00,00,00,
4304079,00000010,false,Rx,9,7,B0,01,25,11,25,0D,00,00,
4304080,00000010,false,Rx,9,3,B0,0B,15,00,00,00,00,00,
4304084,00000008,false,Rx,9,7,B0,01,25,0F,FF,07,00,00,
4304092,000000AA,false,Rx,9,2,AA,04,00,00,00,00,00,00,
4304095,00000040,false,Rx,9,6,B0,01,25,90,B4,B4,00,00,
4304096,000003A4,false,Rx,9,3,03,00,2C,00,00,00,00,00,
4304099,00000010,false,Rx,9,7,B0,01,25,11,25,0D,00,00,
4304100,00000010,false,Rx,9,3,B0,0B,15,00,00,00,00,00,
4304104,00000008,false,Rx,9,7,B0,01,25,0F,FF,07,00,00,
4304111,000000AA,false,Rx,9,2,AA,04,00,00,00,00,00,00,
4304115,00000040,false,Rx,9,6,B0,01,25,90,B4,B5,00,00,
4304119,00000010,false,Rx,9,7,B0,01,25,11,25,0D,00,00,
4304120,00000010,false,Rx,9,3,B0,0B,16,00,00,00,00,00,
4304124,00000008,false,Rx,9,7,B0,01,25,0F,FF,07,00,00,
4304131,000000AA,false,Rx,9,2,AA,04,00,00,00,00,00,00,
4304135,00000040,false,Rx,9,6,B0,01,25,90,B4,B7,00,00,
