Time Stamp,ID,Extended,Dir,Bus,LEN,D1,D2,D3,D4,D5,D6,D7,D8
837010,00001000,true,Rx,9,8,00,00,02,2F,00,00,34,29,
838415,00001001,true,Rx,9,8,00,00,00,88,00,00,00,00,
839802,00001002,true,Rx,9,8,00,00,00,00,00,00,00,00,
1837128,00001000,true,Rx,9,8,00,00,02,30,00,00,34,29,
1838543,00001001,true,Rx,9,8,00,00,00,88,00,00,00,00,
1839883,00001002,true,Rx,9,8,00,00,00,00,00,00,00,00,
2836852,00001000,true,Rx,9,8,00,00,02,31,00,00,34,29,
2838229,00001001,true,Rx,9,8,00,00,00,88,00,00,00,00,
2839586,00001002,true,Rx,9,8,00,00,00,00,00,00,00,00,
3836878,00001000,true,Rx,9,8,00,00,02,32,00,00,34,29,
3838277,00001001,true,Rx,9,8,00,00,00,88,00,00,00,00,
3839605,00001002,true,Rx,9,8,00,00,00,00,00,00,00,00,
4836983,00001000,true,Rx,9,8,00,00,02,33,00,00,34,29,
4838385,00001001,true,Rx,9,8,00,00,00,88,00,00,00,00,
4839824,00001002,true,Rx,9,8,00,00,00,00,00,00,00,00,
5837276,00001000,true,Rx,9,8,00,00,02,34,00,00,34,29,
5838693,00001001,true,Rx,9,8,00,00,00,88,00,00,00,00,
5840056,00001002,true,Rx,9,8,00,00,00,00,00,00,00,00,
6837370,00001000,true,Rx,9,8,00,00,02,35,00,00,34,29,
6838778,00001001,true,Rx,9,8,00,00,00,88,00,00,00,00,
6840132,00001002,true,Rx,9,8,00,00,00,00,00,00,00,00,
7837123,00001000,true,Rx,9,8,00,00,02,36,00,00,34,29,
7838512,00001001,true,Rx,9,8,00,00,00,88,00,00,00,00,
7839871,00001002,true,Rx,9,8,00,00,00,00,00,00,00,00,
8837511,00001000,true,Rx,9,8,00,00,02,37,00,00,34,29,
8838926,00001001,true,Rx,9,8,00,00,00,88,00,00,00,00,
8840290,00001002,true,Rx,9,8,00,00,00,00,00,00,00,00,
9359248,00000040,false,Rx,9,8,20,00,00,08,00,C0,00,00,
9364270,00000040,false,Rx,9,8,20,00,00,08,00,C0,00,00,
9421583,000000AA,false,Rx,9,2,AA,04,00,00,00,00,00,00,
9423754,000000AA,false,Rx,9,2,AA,04,00,00,00,00,00,00,
9425999,000000AA,false,Rx,9,2,AA,04,00,00,00,00,00,00,
9428355,000000AA,false,Rx,9,2,AA,04,00,00,00,00,00,00,
9431198,000000AA,false,Rx,9,2,AA,04,00,00,00,00,00,00,
9432864,000000AA,false,Rx,9,2,AA,04,00,00,00,00,00,00,
9437125,000000AA,false,Rx,9,2,AA,04,00,00,00,00,00,00,
9438738,00000040,false,Rx,9,8,23,00,00,08,FC,80,00,00,
9439393,00000008,false,Rx,9,1,A3,00,00,00,00,00,00,00,
9439945,00000010,false,Rx,9,1,A3,00,00,00,00,00,00,00,
9443825,00000040,false,Rx,9,8,23,00,00,08,FC,80,00,00,
9444599,00000008,false,Rx,9,1,A3,00,00,00,00,00,00,00,
9445042,00000010,false,Rx,9,1,A3,00,00,00,00,00,00,00,
9451318,000000AA,false,Rx,9,2,AA,04,00,00,00,00,00,00,
9452026,00000040,false,Rx,9,8,21,00,00,08,FC,80,00,00,
9452692,00000008,false,Rx,9,1,A1,00,00,00,00,00,00,00,
9453242,00000010,false,Rx,9,1,A1,00,00,00,00,00,00,00,
9457090,00000040,false,Rx,9,8,21,00,00,08,FC,80,00,00,
9457762,00000008,false,Rx,9,1,A1,00,00,00,00,00,00,00,
9458416,00000010,false,Rx,9,1,A1,00,00,00,00,00,00,00,
9462681,000000AA,false,Rx,9,2,AA,04,00,00,00,00,00,00,
9464290,00000040,false,Rx,9,8,24,00,00,08,FC,40,00,00,
9465055,00000008,false,Rx,9,1,A4,00,00,00,00,00,00,00,
9465607,00000010,false,Rx,9,1,A4,00,00,00,00,00,00,00,
9469441,00000040,false,Rx,9,8,24,00,00,08,FC,40,00,00,
9471338,00000008,false,Rx,9,1,A4,00,00,00,00,00,00,00,
9471357,00000010,false,Rx,9,1,A4,00,00,00,00,00,00,00,
9477679,000000AA,false,Rx,9,2,AA,04,00,00,00,00,00,00,
9481521,000000AA,false,Rx,9,2,AA,04,00,00,00,00,00,00,
9485250,000000AA,false,Rx,9,2,AA,04,00,00,00,00,00,00,
9489062,000000AA,false,Rx,9,2,AA,04,00,00,00,00,00,00,
9492860,000000AA,false,Rx,9,2,AA,04,00,00,00,00,00,00,
9496702,000000AA,false,Rx,9,2,AA,04,00,00,00,00,00,00,
9500437,000000AA,false,Rx,9,2,AA,04,00,00,00,00,00,00,
9504273,000000AA,false,Rx,9,2,AA,04,00,00,00,00,00,00,
9508003,000000AA,false,Rx,9,2,AA,04,00,00,00,00,00,00,
9511939,000000AA,false,Rx,9,2,AA,04,00,00,00,00,00,00,
9515593,000000AA,false,Rx,9,2,AA,04,00,00,00,00,00,00,
9519425,000000AA,false,Rx,9,2,AA,04,00,00,00,00,00,00,
9523263,000000AA,false,Rx,9,2,AA,04,00,00,00,00,00,00,
9527099,000000AA,false,Rx,9,2,AA,04,00,00,00,00,00,00,
9531550,000000AA,false,Rx,9,2,AA,04,00,00,00,00,00,00,
9534695,000000AA,false,Rx,9,2,AA,04,00,00,00,00,00,00,
9538538,000000AA,false,Rx,9,2,AA,04,00,00,00,00,00,00,
9542389,000000AA,false,Rx,9,2,AA,04,00,00,00,00,00,00,
9546178,000000AA,false,Rx,9,2,AA,04,00,00,00,00,00,00,
9549929,000000AA,false,Rx,9,2,AA,04,00,00,00,00,00,00,
9553873,000000AA,false,Rx,9,2,AA,04,00,00,00,00,00,00,
9557635,000000AA,false,Rx,9,2,AA,04,00,00,00,00,00,00,
9561471,000000AA,false,Rx,9,2,AA,04,00,00,00,00,00,00,
9565309,000000AA,false,Rx,9,2,AA,04,00,00,00,00,00,00,
9569150,000000AA,false,Rx,9,2,AA,04,00,00,00,00,00,00,
9572966,000000AA,false,Rx,9,2,AA,04,00,00,00,00,00,00,
9576776,000000AA,false,Rx,9,2,AA,04,00,00,00,00,00,00,
9580525,000000AA,false,Rx,9,2,AA,04,00,00,00,00,00,00,
9584361,000000AA,false,Rx,9,2,AA,04,00,00,00,00,00,00,
9588095,000000AA,false,Rx,9,2,AA,04,00,00,00,00,00,00,
9592158,000000AA,false,Rx,9,2,AA,04,00,00,00,00,00,00,
9596204,000000AA,false,Rx,9,2,AA,04,00,00,00,00,00,00,
9598563,000000AA,false,Rx,9,2,AA,04,00,00,00,00,00,00,
9602190,00000040,false,Rx,9,8,27,00,00,FD,00,80,00,00,
9607195,00000040,false,Rx,9,8,13,01,00,00,00,FF,00,00,
9622934,000000AA,false,Rx,9,2,AA,04,00,00,00,00,00,00,
9626953,0000029C,false,Rx,9,3,03,00,1A,00,00,00,00,00,
9632182,00000010,false,Rx,9,4,30,08,00,01,00,00,00,00,
9633076,00000040,false,Rx,9,3,B0,01,10,00,00,00,00,00,
9642492,000000AA,false,Rx,9,2,AA,04,00,00,00,00,00,00,
9645390,00000040,false,Rx,9,3,B0,01,10,00,00,00,00,00,
9649392,000002BC,false,Rx,9,3,03,00,0B,00,00,00,00,00,
9663212,000000AA,false,Rx,9,2,AA,04,00,00,00,00,00,00,
9665276,00000040,false,Rx,9,3,B0,01,10,00,00,00,00,00,
9667948,000002B4,false,Rx,9,3,03,00,0A,00,00,00,00,00,
9669563,00000040,false,Rx,9,5,30,02,00,01,08,00,00,00,
9672014,00000010,false,Rx,9,3,B0,01,0C,00,00,00,00,00,
9672703,00000010,false,Rx,9,4,30,01,00,01,00,00,00,00,
9673361,00000008,false,Rx,9,3,B0,01,02,00,00,00,00,00,
9682483,000000AA,false,Rx,9,2,AA,04,00,00,00,00,00,00,
9685278,00000040,false,Rx,9,3,B0,01,0C,00,00,00,00,00,
9687417,000003AC,false,Rx,9,3,03,00,1D,00,00,00,00,00,
9688393,00000010,false,Rx,9,3,B0,01,0C,00,00,00,00,00,
9694742,00000008,false,Rx,9,5,B0,01,02,0C,B6,00,00,00,
9695959,00000008,false,Rx,9,8,10,00,00,00,00,FF,00,00,
9702553,00000040,false,Rx,9,8,90,01,00,00,06,29,00,00,
9704268,000000AA,false,Rx,9,2,AA,04,00,00,00,00,00,00,
9705563,00000040,false,Rx,9,3,B0,01,0C,00,00,00,00,00,
9706960,000003A4,false,Rx,9,3,03,00,2C,00,00,00,00,00,
9708361,00000010,false,Rx,9,3,B0,01,0C,00,00,00,00,00,
9715030,00000008,false,Rx,9,3,B0,01,02,00,00,00,00,00,
9716748,00000008,false,Rx,9,8,10,00,00,01,06,29,00,00,
9718158,00000040,false,Rx,9,8,90,01,00,01,47,22,00,00,
9722525,000000AA,false,Rx,9,2,AA,04,00,00,00,00,00,00,
9725195,00000040,false,Rx,9,3,B0,01,0C,00,00,00,00,00,
9728290,00000010,false,Rx,9,3,B0,01,0C,00,00,00,00,00,
9735070,00000008,false,Rx,9,3,B0,01,02,00,00,00,00,00,
9736712,00000008,false,Rx,9,8,12,00,00,00,80,00,00,00,
9738269,00000008,false,Rx,9,4,30,02,00,11,00,00,00,00,
9739462,00000040,false,Rx,9,8,13,02,00,00,00,FF,00,00,
9740121,00000010,false,Rx,9,3,B0,11,0C,00,00,00,00,00,
9742471,000000AA,false,Rx,9,2,AA,04,00,00,00,00,00,00,
9745249,00000040,false,Rx,9,3,B0,01,0C,00,00,00,00,00,
9748195,0000029C,false,Rx,9,3,03,00,1A,00,00,00,00,00,
9749066,00000010,false,Rx,9,5,B0,01,0C,11,0C,00,00,00,
9755337,00000008,false,Rx,9,3,B0,01,10,00,00,00,00,00,
9763243,000000AA,false,Rx,9,2,AA,04,00,00,00,00,00,00,
9765189,00000040,false,Rx,9,3,B0,01,0C,00,00,00,00,00,
9766908,000002BC,false,Rx,9,3,03,00,0B,00,00,00,00,00,
9768732,00000010,false,Rx,9,5,B0,01,0C,11,0C,00,00,00,
9775096,00000008,false,Rx,9,3,B0,01,10,00,00,00,00,00,
9782570,000000AA,false,Rx,9,2,AA,04,00,00,00,00,00,00,
9785240,00000040,false,Rx,9,3,B0,01,0C,00,00,00,00,00,
9786959,000002B4,false,Rx,9,3,03,00,0A,00,00,00,00,00,
9789102,00000010,false,Rx,9,5,B0,01,0C,11,0C,00,00,00,
9790077,00000040,false,Rx,9,5,30,02,00,0E,03,00,00,00,
9792377,00000040,false,Rx,9,5,30,02,00,0D,03,00,00,00,
9792396,00000010,false,Rx,9,3,B0,0E,40,00,00,00,00,00,
9793197,00000010,false,Rx,9,3,B0,0D,00,00,00,00,00,00,
9795092,00000010,false,Rx,9,4,30,08,00,14,00,00,00,00,
9795973,00000040,false,Rx,9,5,30,01,00,0D,03,00,00,00,
9796740,00000008,false,Rx,9,3,B0,01,10,00,00,00,00,00,
9797506,00000010,false,Rx,9,4,30,08,00,13,00,00,00,00,
9798265,00000040,false,Rx,9,3,B0,14,00,00,00,00,00,00,
9799240,00000040,false,Rx,9,4,B0,93,E5,00,00,00,00,00,
9802547,000000AA,false,Rx,9,2,AA,04,00,00,00,00,00,00,
9805957,00000040,false,Rx,9,8,B0,01,0C,93,E5,00,14,00,
9807780,000003AC,false,Rx,9,3,03,00,1D,00,00,00,00,00,
9810346,00000010,false,Rx,9,7,B0,01,0C,11,0C,0D,00,00,
9815557,00000008,false,Rx,9,5,B0,01,10,0D,00,00,00,00,
9823234,000000AA,false,Rx,9,2,AA,04,00,00,00,00,00,00,
9825268,00000040,false,Rx,9,3,B0,01,0C,00,00,00,00,00,
9827940,000003A4,false,Rx,9,3,03,00,2C,00,00,00,00,00,
9829020,00000010,false,Rx,9,7,B0,01,0C,11,0C,0E,40,00,
9830101,00000010,false,Rx,9,3,B0,0D,00,00,00,00,00,00,
9837249,00001000,true,Rx,9,8,00,00,02,38,00,00,34,B8,
9838628,00001001,true,Rx,9,8,00,00,00,88,00,00,00,00,
9839950,00001002,true,Rx,9,8,00,00,00,00,00,00,00,00,
9835131,00000008,false,Rx,9,3,B0,01,10,00,00,00,00,00,
9842693,000000AA,false,Rx,9,2,AA,04,00,00,00,00,00,00,
9845293,00000040,false,Rx,9,3,B0,01,0C,00,00,00,00,00,
9848919,00000010,false,Rx,9,7,B0,01,0C,11,0C,0D,00,00,
9855122,00000008,false,Rx,9,3,B0,01,10,00,00,00,00,00,
9862622,000000AA,false,Rx,9,2,AA,04,00,00,00,00,00,00,
9865306,00000040,false,Rx,9,3,B0,01,0C,00,00,00,00,00,
9868357,0000029C,false,Rx,9,3,03,00,1A,00,00,00,00,00,
9869884,00000010,false,Rx,9,7,B0,01,0C,11,0C,0D,00,00,
9875495,00000008,false,Rx,9,7,B0,01,10,0C,B6,0D,00,00,
9883180,000000AA,false,Rx,9,2,AA,04,00,00,00,00,00,00,
9885215,00000040,false,Rx,9,3,B0,01,0C,00,00,00,00,00,
9886931,000002BC,false,Rx,9,3,03,00,0B,00,00,00,00,00,
9889390,00000010,false,Rx,9,7,B0,01,0C,11,0C,0D,00,00,
9895132,00000008,false,Rx,9,3,B0,01,10,00,00,00,00,00,
9903254,000000AA,false,Rx,9,2,AA,04,00,00,00,00,00,00,
9905300,00000040,false,Rx,9,3,B0,01,0C,00,00,00,00,00,
9907020,000002B4,false,Rx,9,3,03,00,0A,00,00,00,00,00,
9909371,00000010,false,Rx,9,7,B0,01,0C,11,0C,0D,00,00,
9915106,00000008,false,Rx,9,3,B0,01,10,00,00,00,00,00,
9922576,000000AA,false,Rx,9,2,AA,04,00,00,00,00,00,00,
9925350,00000040,false,Rx,9,3,B0,01,0C,00,00,00,00,00,
9927069,000003AC,false,Rx,9,3,03,00,1D,00,00,00,00,00,
9929317,00000010,false,Rx,9,7,B0,01,0C,11,0C,0D,00,00,
9935156,00000008,false,Rx,9,3,B0,01,10,00,00,00,00,00,
9943252,000000AA,false,Rx,9,2,AA,04,00,00,00,00,00,00,
9945290,00000040,false,Rx,9,3,B0,01,0C,00,00,00,00,00,
9947009,000003A4,false,Rx,9,3,03,00,2C,00,00,00,00,00,
9949361,00000010,false,Rx,9,7,B0,01,0C,11,0C,0D,00,00,
9955100,00000008,false,Rx,9,3,B0,01,10,00,00,00,00,00,
9962644,000000AA,false,Rx,9,2,AA,04,00,00,00,00,00,00,
9965320,00000040,false,Rx,9,3,B0,01,0C,00,00,00,00,00,
9968946,00000010,false,Rx,9,7,B0,01,0C,11,0C,0D,00,00,
9975124,00000008,false,Rx,9,3,B0,01,10,00,00,00,00,00,
9982625,000000AA,false,Rx,9,2,AA,04,00,00,00,00,00,00,
9985415,00000040,false,Rx,9,3,B0,01,0C,00,00,00,00,00,
9988476,0000029C,false,Rx,9,3,03,00,1A,00,00,00,00,00,
9989897,00000010,false,Rx,9,7,B0,01,0C,11,0C,0D,00,00,
9995124,00000008,false,Rx,9,3,B0,01,10,00,00,00,00,00,
9996233,00000040,false,Rx,9,8,13,02,00,00,00,FF,14,00,
10002615,000000AA,false,Rx,9,2,AA,04,00,00,00,00,00,00,
10005919,00000040,false,Rx,9,8,B0,01,0C,93,E5,00,14,00,
10007422,000002BC,false,Rx,9,3,03,00,0B,00,00,00,00,00,
10010411,00000010,false,Rx,9,7,B0,01,0C,11,0C,0D,00,00,
10015238,00000008,false,Rx,9,3,B0,01,10,00,00,00,00,00,
10022605,000000AA,false,Rx,9,2,AA,04,00,00,00,00,00,00,
10025382,00000040,false,Rx,9,3,B0,01,0C,00,00,00,00,00,
10027101,000002B4,false,Rx,9,3,03,00,0A,00,00,00,00,00,
10029348,00000010,false,Rx,9,7,B0,01,0C,11,0C,0E,40,00,
10030219,00000010,false,Rx,9,3,B0,0D,00,00,00,00,00,00,
10035103,00000008,false,Rx,9,3,B0,01,10,00,00,00,00,00,
10042576,000000AA,false,Rx,9,2,AA,04,00,00,00,00,00,00,
10045455,00000040,false,Rx,9,3,B0,01,0C,00,00,00,00,00,
10047174,000003AC,false,Rx,9,3,03,00,1D,00,00,00,00,00,
10049315,00000010,false,Rx,9,7,B0,01,0C,11,0C,0D,00,00,
10055172,00000008,false,Rx,9,3,B0,01,10,00,00,00,00,00,
10063348,000000AA,false,Rx,9,2,AA,04,00,00,00,00,00,00,
10065406,00000040,false,Rx,9,3,B0,01,0C,00,00,00,00,00,
10067126,000003A4,false,Rx,9,3,03,00,2C,00,00,00,00,00,
10069371,00000010,false,Rx,9,7,B0,01,0C,11,0C,0D,00,00,
10075425,00000008,false,Rx,9,7,B0,01,10,0C,B6,0D,00,00,
10082682,000000AA,false,Rx,9,2,AA,04,00,00,00,00,00,00,
10085350,00000040,false,Rx,9,3,B0,01,0C,00,00,00,00,00,
10088871,00000010,false,Rx,9,7,B0,01,0C,11,0C,0D,00,00,
10095229,00000008,false,Rx,9,3,B0,01,10,00,00,00,00,00,
10103344,000000AA,false,Rx,9,2,AA,04,00,00,00,00,00,00,
10105392,00000040,false,Rx,9,3,B0,01,0C,00,00,00,00,00,
10108532,0000029C,false,Rx,9,3,03,00,1A,00,00,00,00,00,
10109867,00000010,false,Rx,9,7,B0,01,0C,11,0C,0D,00,00,
10115145,00000008,false,Rx,9,3,B0,01,10,00,00,00,00,00,
10122620,000000AA,false,Rx,9,2,AA,04,00,00,00,00,00,00,
10125390,00000040,false,Rx,9,3,B0,01,0C,00,00,00,00,00,
10127109,000002BC,false,Rx,9,3,03,00,0B,00,00,00,00,00,
10129355,00000010,false,Rx,9,7,B0,01,0C,11,0C,0D,00,00,
10135082,00000008,false,Rx,9,3,B0,01,10,00,00,00,00,00,
10142663,000000AA,false,Rx,9,2,AA,04,00,00,00,00,00,00,
10145444,00000040,false,Rx,9,3,B0,01,0C,00,00,00,00,00,
10147162,000002B4,false,Rx,9,3,03,00,0A,00,00,00,00,00,
10149406,00000010,false,Rx,9,7,B0,01,0C,11,0C,0D,00,00,
10155090,00000008,false,Rx,9,3,B0,01,10,00,00,00,00,00,
10162721,000000AA,false,Rx,9,2,AA,04,00,00,00,00,00,00,
10165436,00000040,false,Rx,9,3,B0,01,0C,00,00,00,00,00,
10167160,000003AC,false,Rx,9,3,03,00,1D,00,00,00,00,00,
10169406,00000010,false,Rx,9,7,B0,01,0C,11,0C,0D,00,00,
10175197,00000008,false,Rx,9,3,B0,01,10,00,00,00,00,00,
10182753,000000AA,false,Rx,9,2,AA,04,00,00,00,00,00,00,
10185432,00000040,false,Rx,9,3,B0,01,0C,00,00,00,00,00,
10187153,000003A4,false,Rx,9,3,03,00,2C,00,00,00,00,00,
10189399,00000010,false,Rx,9,7,B0,01,0C,11,0C,0D,00,00,
10193728,00000010,false,Rx,9,4,30,08,00,2C,00,00,00,00,
10194632,00000040,false,Rx,9,3,B0,2C,B3,00,00,00,00,00,
10195393,00000008,false,Rx,9,3,B0,01,10,00,00,00,00,00,
10202730,000000AA,false,Rx,9,2,AA,04,00,00,00,00,00,00,
10206039,00000040,false,Rx,9,8,B0,01,0C,93,E5,00,14,00,
10207013,00000040,false,Rx,9,3,B0,2C,B3,00,00,00,00,00,
10210641,00000010,false,Rx,9,7,B0,01,0C,11,0C,0D,00,00,
10215191,00000008,false,Rx,9,3,B0,01,10,00,00,00,00,00,
10222693,000000AA,false,Rx,9,2,AA,04,00,00,00,00,00,00,
10225599,00000040,false,Rx,9,3,B0,01,0C,00,00,00,00,00,
10228542,0000029C,false,Rx,9,3,03,00,1A,00,00,00,00,00,
10229621,00000010,false,Rx,9,7,B0,01,0C,11,0C,0E,40,00,
10230829,00000010,false,Rx,9,3,B0,0D,00,00,00,00,00,00,
10235190,00000008,false,Rx,9,3,B0,01,10,00,00,00,00,00,
10242710,000000AA,false,Rx,9,2,AA,04,00,00,00,00,00,00,
10245493,00000040,false,Rx,9,3,B0,01,0C,00,00,00,00,00,
10247317,000002BC,false,Rx,9,3,03,00,0B,00,00,00,00,00,
10249352,00000010,false,Rx,9,7,B0,01,0C,11,0C,0D,00,00,
10255213,00000008,false,Rx,9,3,B0,01,10,00,00,00,00,00,
10262838,000000AA,false,Rx,9,2,AA,04,00,00,00,00,00,00,
10265582,00000040,false,Rx,9,3,B0,01,0C,00,00,00,00,00,
10267324,000002B4,false,Rx,9,3,03,00,0A,00,00,00,00,00,
10269369,00000010,false,Rx,9,7,B0,01,0C,11,0C,0D,00,00,
10275436,00000008,false,Rx,9,7,B0,01,10,0C,B6,0D,00,00,
10282798,000000AA,false,Rx,9,2,AA,04,00,00,00,00,00,00,
10284937,00000040,false,Rx,9,3,B0,01,0C,00,00,00,00,00,
10288987,00000010,false,Rx,9,7,B0,01,0C,11,0C,0D,00,00,
10291021,000003AC,false,Rx,9,3,03,00,1D,00,00,00,00,00,
10295215,00000008,false,Rx,9,3,B0,01,10,00,00,00,00,00,
10302820,000000AA,false,Rx,9,2,AA,04,00,00,00,00,00,00,
10304871,00000040,false,Rx,9,3,B0,01,0C,00,00,00,00,00,
10308919,00000010,false,Rx,9,7,B0,01,0C,11,0C,0D,00,00,
10313783,000003A4,false,Rx,9,3,03,00,2C,00,00,00,00,00,
10315120,00000008,false,Rx,9,3,B0,01,10,00,00,00,00,00,
10322781,000000AA,false,Rx,9,2,AA,04,00,00,00,00,00,00,
10324921,00000040,false,Rx,9,3,B0,01,0C,00,00,00,00,00,
10328973,00000010,false,Rx,9,7,B0,01,0C,11,0C,0D,00,00,
10335177,00000008,false,Rx,9,3,B0,01,10,00,00,00,00,00,
10342789,000000AA,false,Rx,9,2,AA,04,00,00,00,00,00,00,
10344939,00000040,false,Rx,9,3,B0,01,0C,00,00,00,00,00,
10347888,0000029C,false,Rx,9,3,03,00,1A,00,00,00,00,00,
10349522,00000010,false,Rx,9,7,B0,01,0C,11,0C,0D,00,00,
10355109,00000008,false,Rx,9,3,B0,01,10,00,00,00,00,00,
10362790,000000AA,false,Rx,9,2,AA,04,00,00,00,00,00,00,
10364948,00000040,false,Rx,9,3,B0,01,0C,00,00,00,00,00,
10368958,00000010,false,Rx,9,7,B0,01,0C,11,0C,0D,00,00,
10371075,000002BC,false,Rx,9,3,03,00,0B,00,00,00,00,00,
10375130,00000008,false,Rx,9,3,B0,01,10,00,00,00,00,00,
10382817,000000AA,false,Rx,9,2,AA,04,00,00,00,00,00,00,
10384972,00000040,false,Rx,9,3,B0,01,0C,00,00,00,00,00,
10389020,00000010,false,Rx,9,7,B0,01,0C,11,0C,0D,00,00,
10393980,000002B4,false,Rx,9,3,03,00,0A,00,00,00,00,00,
10395134,00000008,false,Rx,9,3,B0,01,10,00,00,00,00,00,
10402818,000000AA,false,Rx,9,2,AA,04,00,00,00,00,00,00,
10405511,00000040,false,Rx,9,8,B0,01,0C,93,E5,00,14,00,
10406482,00000040,false,Rx,9,3,B0,2C,B3,00,00,00,00,00,
10409897,00000010,false,Rx,9,7,B0,01,0C,11,0C,0D,00,00,
10410554,000003AC,false,Rx,9,3,03,00,1D,00,00,00,00,00,
10415113,00000008,false,Rx,9,3,B0,01,10,00,00,00,00,00,
10422790,000000AA,false,Rx,9,2,AA,04,00,00,00,00,00,00,
10424958,00000040,false,Rx,9,3,B0,01,0C,00,00,00,00,00,
10426783,000003A4,false,Rx,9,3,03,00,2C,00,00,00,00,00,
10429451,00000010,false,Rx,9,7,B0,01,0C,11,0C,0E,40,00,
10430217,00000010,false,Rx,9,3,B0,0D,00,00,00,00,00,00,
10435125,00000008,false,Rx,9,3,B0,01,10,00,00,00,00,00,
10442790,000000AA,false,Rx,9,2,AA,04,00,00,00,00,00,00,
10445040,00000040,false,Rx,9,3,B0,01,0C,00,00,00,00,00,
10448981,00000010,false,Rx,9,7,B0,01,0C,11,0C,0D,00,00,
10455168,00000008,false,Rx,9,3,B0,01,10,00,00,00,00,00,
10462857,000000AA,false,Rx,9,2,AA,04,00,00,00,00,00,00,
10465020,00000040,false,Rx,9,3,B0,01,0C,00,00,00,00,00,
10468046,0000029C,false,Rx,9,3,03,00,1A,00,00,00,00,00,
10469578,00000010,false,Rx,9,7,B0,01,0C,11,0C,0D,00,00,
10475487,00000008,false,Rx,9,7,B0,01,10,0C,B6,0D,00,00,
10482835,000000AA,false,Rx,9,2,AA,04,00,00,00,00,00,00,
10485300,00000040,false,Rx,9,3,B0,01,0C,00,00,00,00,00,
10489013,00000010,false,Rx,9,7,B0,01,0C,11,0C,0D,00,00,
10491692,000002BC,false,Rx,9,3,03,00,0B,00,00,00,00,00,
10495239,00000008,false,Rx,9,3,B0,01,10,00,00,00,00,00,
10503560,000000AA,false,Rx,9,2,AA,04,00,00,00,00,00,00,
10505613,00000040,false,Rx,9,3,B0,01,0C,00,00,00,00,00,
10507327,000002B4,false,Rx,9,3,03,00,0A,00,00,00,00,00,
10509466,00000010,false,Rx,9,7,B0,01,0C,11,0C,0D,00,00,
10515097,00000008,false,Rx,9,3,B0,01,10,00,00,00,00,00,
10522780,000000AA,false,Rx,9,2,AA,04,00,00,00,00,00,00,
10525666,00000040,false,Rx,9,3,B0,01,0C,00,00,00,00,00,
10527379,000003AC,false,Rx,9,3,03,00,1D,00,00,00,00,00,
10529414,00000010,false,Rx,9,7,B0,01,0C,11,0C,0D,00,00,
10535145,00000008,false,Rx,9,3,B0,01,10,00,00,00,00,00,
10543524,000000AA,false,Rx,9,2,AA,04,00,00,00,00,00,00,
10545678,00000040,false,Rx,9,3,B0,01,0C,00,00,00,00,00,
10547390,000003A4,false,Rx,9,3,03,00,2C,00,00,00,00,00,
10549425,00000010,false,Rx,9,7,B0,01,0C,11,0C,0D,00,00,
10555165,00000008,false,Rx,9,3,B0,01,10,00,00,00,00,00,
10562846,000000AA,false,Rx,9,2,AA,04,00,00,00,00,00,00,
10565625,00000040,false,Rx,9,3,B0,01,0C,00,00,00,00,00,
10569037,00000010,false,Rx,9,7,B0,01,0C,11,0C,0D,00,00,
10575182,00000008,false,Rx,9,3,B0,01,10,00,00,00,00,00,
10582912,000000AA,false,Rx,9,2,AA,04,00,00,00,00,00,00,
10585813,00000040,false,Rx,9,3,B0,01,0C,00,00,00,00,00,
10588864,0000029C,false,Rx,9,3,03,00,1A,00,00,00,00,00,
10589945,00000010,false,Rx,9,7,B0,01,0C,11,0C,0D,00,00,
10594497,00000010,false,Rx,9,4,30,08,00,2D,00,00,00,00,
10595133,00000008,false,Rx,9,3,B0,01,10,00,00,00,00,00,
10595896,00000010,false,Rx,9,4,31,08,00,2C,00,00,00,00,
10596660,00000040,false,Rx,9,3,B0,2D,A6,00,00,00,00,00,
10602931,000000AA,false,Rx,9,2,AA,04,00,00,00,00,00,00,
10606240,00000040,false,Rx,9,8,B0,01,0C,93,E5,00,14,00,
10607219,00000040,false,Rx,9,3,B0,2D,A6,00,00,00,00,00,
10608726,000002BC,false,Rx,9,3,03,00,0B,00,00,00,00,00,
10610816,00000010,false,Rx,9,7,B0,01,0C,11,0C,0D,00,00,
10615138,00000008,false,Rx,9,3,B0,01,10,00,00,00,00,00,
10622906,000000AA,false,Rx,9,2,AA,04,00,00,00,00,00,00,
10625689,00000040,false,Rx,9,3,B0,01,0C,00,00,00,00,00,
10627516,000002B4,false,Rx,9,3,03,00,0A,00,00,00,00,00,
10629020,00000010,false,Rx,9,7,B0,01,0C,11,0C,0E,40,00,
10630206,00000010,false,Rx,9,3,B0,0D,00,00,00,00,00,00,
10635189,00000008,false,Rx,9,3,B0,01,10,00,00,00,00,00,
10642962,000000AA,false,Rx,9,2,AA,04,00,00,00,00,00,00,
10645753,00000040,false,Rx,9,3,B0,01,0C,00,00,00,00,00,
10647466,000003AC,false,Rx,9,3,03,00,1D,00,00,00,00,00,
10649396,00000010,false,Rx,9,7,B0,01,0C,11,0C,0D,00,00,
10655127,00000008,false,Rx,9,3,B0,01,10,00,00,00,00,00,
10662914,000000AA,false,Rx,9,2,AA,04,00,00,00,00,00,00,
10665691,00000040,false,Rx,9,3,B0,01,0C,00,00,00,00,00,
10667830,000003A4,false,Rx,9,3,03,00,2C,00,00,00,00,00,
10669018,00000010,false,Rx,9,7,B0,01,0C,11,0C,0D,00,00,
10675444,00000008,false,Rx,9,7,B0,01,10,0C,B6,0D,00,00,
10683565,000000AA,false,Rx,9,2,AA,04,00,00,00,00,00,00,
10685721,00000040,false,Rx,9,3,B0,01,0C,00,00,00,00,00,
10689029,00000010,false,Rx,9,7,B0,01,0C,11,0C,0D,00,00,
10695184,00000008,false,Rx,9,3,B0,01,10,00,00,00,00,00,
10703605,000000AA,false,Rx,9,2,AA,04,00,00,00,00,00,00,
10705641,00000040,false,Rx,9,3,B0,01,0C,00,00,00,00,00,
10708693,0000029C,false,Rx,9,3,03,00,1A,00,00,00,00,00,
10709774,00000010,false,Rx,9,7,B0,01,0C,11,0C,0D,00,00,
10715204,00000008,false,Rx,9,3,B0,01,10,00,00,00,00,00,
10722935,000000AA,false,Rx,9,2,AA,04,00,00,00,00,00,00,
10725729,00000040,false,Rx,9,3,B0,01,0C,00,00,00,00,00,
10727444,000002BC,false,Rx,9,3,03,00,0B,00,00,00,00,00,
10729478,00000010,false,Rx,9,7,B0,01,0C,11,0C,0D,00,00,
10735132,00000008,false,Rx,9,3,B0,01,10,00,00,00,00,00,
10742965,000000AA,false,Rx,9,2,AA,04,00,00,00,00,00,00,
10745858,00000040,false,Rx,9,3,B0,01,0C,00,00,00,00,00,
10747682,000002B4,false,Rx,9,3,03,00,0A,00,00,00,00,00,
10749611,00000010,false,Rx,9,7,B0,01,0C,11,0C,0D,00,00,
10755109,00000008,false,Rx,9,3,B0,01,10,00,00,00,00,00,
10762948,000000AA,false,Rx,9,2,AA,04,00,00,00,00,00,00,
10765950,00000040,false,Rx,9,3,B0,01,0C,00,00,00,00,00,
10767669,000003AC,false,Rx,9,3,03,00,1D,00,00,00,00,00,
10769599,00000010,false,Rx,9,7,B0,01,0C,11,0C,0D,00,00,
10775164,00000008,false,Rx,9,3,B0,01,10,00,00,00,00,00,
10783013,000000AA,false,Rx,9,2,AA,04,00,00,00,00,00,00,
10785794,00000040,false,Rx,9,3,B0,01,0C,00,00,00,00,00,
10787510,000003A4,false,Rx,9,3,03,00,2C,00,00,00,00,00,
10789547,00000010,false,Rx,9,7,B0,01,0C,11,0C,0D,00,00,
10795173,00000008,false,Rx,9,3,B0,01,10,00,00,00,00,00,
10803003,000000AA,false,Rx,9,2,AA,04,00,00,00,00,00,00,
10806320,00000040,false,Rx,9,8,B0,01,0C,93,E5,00,14,00,
10807298,00000040,false,Rx,9,3,B0,2D,A6,00,00,00,00,00,
10810711,00000010,false,Rx,9,7,B0,01,0C,11,0C,0D,00,00,
10815251,00000008,false,Rx,9,3,B0,01,10,00,00,00,00,00,
10822954,000000AA,false,Rx,9,2,AA,04,00,00,00,00,00,00,
10825837,00000040,false,Rx,9,3,B0,01,0C,00,00,00,00,00,
10828889,0000029C,false,Rx,9,3,03,00,1A,00,00,00,00,00,
10829863,00000010,false,Rx,9,7,B0,01,0C,11,0C,0E,40,00,
10831072,00000010,false,Rx,9,3,B0,0D,00,00,00,00,00,00,
10837285,00001000,true,Rx,9,8,00,00,02,39,00,00,35,DC,
10838593,00001001,true,Rx,9,8,00,00,00,88,00,00,00,00,
10839946,00001002,true,Rx,9,8,00,00,00,00,00,00,00,00,
10835311,00000008,false,Rx,9,3,B0,01,10,00,00,00,00,00,
10843782,000000AA,false,Rx,9,2,AA,04,00,00,00,00,00,00,
10845851,00000040,false,Rx,9,3,B0,01,0C,00,00,00,00,00,
10847586,000002BC,false,Rx,9,3,03,00,0B,00,00,00,00,00,
10849543,00000010,false,Rx,9,7,B0,01,0C,11,0C,0D,00,00,
10855375,00000008,false,Rx,9,3,B0,01,10,00,00,00,00,00,
10863644,000000AA,false,Rx,9,2,AA,04,00,00,00,00,00,00,
10865798,00000040,false,Rx,9,3,B0,01,0C,00,00,00,00,00,
10867516,000002B4,false,Rx,9,3,03,00,0A,00,00,00,00,00,
10869552,00000010,false,Rx,9,7,B0,01,0C,11,0C,0D,00,00,
10875496,00000008,false,Rx,9,7,B0,01,10,0C,B6,0D,09,00,
10883687,000000AA,false,Rx,9,2,AA,04,00,00,00,00,00,00,
10885732,00000040,false,Rx,9,3,B0,01,0C,00,00,00,00,00,
10887871,000003AC,false,Rx,9,3,03,00,1D,00,00,00,00,00,
10889058,00000010,false,Rx,9,7,B0,01,0C,11,0C,0D,00,00,
10895542,00000008,false,Rx,9,3,B0,01,10,00,00,00,00,00,
10903037,000000AA,false,Rx,9,2,AA,04,00,00,00,00,00,00,
10905769,00000040,false,Rx,9,3,B0,01,0C,00,00,00,00,00,
10907496,000003A4,false,Rx,9,3,03,00,2C,00,00,00,00,00,
10909535,00000010,false,Rx,9,7,B0,01,0C,11,0C,0D,00,00,
10915563,00000008,false,Rx,9,3,B0,01,10,00,00,00,00,00,
10923066,000000AA,false,Rx,9,2,AA,04,00,00,00,00,00,00,
10925845,00000040,false,Rx,9,3,B0,01,0C,00,00,00,00,00,
10929472,00000010,false,Rx,9,7,B0,01,0C,11,0C,0D,00,00,
10935586,00000008,false,Rx,9,3,B0,01,10,00,00,00,00,00,
10943047,000000AA,false,Rx,9,2,AA,04,00,00,00,00,00,00,
10945843,00000040,false,Rx,9,3,B0,01,0C,00,00,00,00,00,
10948893,0000029C,false,Rx,9,3,03,00,1A,00,00,00,00,00,
10949868,00000010,false,Rx,9,7,B0,01,0C,11,0C,0D,00,00,
10955719,00000008,false,Rx,9,3,B0,01,10,00,00,00,00,00,
10962984,000000AA,false,Rx,9,2,AA,04,00,00,00,00,00,00,
10965877,00000040,false,Rx,9,3,B0,01,0C,00,00,00,00,00,
10967598,000002BC,false,Rx,9,3,03,00,0B,00,00,00,00,00,
10969525,00000010,false,Rx,9,7,B0,01,0C,11,0C,0D,00,00,
10975780,00000008,false,Rx,9,3,B0,01,10,00,00,00,00,00,
10983072,000000AA,false,Rx,9,2,AA,04,00,00,00,00,00,00,
10985921,00000040,false,Rx,9,3,B0,01,0C,00,00,00,00,00,
10987620,000002B4,false,Rx,9,3,03,00,0A,00,00,00,00,00,
10989556,00000010,false,Rx,9,7,B0,01,0C,11,0C,0D,00,00,
10993711,00000010,false,Rx,9,4,30,08,00,2E,00,00,00,00,
10995833,00000010,false,Rx,9,4,31,08,00,2D,00,00,00,00,
10995852,00000008,false,Rx,9,3,B0,01,10,00,00,00,00,00,
10996030,00000040,false,Rx,9,3,B0,2E,CC,00,00,00,00,00,
11003058,000000AA,false,Rx,9,2,AA,04,00,00,00,00,00,00,
11006468,00000040,false,Rx,9,8,B0,01,0C,93,E5,00,14,00,
11007339,00000040,false,Rx,9,3,B0,2E,CC,00,00,00,00,00,
11008846,000003AC,false,Rx,9,3,03,00,1D,00,00,00,00,00,
11010881,00000010,false,Rx,9,7,B0,01,0C,11,0C,0D,00,00,
11015776,00000008,false,Rx,9,3,B0,01,10,00,00,00,00,00,
11023121,000000AA,false,Rx,9,2,AA,04,00,00,00,00,00,00,
11026018,00000040,false,Rx,9,3,B0,01,0C,00,00,00,00,00,
11028689,000003A4,false,Rx,9,3,03,00,2C,00,00,00,00,00,
11029771,00000010,false,Rx,9,7,B0,01,0C,11,0C,0E,40,00,
11030641,00000010,false,Rx,9,3,B0,0D,00,00,00,00,00,00,
11035902,00000008,false,Rx,9,3,B0,01,10,00,00,00,00,00,
11043104,000000AA,false,Rx,9,2,AA,04,00,00,00,00,00,00,
11045885,00000040,false,Rx,9,3,B0,01,0C,00,00,00,00,00,
11049620,00000010,false,Rx,9,7,B0,01,0C,11,0C,0D,00,00,
11055880,00000008,false,Rx,9,3,B0,01,10,00,00,00,00,00,
11063119,000000AA,false,Rx,9,2,AA,04,00,00,00,00,00,00,
11065965,00000040,false,Rx,9,3,B0,01,0C,00,00,00,00,00,
11068909,0000029C,false,Rx,9,3,03,00,1A,00,00,00,00,00,
11069988,00000010,false,Rx,9,7,B0,01,0C,11,0C,0D,00,00,
11076054,00000008,false,Rx,9,7,B0,01,10,0C,B6,0D,09,00,
11083047,000000AA,false,Rx,9,2,AA,04,00,00,00,00,00,00,
11085826,00000040,false,Rx,9,3,B0,01,0C,00,00,00,00,00,
11087580,000002BC,false,Rx,9,3,03,00,0B,00,00,00,00,00,
11089615,00000010,false,Rx,9,7,B0,01,0C,11,0C,0D,00,00,
11096088,00000008,false,Rx,9,3,B0,01,10,00,00,00,00,00,
11103114,000000AA,false,Rx,9,2,AA,04,00,00,00,00,00,00,
11105904,00000040,false,Rx,9,3,B0,01,0C,00,00,00,00,00,
11107621,000002B4,false,Rx,9,3,03,00,0A,00,00,00,00,00,
11109749,00000010,false,Rx,9,7,B0,01,0C,11,0C,0D,00,00,
11116138,00000008,false,Rx,9,3,B0,01,10,00,00,00,00,00,
11123102,000000AA,false,Rx,9,2,AA,04,00,00,00,00,00,00,
11125883,00000040,false,Rx,9,3,B0,01,0C,00,00,00,00,00,
11127705,000003AC,false,Rx,9,3,03,00,1D,00,00,00,00,00,
11129635,00000010,false,Rx,9,7,B0,01,0C,11,0C,0D,00,00,
11136164,00000008,false,Rx,9,3,B0,01,10,00,00,00,00,00,
11143086,000000AA,false,Rx,9,2,AA,04,00,00,00,00,00,00,
11145876,00000040,false,Rx,9,3,B0,01,0C,00,00,00,00,00,
11147699,000003A4,false,Rx,9,3,03,00,2C,00,00,00,00,00,
11149630,00000010,false,Rx,9,7,B0,01,0C,11,0C,0D,00,00,
11156271,00000008,false,Rx,9,3,B0,01,10,00,00,00,00,00,
11163780,000000AA,false,Rx,9,2,AA,04,00,00,00,00,00,00,
11165925,00000040,false,Rx,9,3,B0,01,0C,00,00,00,00,00,
11169550,00000010,false,Rx,9,7,B0,01,0C,11,0C,0D,00,00,
11176313,00000008,false,Rx,9,3,B0,01,10,00,00,00,00,00,
11183200,000000AA,false,Rx,9,2,AA,04,00,00,00,00,00,00,
11185963,00000040,false,Rx,9,3,B0,01,0C,00,00,00,00,00,
11189058,0000029C,false,Rx,9,3,03,00,1A,00,00,00,00,00,
11190036,00000010,false,Rx,9,7,B0,01,0C,11,0C,0D,00,00,
11196399,00000008,false,Rx,9,3,B0,01,10,00,00,00,00,00,
11203808,000000AA,false,Rx,9,2,AA,04,00,00,00,00,00,00,
11206482,00000040,false,Rx,9,8,B0,01,0C,93,E5,00,14,00,
11207458,00000040,false,Rx,9,3,B0,2E,CC,00,00,00,00,00,
11208964,000002BC,false,Rx,9,3,03,00,0B,00,00,00,00,00,
11210895,00000010,false,Rx,9,7,B0,01,0C,11,0C,0D,00,00,
11216498,00000008,false,Rx,9,3,B0,01,10,00,00,00,00,00,
11223782,000000AA,false,Rx,9,2,AA,04,00,00,00,00,00,00,
11225942,00000040,false,Rx,9,3,B0,01,0C,00,00,00,00,00,
11227765,000002B4,false,Rx,9,3,03,00,0A,00,00,00,00,00,
11229693,00000010,false,Rx,9,7,B0,01,0C,11,0C,0E,40,00,
11230563,00000010,false,Rx,9,3,B0,0D,00,00,00,00,00,00,
11236592,00000008,false,Rx,9,3,B0,01,10,00,00,00,00,00,
11243211,000000AA,false,Rx,9,2,AA,04,00,00,00,00,00,00,
11245988,00000040,false,Rx,9,3,B0,01,0C,00,00,00,00,00,
11247705,000003AC,false,Rx,9,3,03,00,1D,00,00,00,00,00,
11249742,00000010,false,Rx,9,7,B0,01,0C,11,0C,0D,00,00,
11256611,00000008,false,Rx,9,3,B0,01,10,00,00,00,00,00,
11263139,000000AA,false,Rx,9,2,AA,04,00,00,00,00,00,00,
11266041,00000040,false,Rx,9,3,B0,01,0C,00,00,00,00,00,
11267758,000003A4,false,Rx,9,3,03,00,2C,00,00,00,00,00,
11269686,00000010,false,Rx,9,7,B0,01,0C,11,0C,0D,00,00,
11276673,00000008,false,Rx,9,7,B0,01,10,0C,B6,0D,09,00,
11283209,000000AA,false,Rx,9,2,AA,04,00,00,00,00,00,00,
11285997,00000040,false,Rx,9,3,B0,01,0C,00,00,00,00,00,
11289564,00000010,false,Rx,9,7,B0,01,0C,11,0C,0D,00,00,
11296778,00000008,false,Rx,9,3,B0,01,10,00,00,00,00,00,
11303238,000000AA,false,Rx,9,2,AA,04,00,00,00,00,00,00,
11305919,00000040,false,Rx,9,3,B0,01,0C,00,00,00,00,00,
11308969,0000029C,false,Rx,9,3,03,00,1A,00,00,00,00,00,
11310052,00000010,false,Rx,9,7,B0,01,0C,11,0C,0D,00,00,
11316736,00000008,false,Rx,9,3,B0,01,10,00,00,00,00,00,
11323171,000000AA,false,Rx,9,2,AA,04,00,00,00,00,00,00,
11326166,00000040,false,Rx,9,3,B0,01,0C,00,00,00,00,00,
11327883,000002BC,false,Rx,9,3,03,00,0F,00,00,00,00,00,
11329810,00000010,false,Rx,9,7,B0,01,0C,11,0C,0D,00,00,
11335135,00000008,false,Rx,9,3,B0,01,10,00,00,00,00,00,
11343884,000000AA,false,Rx,9,2,AA,04,00,00,00,00,00,00,
11345939,00000040,false,Rx,9,3,B0,01,0C,00,00,00,00,00,
11347765,000002B4,false,Rx,9,3,03,00,0A,00,00,00,00,00,
11349693,00000010,false,Rx,9,7,B0,01,0C,11,0C,0D,00,00,
11355121,00000008,false,Rx,9,3,B0,01,10,00,00,00,00,00,
11363289,000000AA,false,Rx,9,2,AA,04,00,00,00,00,00,00,
11365976,00000040,false,Rx,9,3,B0,01,0C,00,00,00,00,00,
11367693,000003AC,false,Rx,9,3,03,00,1D,00,00,00,00,00,
11369726,00000010,false,Rx,9,7,B0,01,0C,11,0C,0D,00,00,
11375194,00000008,false,Rx,9,3,B0,01,10,00,00,00,00,00,
11383285,000000AA,false,Rx,9,2,AA,04,00,00,00,00,00,00,
11386067,00000040,false,Rx,9,3,B0,01,0C,00,00,00,00,00,
11387783,000003A4,false,Rx,9,3,03,00,2C,00,00,00,00,00,
11389867,00000010,false,Rx,9,7,B0,01,0C,11,0C,0D,00,00,
11393898,00000010,false,Rx,9,4,30,08,00,2F,00,00,00,00,
11394704,00000010,false,Rx,9,4,31,08,00,2E,00,00,00,00,
11397211,00000008,false,Rx,9,3,B0,01,10,00,00,00,00,00,
11397230,00000040,false,Rx,9,3,B0,2F,66,00,00,00,00,00,
11403229,000000AA,false,Rx,9,2,AA,04,00,00,00,00,00,00,
11406648,00000040,false,Rx,9,8,B0,01,0C,93,E5,00,14,00,
11407624,00000040,false,Rx,9,3,B0,2F,66,00,00,00,00,00,
11410825,00000010,false,Rx,9,7,B0,01,0C,11,0C,0D,00,00,
11415195,00000008,false,Rx,9,3,B0,01,10,00,00,00,00,00,
11423296,000000AA,false,Rx,9,2,AA,04,00,00,00,00,00,00,
11426104,00000040,false,Rx,9,3,B0,01,0C,00,00,00,00,00,
11429792,00000010,false,Rx,9,7,B0,01,0C,11,0C,0E,40,00,
11430555,0000029C,false,Rx,9,3,03,00,1A,00,00,00,00,00,
11431209,00000010,false,Rx,9,3,B0,0D,00,00,00,00,00,00,
11435173,00000008,false,Rx,9,3,B0,01,10,00,00,00,00,00,
11443232,000000AA,false,Rx,9,2,AA,04,00,00,00,00,00,00,
11446250,00000040,false,Rx,9,3,B0,01,0C,00,00,00,00,00,
11447968,000002BC,false,Rx,9,3,03,00,0F,00,00,00,00,00,
11449897,00000010,false,Rx,9,7,B0,01,0C,11,0C,0D,00,00,
11455112,00000008,false,Rx,9,3,B0,01,10,00,00,00,00,00,
11463297,000000AA,false,Rx,9,2,AA,04,00,00,00,00,00,00,
11466090,00000040,false,Rx,9,3,B0,01,0C,00,00,00,00,00,
11467808,000002B4,false,Rx,9,3,03,00,0A,00,00,00,00,00,
11469843,00000010,false,Rx,9,7,B0,01,0C,11,0C,0D,00,00,
11475482,00000008,false,Rx,9,7,B0,01,10,0C,B6,0D,09,00,
11483335,000000AA,false,Rx,9,2,AA,04,00,00,00,00,00,00,
11486037,00000040,false,Rx,9,3,B0,01,0C,00,00,00,00,00,
11487783,000003AC,false,Rx,9,3,03,00,1D,00,00,00,00,00,
11489721,00000010,false,Rx,9,7,B0,01,0C,11,0C,0D,00,00,
11495202,00000008,false,Rx,9,3,B0,01,10,00,00,00,00,00,
11503354,000000AA,false,Rx,9,2,AA,04,00,00,00,00,00,00,
11506048,00000040,false,Rx,9,3,B0,01,0C,00,00,00,00,00,
11507765,000003A4,false,Rx,9,3,03,00,2C,00,00,00,00,00,
11509798,00000010,false,Rx,9,7,B0,01,0C,11,0C,0D,00,00,
11515121,00000008,false,Rx,9,3,B0,01,10,00,00,00,00,00,
11523937,000000AA,false,Rx,9,2,AA,04,00,00,00,00,00,00,
11526111,00000040,false,Rx,9,3,B0,01,0C,00,00,00,00,00,
11529738,00000010,false,Rx,9,7,B0,01,0C,11,0C,0D,00,00,
11535166,00000008,false,Rx,9,3,B0,01,10,00,00,00,00,00,
11543356,000000AA,false,Rx,9,2,AA,04,00,00,00,00,00,00,
11546162,00000040,false,Rx,9,3,B0,01,0C,00,00,00,00,00,
11549106,0000029C,false,Rx,9,3,03,00,1A,00,00,00,00,00,
11550187,00000010,false,Rx,9,7,B0,01,0C,11,0C,0D,00,00,
11555104,00000008,false,Rx,9,3,B0,01,10,00,00,00,00,00,
11563374,000000AA,false,Rx,9,2,AA,04,00,00,00,00,00,00,
11566074,00000040,false,Rx,9,3,B0,01,0C,00,00,00,00,00,
11567792,000002BC,false,Rx,9,3,03,00,0F,00,00,00,00,00,
11569826,00000010,false,Rx,9,7,B0,01,0C,11,0C,0D,00,00,
11575150,00000008,false,Rx,9,3,B0,01,10,00,00,00,00,00,
11583998,000000AA,false,Rx,9,2,AA,04,00,00,00,00,00,00,
11586160,00000040,false,Rx,9,3,B0,01,0C,00,00,00,00,00,
11587877,000002B4,false,Rx,9,3,03,00,0A,00,00,00,00,00,
11589909,00000010,false,Rx,9,7,B0,01,0C,11,0C,0D,00,00,
11595192,00000008,false,Rx,9,3,B0,01,10,00,00,00,00,00,
11603374,000000AA,false,Rx,9,2,AA,04,00,00,00,00,00,00,
11606716,00000040,false,Rx,9,8,B0,01,0C,93,E5,00,14,00,
11607691,00000040,false,Rx,9,3,B0,2F,66,00,00,00,00,00,
11609095,000003AC,false,Rx,9,3,03,00,1D,00,00,00,00,00,
11610989,00000010,false,Rx,9,7,B0,01,0C,11,0C,0D,00,00,
11615165,00000008,false,Rx,9,3,B0,01,10,00,00,00,00,00,
11623327,000000AA,false,Rx,9,2,AA,04,00,00,00,00,00,00,
11626346,00000040,false,Rx,9,3,B0,01,0C,00,00,00,00,00,
11628063,000003A4,false,Rx,9,3,03,00,2C,00,00,00,00,00,
11629885,00000010,false,Rx,9,7,B0,01,0C,11,0C,0E,40,00,
11630756,00000010,false,Rx,9,3,B0,0D,00,00,00,00,00,00,
11635121,00000008,false,Rx,9,3,B0,01,10,00,00,00,00,00,
11643993,000000AA,false,Rx,9,2,AA,04,00,00,00,00,00,00,
11646162,00000040,false,Rx,9,3,B0,01,0C,00,00,00,00,00,
11649790,00000010,false,Rx,9,7,B0,01,0C,11,0C,0D,00,00,
11655112,00000008,false,Rx,9,3,B0,01,10,00,00,00,00,00,
11663994,000000AA,false,Rx,9,2,AA,04,00,00,00,00,00,00,
11666174,00000040,false,Rx,9,3,B0,01,0C,00,00,00,00,00,
11669121,0000029C,false,Rx,9,3,03,00,1A,00,00,00,00,00,
11670201,00000010,false,Rx,9,7,B0,01,0C,11,0C,0D,00,00,
11675437,00000008,false,Rx,9,7,B0,01,10,0C,B6,0D,09,00,
11683414,000000AA,false,Rx,9,2,AA,04,00,00,00,00,00,00,
11686112,00000040,false,Rx,9,3,B0,01,0C,00,00,00,00,00,
11687829,000002BC,false,Rx,9,3,03,00,0F,00,00,00,00,00,
11689863,00000010,false,Rx,9,7,B0,01,0C,11,0C,0D,00,00,
11695185,00000008,false,Rx,9,3,B0,01,10,00,00,00,00,00,
11704033,000000AA,false,Rx,9,2,AA,04,00,00,00,00,00,00,
11706090,00000040,false,Rx,9,3,B0,01,0C,00,00,00,00,00,
11707808,000002B4,false,Rx,9,3,03,00,0A,00,00,00,00,00,
11709843,00000010,false,Rx,9,7,B0,01,0C,11,0C,0D,00,00,
11715205,00000008,false,Rx,9,3,B0,01,10,00,00,00,00,00,
11723389,000000AA,false,Rx,9,2,AA,04,00,00,00,00,00,00,
11726190,00000040,false,Rx,9,3,B0,01,0C,00,00,00,00,00,
11727908,000003AC,false,Rx,9,3,03,00,1D,00,00,00,00,00,
11729942,00000010,false,Rx,9,7,B0,01,0C,11,0C,0D,00,00,
11735158,00000008,false,Rx,9,3,B0,01,10,00,00,00,00,00,
11743361,000000AA,false,Rx,9,2,AA,04,00,00,00,00,00,00,
11746168,00000040,false,Rx,9,3,B0,01,0C,00,00,00,00,00,
11747887,000003A4,false,Rx,9,3,03,00,2C,00,00,00,00,00,
11749921,00000010,false,Rx,9,7,B0,01,0C,11,0C,0D,00,00,
11755135,00000008,false,Rx,9,3,B0,01,10,00,00,00,00,00,
11763565,000000AA,false,Rx,9,2,AA,04,00,00,00,00,00,00,
11766252,00000040,false,Rx,9,3,B0,01,0C,00,00,00,00,00,
11769881,00000010,false,Rx,9,7,B0,01,0C,11,0C,0D,00,00,
11775204,00000008,false,Rx,9,3,B0,01,10,00,00,00,00,00,
11784093,000000AA,false,Rx,9,2,AA,04,00,00,00,00,00,00,
11786160,00000040,false,Rx,9,3,B0,01,0C,00,00,00,00,00,
11789209,0000029C,false,Rx,9,3,03,00,1A,00,00,00,00,00,
11790290,00000010,false,Rx,9,7,B0,01,0C,11,0C,0D,00,00,
11794576,00000010,false,Rx,9,4,30,08,00,30,00,00,00,00,
11795231,00000008,false,Rx,9,3,B0,01,10,00,00,00,00,00,
11796101,00000010,false,Rx,9,4,31,08,00,2F,00,00,00,00,
11798189,00000040,false,Rx,9,3,B0,30,99,00,00,00,00,00,
11803426,000000AA,false,Rx,9,2,AA,04,00,00,00,00,00,00,
11806758,00000040,false,Rx,9,8,B0,01,0C,93,E5,00,14,00,
11807732,00000040,false,Rx,9,3,B0,30,99,00,00,00,00,00,
11809233,000002BC,false,Rx,9,3,03,00,0F,00,00,00,00,00,
11810950,00000010,false,Rx,9,7,B0,01,0C,11,0C,0D,00,00,
11815215,00000008,false,Rx,9,3,B0,01,10,00,00,00,00,00,
11837303,00001000,true,Rx,9,8,00,00,02,3A,00,00,37,01,
11838692,00001001,true,Rx,9,8,00,00,00,88,00,00,00,00,
11840040,00001002,true,Rx,9,8,00,00,00,00,00,00,00,00,
11824116,000000AA,false,Rx,9,2,AA,04,00,00,00,00,00,00,
11826182,00000040,false,Rx,9,3,B0,01,0C,00,00,00,00,00,
11828005,000002B4,false,Rx,9,3,03,00,02,00,00,00,00,00,
11829931,00000010,false,Rx,9,7,B0,01,0C,11,0C,0E,40,00,
11830802,00000010,false,Rx,9,3,B0,0D,00,00,00,00,00,00,
11835168,00000008,false,Rx,9,3,B0,01,10,00,00,00,00,00,
11844112,000000AA,false,Rx,9,2,AA,04,00,00,00,00,00,00,
11846261,00000040,false,Rx,9,3,B0,01,0C,00,00,00,00,00,
11848194,000003AC,false,Rx,9,3,03,00,1D,00,00,00,00,00,
11849876,00000010,false,Rx,9,7,B0,01,0C,11,0C,0D,00,00,
11855205,00000008,false,Rx,9,3,B0,01,10,00,00,00,00,00,
11863416,000000AA,false,Rx,9,2,AA,04,00,00,00,00,00,00,
11866303,00000040,false,Rx,9,3,B0,01,0C,00,00,00,00,00,
11868025,000003A4,false,Rx,9,3,03,00,2C,00,00,00,00,00,
11869953,00000010,false,Rx,9,7,B0,01,0C,11,0C,0D,00,00,
11875484,00000008,false,Rx,9,7,B0,01,10,0C,B6,0D,09,00,
11883526,000000AA,false,Rx,9,2,AA,04,00,00,00,00,00,00,
11886213,00000040,false,Rx,9,3,B0,01,0C,00,00,00,00,00,
11889854,00000010,false,Rx,9,7,B0,01,0C,11,0C,0D,00,00,
11895174,00000008,false,Rx,9,3,B0,01,10,00,00,00,00,00,
11903495,000000AA,false,Rx,9,2,AA,04,00,00,00,00,00,00,
11906417,00000040,false,Rx,9,3,B0,01,0C,00,00,00,00,00,
11909373,0000029C,false,Rx,9,3,03,00,1A,00,00,00,00,00,
11910454,00000010,false,Rx,9,7,B0,01,0C,11,0C,0D,00,00,
11915162,00000008,false,Rx,9,3,B0,01,10,00,00,00,00,00,
11923580,000000AA,false,Rx,9,2,AA,04,00,00,00,00,00,00,
11926435,00000040,false,Rx,9,3,B0,01,0C,00,00,00,00,00,
11928009,000002BC,false,Rx,9,3,03,00,0F,00,00,00,00,00,
11929942,00000010,false,Rx,9,7,B0,01,0C,11,0C,0D,00,00,
11935158,00000008,false,Rx,9,3,B0,01,10,00,00,00,00,00,
11944164,000000AA,false,Rx,9,2,AA,04,00,00,00,00,00,00,
11946231,00000040,false,Rx,9,3,B0,01,0C,00,00,00,00,00,
11947947,000002B4,false,Rx,9,3,03,00,02,00,00,00,00,00,
11949982,00000010,false,Rx,9,7,B0,01,0C,11,0C,0D,00,00,
11955199,00000008,false,Rx,9,3,B0,01,10,00,00,00,00,00,
11963682,000000AA,false,Rx,9,2,AA,04,00,00,00,00,00,00,
11966286,00000040,false,Rx,9,3,B0,01,0C,00,00,00,00,00,
11968003,000003AC,false,Rx,9,3,03,00,1D,00,00,00,00,00,
11969934,00000010,false,Rx,9,7,B0,01,0C,11,0C,0D,00,00,
11975159,00000008,false,Rx,9,3,B0,01,10,00,00,00,00,00,
11983754,000000AA,false,Rx,9,2,AA,04,00,00,00,00,00,00,
11986357,00000040,false,Rx,9,3,B0,01,0C,00,00,00,00,00,
11988045,000003A4,false,Rx,9,3,03,00,2C,00,00,00,00,00,
11989983,00000010,false,Rx,9,7,B0,01,0C,11,0C,0D,00,00,
11995198,00000008,false,Rx,9,3,B0,01,10,00,00,00,00,00,
12004222,000000AA,false,Rx,9,2,AA,04,00,00,00,00,00,00,
12006868,00000040,false,Rx,9,8,B0,01,0C,93,E5,00,14,00,
12007811,00000040,false,Rx,9,3,B0,30,99,00,00,00,00,00,
12010917,00000010,false,Rx,9,7,B0,01,0C,11,0C,0D,00,00,
12015179,00000008,false,Rx,9,3,B0,01,10,00,00,00,00,00,
12023849,000000AA,false,Rx,9,2,AA,04,00,00,00,00,00,00,
12026357,00000040,false,Rx,9,3,B0,01,0C,00,00,00,00,00,
12029411,0000029C,false,Rx,9,3,03,00,1A,00,00,00,00,00,
12030388,00000010,false,Rx,9,7,B0,01,0C,11,0C,0E,40,00,
12031599,00000010,false,Rx,9,3,B0,0D,00,00,00,00,00,00,
12035220,00000008,false,Rx,9,3,B0,01,10,00,00,00,00,00,
12043900,000000AA,false,Rx,9,2,AA,04,00,00,00,00,00,00,
12046307,00000040,false,Rx,9,3,B0,01,0C,00,00,00,00,00,
12048221,000002BC,false,Rx,9,3,03,00,0F,00,00,00,00,00,
12050004,00000010,false,Rx,9,7,B0,01,0C,11,0C,0D,00,00,
12055223,00000008,false,Rx,9,3,B0,01,10,00,00,00,00,00,
12063895,000000AA,false,Rx,9,2,AA,04,00,00,00,00,00,00,
12066422,00000040,false,Rx,9,3,B0,01,0C,00,00,00,00,00,
12068144,000002B4,false,Rx,9,3,03,00,0A,00,00,00,00,00,
12069968,00000010,false,Rx,9,7,B0,01,0C,11,0C,0D,00,00,
12075495,00000008,false,Rx,9,7,B0,01,10,0C,B6,0D,09,00,
12083949,000000AA,false,Rx,9,2,AA,04,00,00,00,00,00,00,
12086396,00000040,false,Rx,9,3,B0,01,0C,00,00,00,00,00,
12088059,000003AC,false,Rx,9,3,03,00,1D,00,00,00,00,00,
12089906,00000010,false,Rx,9,7,B0,01,0C,11,0C,0D,00,00,
12095227,00000008,false,Rx,9,3,B0,01,10,00,00,00,00,00,
12104015,000000AA,false,Rx,9,2,AA,04,00,00,00,00,00,00,
12106355,00000040,false,Rx,9,3,B0,01,0C,00,00,00,00,00,
12108091,000003A4,false,Rx,9,3,03,00,2C,00,00,00,00,00,
12110031,00000010,false,Rx,9,7,B0,01,0C,11,0C,0D,00,00,
12115270,00000008,false,Rx,9,3,B0,01,10,00,00,00,00,00,
12124073,000000AA,false,Rx,9,2,AA,04,00,00,00,00,00,00,
12126372,00000040,false,Rx,9,3,B0,01,0C,00,00,00,00,00,
12129897,00000010,false,Rx,9,7,B0,01,0C,11,0C,0D,00,00,
12135217,00000008,false,Rx,9,3,B0,01,10,00,00,00,00,00,
12144084,000000AA,false,Rx,9,2,AA,04,00,00,00,00,00,00,
12146393,00000040,false,Rx,9,3,B0,01,0C,00,00,00,00,00,
12149428,0000029C,false,Rx,9,3,03,00,1A,00,00,00,00,00,
12150403,00000010,false,Rx,9,7,B0,01,0C,11,0C,0D,00,00,
12155217,00000008,false,Rx,9,3,B0,01,10,00,00,00,00,00,
12164220,000000AA,false,Rx,9,2,AA,04,00,00,00,00,00,00,
12166301,00000040,false,Rx,9,3,B0,01,0C,00,00,00,00,00,
12168020,000002BC,false,Rx,9,3,03,00,0F,00,00,00,00,00,
12169948,00000010,false,Rx,9,7,B0,01,0C,11,0C,0D,00,00,
12175163,00000008,false,Rx,9,3,B0,01,10,00,00,00,00,00,
12184257,000000AA,false,Rx,9,2,AA,04,00,00,00,00,00,00,
12186391,00000040,false,Rx,9,3,B0,01,0C,00,00,00,00,00,
12188201,000002B4,false,Rx,9,3,03,00,0A,00,00,00,00,00,
12189935,00000010,false,Rx,9,7,B0,01,0C,11,0C,0D,00,00,
12193876,00000010,false,Rx,9,4,30,08,00,31,00,00,00,00,
12194746,00000010,false,Rx,9,4,31,08,00,30,00,00,00,00,
12195510,00000008,false,Rx,9,3,B0,01,10,00,00,00,00,00,
12196166,00000040,false,Rx,9,3,B0,31,99,00,00,00,00,00,
12204302,000000AA,false,Rx,9,2,AA,04,00,00,00,00,00,00,
12206954,00000040,false,Rx,9,8,B0,01,0C,93,E5,00,14,00,
12207849,00000040,false,Rx,9,3,B0,31,99,00,00,00,00,00,
12209396,000003AC,false,Rx,9,3,03,00,1D,00,00,00,00,00,
12211018,00000010,false,Rx,9,7,B0,01,0C,11,0C,0D,00,00,
12215256,00000008,false,Rx,9,3,B0,01,10,00,00,00,00,00,
12224352,000000AA,false,Rx,9,2,AA,04,00,00,00,00,00,00,
12226620,00000040,false,Rx,9,3,B0,01,0C,00,00,00,00,00,
12228211,000003A4,false,Rx,9,3,03,00,2C,00,00,00,00,00,
12229937,00000010,false,Rx,9,7,B0,01,0C,11,0C,0E,40,00,
12230808,00000010,false,Rx,9,3,B0,0D,00,00,00,00,00,00,
12235177,00000008,false,Rx,9,3,B0,01,10,00,00,00,00,00,
12244360,000000AA,false,Rx,9,2,AA,04,00,00,00,00,00,00,
12246462,00000040,false,Rx,9,3,B0,01,0C,00,00,00,00,00,
12249883,00000010,false,Rx,9,7,B0,01,0C,11,0C,0D,00,00,
12255204,00000008,false,Rx,9,3,B0,01,10,00,00,00,00,00,
12264429,000000AA,false,Rx,9,2,AA,04,00,00,00,00,00,00,
12266432,00000040,false,Rx,9,3,B0,01,0C,00,00,00,00,00,
12269393,0000029C,false,Rx,9,3,03,00,1A,00,00,00,00,00,
12270474,00000010,false,Rx,9,7,B0,01,0C,11,0C,0D,00,00,
12275495,00000008,false,Rx,9,7,B0,01,10,0C,B6,0D,09,00,
12284506,000000AA,false,Rx,9,2,AA,04,00,00,00,00,00,00,
12286596,00000040,false,Rx,9,3,B0,01,0C,00,00,00,00,00,
12288311,000002BC,false,Rx,9,3,03,00,0F,00,00,00,00,00,
12289925,00000010,false,Rx,9,7,B0,01,0C,11,0C,0D,00,00,
12295250,00000008,false,Rx,9,3,B0,01,10,00,00,00,00,00,
12304560,000000AA,false,Rx,9,2,AA,04,00,00,00,00,00,00,
12306367,00000040,false,Rx,9,3,B0,01,0C,00,00,00,00,00,
12308120,000002B4,false,Rx,9,3,03,00,02,00,00,00,00,00,
12309957,00000010,false,Rx,9,7,B0,01,0C,11,0C,0D,00,00,
12315267,00000008,false,Rx,9,3,B0,01,10,00,00,00,00,00,
12324582,000000AA,false,Rx,9,2,AA,04,00,00,00,00,00,00,
12326456,00000040,false,Rx,9,3,B0,01,0C,00,00,00,00,00,
12328180,000003AC,false,Rx,9,3,03,00,1D,00,00,00,00,00,
12330002,00000010,false,Rx,9,7,B0,01,0C,11,0C,0D,00,00,
12335217,00000008,false,Rx,9,3,B0,01,10,00,00,00,00,00,
12344640,000000AA,false,Rx,9,2,AA,04,00,00,00,00,00,00,
12346401,00000040,false,Rx,9,3,B0,01,0C,00,00,00,00,00,
12348231,000003A4,false,Rx,9,3,03,00,2C,00,00,00,00,00,
12349961,00000010,false,Rx,9,7,B0,01,0C,11,0C,0D,00,00,
12355177,00000008,false,Rx,9,3,B0,01,10,00,00,00,00,00,
12364642,000000AA,false,Rx,9,2,AA,04,00,00,00,00,00,00,
12366401,00000040,false,Rx,9,3,B0,01,0C,00,00,00,00,00,
12369922,00000010,false,Rx,9,7,B0,01,0C,11,0C,0D,00,00,
12375273,00000008,false,Rx,9,3,B0,01,10,00,00,00,00,00,
12384713,000000AA,false,Rx,9,2,AA,04,00,00,00,00,00,00,
12386461,00000040,false,Rx,9,3,B0,01,0C,00,00,00,00,00,
12389489,0000029C,false,Rx,9,3,03,00,1A,00,00,00,00,00,
12390576,00000010,false,Rx,9,7,B0,01,0C,11,0C,0D,00,00,
12395279,00000008,false,Rx,9,3,B0,01,10,00,00,00,00,00,
12404707,000000AA,false,Rx,9,2,AA,04,00,00,00,00,00,00,
12407009,00000040,false,Rx,9,8,B0,01,0C,93,E5,00,14,00,
12407881,00000040,false,Rx,9,3,B0,31,99,00,00,00,00,00,
12409384,000002BC,false,Rx,9,3,03,00,0F,00,00,00,00,00,
12411104,00000010,false,Rx,9,7,B0,01,0C,11,0C,0D,00,00,
12415197,00000008,false,Rx,9,3,B0,01,10,00,00,00,00,00,
12424785,000000AA,false,Rx,9,2,AA,04,00,00,00,00,00,00,
12426545,00000040,false,Rx,9,3,B0,01,0C,00,00,00,00,00,
12428329,000002B4,false,Rx,9,3,03,00,0A,00,00,00,00,00,
12429954,00000010,false,Rx,9,7,B0,01,0C,11,0C,0E,40,00,
12430824,00000010,false,Rx,9,3,B0,0D,00,00,00,00,00,00,
12435190,00000008,false,Rx,9,3,B0,01,10,00,00,00,00,00,
12444825,000000AA,false,Rx,9,2,AA,04,00,00,00,00,00,00,
12446487,00000040,false,Rx,9,3,B0,01,0C,00,00,00,00,00,
12448211,000003AC,false,Rx,9,3,03,00,1D,00,00,00,00,00,
12450037,00000010,false,Rx,9,7,B0,01,0C,11,0C,0D,00,00,
12455249,00000008,false,Rx,9,3,B0,01,10,00,00,00,00,00,
12464864,000000AA,false,Rx,9,2,AA,04,00,00,00,00,00,00,
12466443,00000040,false,Rx,9,3,B0,01,0C,00,00,00,00,00,
12468418,000003A4,false,Rx,9,3,03,00,2C,00,00,00,00,00,
12470086,00000010,false,Rx,9,7,B0,01,0C,11,0C,0D,00,00,
12475516,00000008,false,Rx,9,7,B0,01,10,0C,B6,0D,09,00,
12484922,000000AA,false,Rx,9,2,AA,04,00,00,00,00,00,00,
12486618,00000040,false,Rx,9,3,B0,01,0C,00,00,00,00,00,
12489999,00000010,false,Rx,9,7,B0,01,0C,11,0C,0D,00,00,
12495225,00000008,false,Rx,9,3,B0,01,10,00,00,00,00,00,
12504956,000000AA,false,Rx,9,2,AA,04,00,00,00,00,00,00,
12506518,00000040,false,Rx,9,3,B0,01,0C,00,00,00,00,00,
12509535,0000029C,false,Rx,9,3,03,00,1A,00,00,00,00,00,
12510510,00000010,false,Rx,9,7,B0,01,0C,11,0C,0D,00,00,
12515215,00000008,false,Rx,9,3,B0,01,10,00,00,00,00,00,
12525054,000000AA,false,Rx,9,2,AA,04,00,00,00,00,00,00,
12526495,00000040,false,Rx,9,3,B0,01,0C,00,00,00,00,00,
12528219,000002BC,false,Rx,9,3,03,00,0F,00,00,00,00,00,
12530045,00000010,false,Rx,9,7,B0,01,0C,11,0C,0D,00,00,
12535260,00000008,false,Rx,9,3,B0,01,10,00,00,00,00,00,
12545120,000000AA,false,Rx,9,2,AA,04,00,00,00,00,00,00,
12546583,00000040,false,Rx,9,3,B0,01,0C,00,00,00,00,00,
12548292,000002B4,false,Rx,9,3,03,00,0A,00,00,00,00,00,
12550031,00000010,false,Rx,9,7,B0,01,0C,11,0C,0D,00,00,
12555245,00000008,false,Rx,9,3,B0,01,10,00,00,00,00,00,
12565185,000000AA,false,Rx,9,2,AA,04,00,00,00,00,00,00,
12566527,00000040,false,Rx,9,3,B0,01,0C,00,00,00,00,00,
12568245,000003AC,false,Rx,9,3,03,00,1D,00,00,00,00,00,
12570069,00000010,false,Rx,9,7,B0,01,0C,11,0C,0D,00,00,
12575177,00000008,false,Rx,9,3,B0,01,10,00,00,00,00,00,
12585159,000000AA,false,Rx,9,2,AA,04,00,00,00,00,00,00,
12586607,00000040,false,Rx,9,3,B0,01,0C,00,00,00,00,00,
12588301,000003A4,false,Rx,9,3,03,00,2C,00,00,00,00,00,
12590225,00000010,false,Rx,9,7,B0,01,0C,11,0C,0D,00,00,
12593928,00000010,false,Rx,9,4,30,08,00,32,00,00,00,00,
12594803,00000010,false,Rx,9,4,31,08,00,31,00,00,00,00,
12595457,00000008,false,Rx,9,3,B0,01,10,00,00,00,00,00,
12596221,00000040,false,Rx,9,3,B0,32,FF,00,00,00,00,00,
12605308,000000AA,false,Rx,9,2,AA,04,00,00,00,00,00,00,
12607094,00000040,false,Rx,9,8,B0,01,0C,93,E5,00,14,00,
12608073,00000040,false,Rx,9,3,B0,32,FF,00,00,00,00,00,
12611052,00000010,false,Rx,9,7,B0,01,0C,11,0C,0D,00,00,
12615227,00000008,false,Rx,9,3,B0,01,10,00,00,00,00,00,
12623716,000000AA,false,Rx,9,2,AA,04,00,00,00,00,00,00,
12626699,00000040,false,Rx,9,3,B0,01,0C,00,00,00,00,00,
12629673,0000029C,false,Rx,9,3,03,00,1A,00,00,00,00,00,
12630648,00000010,false,Rx,9,7,B0,01,0C,11,0C,0E,40,00,
12631855,00000010,false,Rx,9,3,B0,0D,00,00,00,00,00,00,
12635268,00000008,false,Rx,9,3,B0,01,10,00,00,00,00,00,
12643771,000000AA,false,Rx,9,2,AA,04,00,00,00,00,00,00,
12646619,00000040,false,Rx,9,3,B0,01,0C,00,00,00,00,00,
12648366,000002BC,false,Rx,9,3,03,00,0F,00,00,00,00,00,
12649984,00000010,false,Rx,9,7,B0,01,0C,11,0C,0D,00,00,
12655236,00000008,false,Rx,9,3,B0,01,10,00,00,00,00,00,
12663753,000000AA,false,Rx,9,2,AA,04,00,00,00,00,00,00,
12666618,00000040,false,Rx,9,3,B0,01,0C,00,00,00,00,00,
12668361,000002B4,false,Rx,9,3,03,00,02,00,00,00,00,00,
12669973,00000010,false,Rx,9,7,B0,01,0C,11,0C,0D,00,00,
12675510,00000008,false,Rx,9,7,B0,01,10,0C,B6,0D,09,00,
12683798,000000AA,false,Rx,9,2,AA,04,00,00,00,00,00,00,
12686570,00000040,false,Rx,9,3,B0,01,0C,00,00,00,00,00,
12688306,000003AC,false,Rx,9,3,03,00,1D,00,00,00,00,00,
12690159,00000010,false,Rx,9,7,B0,01,0C,11,0C,0D,00,00,
12695213,00000008,false,Rx,9,3,B0,01,10,00,00,00,00,00,
12705594,000000AA,false,Rx,9,2,AA,04,00,00,00,00,00,00,
12706505,00000040,false,Rx,9,3,B0,01,0C,00,00,00,00,00,
12708224,000003A4,false,Rx,9,3,03,00,2C,00,00,00,00,00,
12710050,00000010,false,Rx,9,7,B0,01,0C,11,0C,0D,00,00,
12715262,00000008,false,Rx,9,3,B0,01,10,00,00,00,00,00,
12725705,000000AA,false,Rx,9,2,AA,04,00,00,00,00,00,00,
12726635,00000040,false,Rx,9,3,B0,01,0C,00,00,00,00,00,
12729998,00000010,false,Rx,9,7,B0,01,0C,11,0C,0D,00,00,
12735228,00000008,false,Rx,9,3,B0,01,10,00,00,00,00,00,
12743752,000000AA,false,Rx,9,2,AA,04,00,00,00,00,00,00,
12746858,00000040,false,Rx,9,3,B0,01,0C,00,00,00,00,00,
12749829,0000029C,false,Rx,9,3,03,00,1A,00,00,00,00,00,
12750804,00000010,false,Rx,9,7,B0,01,0C,11,0C,0D,00,00,
12755195,00000008,false,Rx,9,3,B0,01,10,00,00,00,00,00,
12763804,000000AA,false,Rx,9,2,AA,04,00,00,00,00,00,00,
12766643,00000040,false,Rx,9,3,B0,01,0C,00,00,00,00,00,
12768393,000002BC,false,Rx,9,3,03,00,0F,00,00,00,00,00,
12770036,00000010,false,Rx,9,7,B0,01,0C,11,0C,0D,00,00,
12775263,00000008,false,Rx,9,3,B0,01,10,00,00,00,00,00,
12783762,000000AA,false,Rx,9,2,AA,04,00,00,00,00,00,00,
12786699,00000040,false,Rx,9,3,B0,01,0C,00,00,00,00,00,
12788342,000002B4,false,Rx,9,3,03,00,02,00,00,00,00,00,
12790061,00000010,false,Rx,9,7,B0,01,0C,11,0C,0D,00,00,
12795273,00000008,false,Rx,9,3,B0,01,10,00,00,00,00,00,
12805976,000000AA,false,Rx,9,2,AA,04,00,00,00,00,00,00,
12807207,00000040,false,Rx,9,8,B0,01,0C,93,E5,00,14,00,
12808079,00000040,false,Rx,9,3,B0,32,FF,00,00,00,00,00,
12809586,000003AC,false,Rx,9,3,03,00,1D,00,00,00,00,00,
12811123,00000010,false,Rx,9,7,B0,01,0C,11,0C,0D,00,00,
12815292,00000008,false,Rx,9,3,B0,01,10,00,00,00,00,00,
12837420,00001000,true,Rx,9,8,00,00,02,3B,00,00,38,23,
12838807,00001001,true,Rx,9,8,00,00,00,88,00,00,00,00,
12840144,00001002,true,Rx,9,8,00,00,00,00,00,00,00,00,
12826056,000000AA,false,Rx,9,2,AA,04,00,00,00,00,00,00,
12826663,00000040,false,Rx,9,3,B0,01,0C,00,00,00,00,00,
12828413,000003A4,false,Rx,9,3,03,00,2C,00,00,00,00,00,
12830033,00000010,false,Rx,9,7,B0,01,0C,11,0C,0E,40,00,
12830903,00000010,false,Rx,9,3,B0,0D,00,00,00,00,00,00,
12835271,00000008,false,Rx,9,3,B0,01,10,00,00,00,00,00,
12843883,000000AA,false,Rx,9,2,AA,04,00,00,00,00,00,00,
12846684,00000040,false,Rx,9,3,B0,01,0C,00,00,00,00,00,
12850069,00000010,false,Rx,9,7,B0,01,0C,11,0C,0D,00,00,
12855295,00000008,false,Rx,9,3,B0,01,10,00,00,00,00,00,
12863883,000000AA,false,Rx,9,2,AA,04,00,00,00,00,00,00,
12866760,00000040,false,Rx,9,3,B0,01,0C,00,00,00,00,00,
12869740,0000029C,false,Rx,9,3,03,00,1A,00,00,00,00,00,
12870821,00000010,false,Rx,9,7,B0,01,0C,11,0C,0D,00,00,
12875529,00000008,false,Rx,9,7,B0,01,10,0C,B6,0D,09,00,
12883816,000000AA,false,Rx,9,2,AA,04,00,00,00,00,00,00,
12886689,00000040,false,Rx,9,3,B0,01,0C,00,00,00,00,00,
12888409,000002BC,false,Rx,9,3,03,00,0F,00,00,00,00,00,
12890016,00000010,false,Rx,9,7,B0,01,0C,11,0C,0D,00,00,
12895327,00000008,false,Rx,9,3,B0,01,10,00,00,00,00,00,
12903854,000000AA,false,Rx,9,2,AA,04,00,00,00,00,00,00,
12906715,00000040,false,Rx,9,3,B0,01,0C,00,00,00,00,00,
12908357,000002B4,false,Rx,9,3,03,00,0A,00,00,00,00,00,
12910077,00000010,false,Rx,9,7,B0,01,0C,11,0C,0D,00,00,
12915290,00000008,false,Rx,9,3,B0,01,10,00,00,00,00,00,
12923900,000000AA,false,Rx,9,2,AA,04,00,00,00,00,00,00,
12926695,00000040,false,Rx,9,3,B0,01,0C,00,00,00,00,00,
12928440,000003AC,false,Rx,9,3,03,00,1D,00,00,00,00,00,
12930169,00000010,false,Rx,9,7,B0,01,0C,11,0C,0D,00,00,
12935189,00000008,false,Rx,9,3,B0,01,10,00,00,00,00,00,
12943903,000000AA,false,Rx,9,2,AA,04,00,00,00,00,00,00,
12946777,00000040,false,Rx,9,3,B0,01,0C,00,00,00,00,00,
12948419,000003A4,false,Rx,9,3,03,00,2C,00,00,00,00,00,
12950034,00000010,false,Rx,9,7,B0,01,0C,11,0C,0D,00,00,
12955249,00000008,false,Rx,9,3,B0,01,10,00,00,00,00,00,
12964493,000000AA,false,Rx,9,2,AA,04,00,00,00,00,00,00,
12966712,00000040,false,Rx,9,3,B0,01,0C,00,00,00,00,00,
12970046,00000010,false,Rx,9,7,B0,01,0C,11,0C,0D,00,00,
12975273,00000008,false,Rx,9,3,B0,01,10,00,00,00,00,00,
12983881,000000AA,false,Rx,9,2,AA,04,00,00,00,00,00,00,
12986823,00000040,false,Rx,9,3,B0,01,0C,00,00,00,00,00,
12989754,0000029C,false,Rx,9,3,03,00,1A,00,00,00,00,00,
12990835,00000010,false,Rx,9,7,B0,01,0C,11,0C,0D,00,00,
12994588,00000010,false,Rx,9,4,30,08,00,33,00,00,00,00,
12995243,00000008,false,Rx,9,3,B0,01,10,00,00,00,00,00,
12996114,00000010,false,Rx,9,4,31,08,00,32,00,00,00,00,
12996771,00000040,false,Rx,9,3,B0,33,B3,00,00,00,00,00,
13003892,000000AA,false,Rx,9,2,AA,04,00,00,00,00,00,00,
13007385,00000040,false,Rx,9,8,B0,01,0C,93,E5,00,14,00,
13008181,00000040,false,Rx,9,3,B0,33,B3,00,00,00,00,00,
13009820,000002BC,false,Rx,9,3,03,00,0F,00,00,00,00,00,
13011142,00000010,false,Rx,9,7,B0,01,0C,11,0C,0D,00,00,
13015300,00000008,false,Rx,9,3,B0,01,10,00,00,00,00,00,
13023908,000000AA,false,Rx,9,2,AA,04,00,00,00,00,00,00,
13026996,00000040,false,Rx,9,3,B0,01,0C,00,00,00,00,00,
13028685,000002B4,false,Rx,9,3,03,00,02,00,00,00,00,00,
13030090,00000010,false,Rx,9,7,B0,01,0C,11,0C,0E,40,00,
13030853,00000010,false,Rx,9,3,B0,0D,00,00,00,00,00,00,
13035249,00000008,false,Rx,9,3,B0,01,10,00,00,00,00,00,
13043862,000000AA,false,Rx,9,2,AA,04,00,00,00,00,00,00,
13046852,00000040,false,Rx,9,3,B0,01,0C,00,00,00,00,00,
13048669,000003AC,false,Rx,9,3,03,00,1D,00,00,00,00,00,
13050049,00000010,false,Rx,9,7,B0,01,0C,11,0C,0D,00,00,
13055264,00000008,false,Rx,9,3,B0,01,10,00,00,00,00,00,
13063976,000000AA,false,Rx,9,2,AA,04,00,00,00,00,00,00,
13066847,00000040,false,Rx,9,3,B0,01,0C,00,00,00,00,00,
13068484,000003A4,false,Rx,9,3,03,00,2C,00,00,00,00,00,
13070099,00000010,false,Rx,9,7,B0,01,0C,11,0C,0D,00,00,
13075528,00000008,false,Rx,9,7,B0,01,10,0C,B6,0D,09,00,
13084559,000000AA,false,Rx,9,2,AA,04,00,00,00,00,00,00,
13086796,00000040,false,Rx,9,3,B0,01,0C,00,00,00,00,00,
13090029,00000010,false,Rx,9,7,B0,01,0C,11,0C,0D,00,00,
13095247,00000008,false,Rx,9,3,B0,01,10,00,00,00,00,00,
13103973,000000AA,false,Rx,9,2,AA,04,00,00,00,00,00,00,
13106839,00000040,false,Rx,9,3,B0,01,0C,00,00,00,00,00,
13109788,0000029C,false,Rx,9,3,03,00,1A,00,00,00,00,00,
13110868,00000010,false,Rx,9,7,B0,01,0C,11,0C,0D,00,00,
13115256,00000008,false,Rx,9,3,B0,01,10,00,00,00,00,00,
13124611,000000AA,false,Rx,9,2,AA,04,00,00,00,00,00,00,
13126833,00000040,false,Rx,9,3,B0,01,0C,00,00,00,00,00,
13128621,000002BC,false,Rx,9,3,03,00,0F,00,00,00,00,00,
13130143,00000010,false,Rx,9,7,B0,01,0C,11,0C,0D,00,00,
13135325,00000008,false,Rx,9,3,B0,01,10,00,00,00,00,00,
13143945,000000AA,false,Rx,9,2,AA,04,00,00,00,00,00,00,
13146819,00000040,false,Rx,9,3,B0,01,0C,00,00,00,00,00,
13148582,000002B4,false,Rx,9,3,03,00,02,00,00,00,00,00,
13150084,00000010,false,Rx,9,7,B0,01,0C,11,0C,0D,00,00,
13155300,00000008,false,Rx,9,3,B0,01,10,00,00,00,00,00,
13164018,000000AA,false,Rx,9,2,AA,04,00,00,00,00,00,00,
13166896,00000040,false,Rx,9,3,B0,01,0C,00,00,00,00,00,
13168545,000003AC,false,Rx,9,3,03,00,1D,00,00,00,00,00,
13170141,00000010,false,Rx,9,7,B0,01,0C,11,0C,0D,00,00,
13175261,00000008,false,Rx,9,3,B0,01,10,00,00,00,00,00,
13183973,000000AA,false,Rx,9,2,AA,04,00,00,00,00,00,00,
13186928,00000040,false,Rx,9,3,B0,01,0C,00,00,00,00,00,
13188603,000003A4,false,Rx,9,3,03,00,2C,00,00,00,00,00,
13190106,00000010,false,Rx,9,7,B0,01,0C,11,0C,0D,00,00,
13195215,00000008,false,Rx,9,3,B0,01,10,00,00,00,00,00,
13204671,000000AA,false,Rx,9,2,AA,04,00,00,00,00,00,00,
13207413,00000040,false,Rx,9,8,B0,01,0C,93,E5,00,14,00,
13208313,00000040,false,Rx,9,3,B0,33,B3,00,00,00,00,00,
13211163,00000010,false,Rx,9,7,B0,01,0C,11,0C,0D,00,00,
13215254,00000008,false,Rx,9,3,B0,01,10,00,00,00,00,00,
13224612,000000AA,false,Rx,9,2,AA,04,00,00,00,00,00,00,
13227055,00000040,false,Rx,9,3,B0,01,0C,00,00,00,00,00,
13230158,00000010,false,Rx,9,7,B0,01,0C,11,0C,0E,40,00,
13230921,0000029C,false,Rx,9,3,03,00,1A,00,00,00,00,00,
13231582,00000010,false,Rx,9,3,B0,0D,00,00,00,00,00,00,
13235271,00000008,false,Rx,9,3,B0,01,10,00,00,00,00,00,
13244006,000000AA,false,Rx,9,2,AA,04,00,00,00,00,00,00,
13247085,00000040,false,Rx,9,3,B0,01,0C,00,00,00,00,00,
13248557,000002BC,false,Rx,9,3,03,00,0F,00,00,00,00,00,
13250185,00000010,false,Rx,9,7,B0,01,0C,11,0C,0D,00,00,
13255305,00000008,false,Rx,9,3,B0,01,10,00,00,00,00,00,
13264020,000000AA,false,Rx,9,2,AA,04,00,00,00,00,00,00,
13267085,00000040,false,Rx,9,3,B0,01,0C,00,00,00,00,00,
13268648,000002B4,false,Rx,9,3,03,00,0A,00,00,00,00,00,
13270152,00000010,false,Rx,9,7,B0,01,0C,11,0C,0D,00,00,
13275584,00000008,false,Rx,9,7,B0,01,10,0C,B6,0D,09,00,
13284616,000000AA,false,Rx,9,2,AA,04,00,00,00,00,00,00,
13287141,00000040,false,Rx,9,3,B0,01,0C,00,00,00,00,00,
13288498,000003AC,false,Rx,9,3,03,00,1D,00,00,00,00,00,
13290227,00000010,false,Rx,9,7,B0,01,0C,11,0C,0D,00,00,
13295251,00000008,false,Rx,9,3,B0,01,10,00,00,00,00,00,
13304069,000000AA,false,Rx,9,2,AA,04,00,00,00,00,00,00,
13307236,00000040,false,Rx,9,3,B0,01,0C,00,00,00,00,00,
13308573,000003A4,false,Rx,9,3,03,00,2C,00,00,00,00,00,
13310185,00000010,false,Rx,9,7,B0,01,0C,11,0C,0D,00,00,
13315295,00000008,false,Rx,9,3,B0,01,10,00,00,00,00,00,
13324648,000000AA,false,Rx,9,2,AA,04,00,00,00,00,00,00,
13327285,00000040,false,Rx,9,3,B0,01,0C,00,00,00,00,00,
13330109,00000010,false,Rx,9,7,B0,01,0C,11,0C,0D,00,00,
13335362,00000008,false,Rx,9,3,B0,01,10,00,00,00,00,00,
13344030,000000AA,false,Rx,9,2,AA,04,00,00,00,00,00,00,
13347319,00000040,false,Rx,9,3,B0,01,0C,00,00,00,00,00,
13350323,00000010,false,Rx,9,7,B0,01,0C,11,0C,0D,00,00,
13351087,0000029C,false,Rx,9,3,03,00,1A,00,00,00,00,00,
13355263,00000008,false,Rx,9,3,B0,01,10,00,00,00,00,00,
13364072,000000AA,false,Rx,9,2,AA,04,00,00,00,00,00,00,
13367365,00000040,false,Rx,9,3,B0,01,0C,00,00,00,00,00,
13368609,000002BC,false,Rx,9,3,03,00,0F,00,00,00,00,00,
13370117,00000010,false,Rx,9,7,B0,01,0C,11,0C,0D,00,00,
13375252,00000008,false,Rx,9,3,B0,01,10,00,00,00,00,00,
13384074,000000AA,false,Rx,9,2,AA,04,00,00,00,00,00,00,
13387457,00000040,false,Rx,9,3,B0,01,0C,00,00,00,00,00,
13388711,000002B4,false,Rx,9,3,03,00,0A,00,00,00,00,00,
13390210,00000010,false,Rx,9,7,B0,01,0C,11,0C,0D,00,00,
13393957,00000010,false,Rx,9,4,30,08,00,34,00,00,00,00,
13394826,00000010,false,Rx,9,4,31,08,00,33,00,00,00,00,
13395481,00000008,false,Rx,9,3,B0,01,10,00,00,00,00,00,
13396247,00000040,false,Rx,9,3,B0,34,4D,00,00,00,00,00,
13404005,000000AA,false,Rx,9,2,AA,04,00,00,00,00,00,00,
13407494,00000040,false,Rx,9,8,B0,01,0C,93,E5,00,14,00,
13408406,00000040,false,Rx,9,3,B0,34,4D,00,00,00,00,00,
13409913,000003AC,false,Rx,9,3,03,00,1D,00,00,00,00,00,
13411101,00000010,false,Rx,9,7,B0,01,0C,11,0C,0D,00,00,
13415255,00000008,false,Rx,9,3,B0,01,10,00,00,00,00,00,
13424074,000000AA,false,Rx,9,2,AA,04,00,00,00,00,00,00,
13427585,00000040,false,Rx,9,3,B0,01,0C,00,00,00,00,00,
13428718,000003A4,false,Rx,9,3,03,00,2C,00,00,00,00,00,
13430082,00000010,false,Rx,9,7,B0,01,0C,11,0C,0E,40,00,
13431008,00000010,false,Rx,9,3,B0,0D,00,00,00,00,00,00,
13435296,00000008,false,Rx,9,3,B0,01,10,00,00,00,00,00,
13444107,000000AA,false,Rx,9,2,AA,04,00,00,00,00,00,00,
13447621,00000040,false,Rx,9,3,B0,01,0C,00,00,00,00,00,
13450117,00000010,false,Rx,9,7,B0,01,0C,11,0C,0D,00,00,
13455226,00000008,false,Rx,9,3,B0,01,10,00,00,00,00,00,
13464045,000000AA,false,Rx,9,2,AA,04,00,00,00,00,00,00,
13467651,00000040,false,Rx,9,3,B0,01,0C,00,00,00,00,00,
13470332,00000010,false,Rx,9,7,B0,01,0C,11,0C,0D,00,00,
13471055,0000029C,false,Rx,9,3,03,00,1A,00,00,00,00,00,
13475543,00000008,false,Rx,9,7,B0,01,10,0C,B6,0D,09,00,
13484151,000000AA,false,Rx,9,2,AA,04,00,00,00,00,00,00,
13487802,00000040,false,Rx,9,3,B0,01,0C,00,00,00,00,00,
13488820,000002BC,false,Rx,9,3,03,00,0F,00,00,00,00,00,
13490114,00000010,false,Rx,9,7,B0,01,0C,11,0C,0D,00,00,
13495222,00000008,false,Rx,9,3,B0,01,10,00,00,00,00,00,
13504787,000000AA,false,Rx,9,2,AA,04,00,00,00,00,00,00,
13507773,00000040,false,Rx,9,3,B0,01,0C,00,00,00,00,00,
13508635,000002B4,false,Rx,9,3,03,00,02,00,00,00,00,00,
13510153,00000010,false,Rx,9,7,B0,01,0C,11,0C,0D,00,00,
13515367,00000008,false,Rx,9,3,B0,01,10,00,00,00,00,00,
13524108,000000AA,false,Rx,9,2,AA,04,00,00,00,00,00,00,
13527912,00000040,false,Rx,9,3,B0,01,0C,00,00,00,00,00,
13528733,000003AC,false,Rx,9,3,03,00,1D,00,00,00,00,00,
13530135,00000010,false,Rx,9,7,B0,01,0C,11,0C,0D,00,00,
13535245,00000008,false,Rx,9,3,B0,01,10,00,00,00,00,00,
13544117,000000AA,false,Rx,9,2,AA,04,00,00,00,00,00,00,
13547963,00000040,false,Rx,9,3,B0,01,0C,00,00,00,00,00,
13548762,000003A4,false,Rx,9,3,03,00,2C,00,00,00,00,00,
13550197,00000010,false,Rx,9,7,B0,01,0C,11,0C,0D,00,00,
13555305,00000008,false,Rx,9,3,B0,01,10,00,00,00,00,00,
13564778,000000AA,false,Rx,9,2,AA,04,00,00,00,00,00,00,
13567920,00000040,false,Rx,9,3,B0,01,0C,00,00,00,00,00,
13570149,00000010,false,Rx,9,7,B0,01,0C,11,0C,0D,00,00,
13575263,00000008,false,Rx,9,3,B0,01,10,00,00,00,00,00,
13584189,000000AA,false,Rx,9,2,AA,04,00,00,00,00,00,00,
13587996,00000040,false,Rx,9,3,B0,01,0C,00,00,00,00,00,
13590532,00000010,false,Rx,9,7,B0,01,0C,11,0C,0D,00,00,
13591123,0000029C,false,Rx,9,3,03,00,1A,00,00,00,00,00,
13595300,00000008,false,Rx,9,3,B0,01,10,00,00,00,00,00,
13604122,000000AA,false,Rx,9,2,AA,04,00,00,00,00,00,00,
13607957,00000040,false,Rx,9,8,B0,01,0C,93,E5,00,14,00,
13608470,00000040,false,Rx,9,3,B0,34,4D,00,00,00,00,00,
13609972,000002BC,false,Rx,9,3,03,00,0F,00,00,00,00,00,
13611205,00000010,false,Rx,9,7,B0,01,0C,11,0C,0D,00,00,
13615261,00000008,false,Rx,9,3,B0,01,10,00,00,00,00,00,
13624826,000000AA,false,Rx,9,2,AA,04,00,00,00,00,00,00,
13628091,00000040,false,Rx,9,3,B0,01,0C,00,00,00,00,00,
13628793,000002B4,false,Rx,9,3,03,00,0A,00,00,00,00,00,
13630296,00000010,false,Rx,9,7,B0,01,0C,11,0C,0E,40,00,
13630987,00000010,false,Rx,9,3,B0,0D,00,00,00,00,00,00,
13635257,00000008,false,Rx,9,3,B0,01,10,00,00,00,00,00,
13644794,000000AA,false,Rx,9,2,AA,04,00,00,00,00,00,00,
13648208,00000040,false,Rx,9,3,B0,01,0C,00,00,00,00,00,
13648802,000003AC,false,Rx,9,3,03,00,1D,00,00,00,00,00,
13650209,00000010,false,Rx,9,7,B0,01,0C,11,0C,0D,00,00,
13655317,00000008,false,Rx,9,3,B0,01,10,00,00,00,00,00,
13664135,000000AA,false,Rx,9,2,AA,04,00,00,00,00,00,00,
13668256,00000040,false,Rx,9,3,B0,01,0C,00,00,00,00,00,
13668751,000003A4,false,Rx,9,3,03,00,2C,00,00,00,00,00,
13670160,00000010,false,Rx,9,7,B0,01,0C,11,0C,0D,00,00,
13675692,00000008,false,Rx,9,7,B0,01,10,0C,B6,0D,09,00,
13684847,000000AA,false,Rx,9,2,AA,04,00,00,00,00,00,00,
13688331,00000040,false,Rx,9,3,B0,01,0C,00,00,00,00,00,
13690216,00000010,false,Rx,9,7,B0,01,0C,11,0C,0D,00,00,
13695326,00000008,false,Rx,9,3,B0,01,10,00,00,00,00,00,
13704885,000000AA,false,Rx,9,2,AA,04,00,00,00,00,00,00,
13708374,00000040,false,Rx,9,3,B0,01,0C,00,00,00,00,00,
13710531,00000010,false,Rx,9,7,B0,01,0C,11,0C,0D,00,00,
13711084,0000029C,false,Rx,9,3,03,00,1A,00,00,00,00,00,
13715330,00000008,false,Rx,9,3,B0,01,10,00,00,00,00,00,
13724159,000000AA,false,Rx,9,2,AA,04,00,00,00,00,00,00,
13728382,00000040,false,Rx,9,3,B0,01,0C,00,00,00,00,00,
13728759,000002BC,false,Rx,9,3,03,00,0F,00,00,00,00,00,
13730168,00000010,false,Rx,9,7,B0,01,0C,11,0C,0D,00,00,
13735277,00000008,false,Rx,9,3,B0,01,10,00,00,00,00,00,
13744845,000000AA,false,Rx,9,2,AA,04,00,00,00,00,00,00,
13748413,00000040,false,Rx,9,3,B0,01,0C,00,00,00,00,00,
13748727,000002B4,false,Rx,9,3,03,00,0A,00,00,00,00,00,
13750172,00000010,false,Rx,9,7,B0,01,0C,11,0C,0D,00,00,
13755279,00000008,false,Rx,9,3,B0,01,10,00,00,00,00,00,
13764232,000000AA,false,Rx,9,2,AA,04,00,00,00,00,00,00,
13768467,00000040,false,Rx,9,3,B0,01,0C,00,00,00,00,00,
13768734,000003AC,false,Rx,9,3,03,00,1D,00,00,00,00,00,
13770147,00000010,false,Rx,9,7,B0,01,0C,11,0C,0D,00,00,
13775255,00000008,false,Rx,9,3,B0,01,10,00,00,00,00,00,
13784285,000000AA,false,Rx,9,2,AA,04,00,00,00,00,00,00,
13788509,00000040,false,Rx,9,3,B0,01,0C,00,00,00,00,00,
13788890,000003A4,false,Rx,9,3,03,00,2C,00,00,00,00,00,
13790195,00000010,false,Rx,9,7,B0,01,0C,11,0C,0D,00,00,
13793932,00000010,false,Rx,9,4,30,08,00,35,00,00,00,00,
13794819,00000010,false,Rx,9,4,31,08,00,34,00,00,00,00,
13795473,00000008,false,Rx,9,3,B0,01,10,00,00,00,00,00,
13796236,00000040,false,Rx,9,3,B0,35,BF,00,00,00,00,00,
13804209,000000AA,false,Rx,9,2,AA,04,00,00,00,00,00,00,
13808470,00000040,false,Rx,9,8,B0,01,0C,93,E5,00,14,00,
13808616,00000040,false,Rx,9,3,B0,35,BF,00,00,00,00,00,
13811188,00000010,false,Rx,9,7,B0,01,0C,11,0C,0D,00,00,
13815352,00000008,false,Rx,9,3,B0,01,10,00,00,00,00,00,
13824276,000000AA,false,Rx,9,2,AA,04,00,00,00,00,00,00,
13837473,00001000,true,Rx,9,8,00,00,02,3C,00,00,39,4B,
13838869,00001001,true,Rx,9,8,00,00,00,88,00,00,00,00,
13840197,00001002,true,Rx,9,8,00,00,00,00,00,00,00,00,
13828619,00000040,false,Rx,9,3,B0,01,0C,00,00,00,00,00,
13830521,00000010,false,Rx,9,7,B0,01,0C,11,0C,0E,40,00,
13831177,0000029C,false,Rx,9,3,03,00,1A,00,00,00,00,00,
13831873,00000010,false,Rx,9,3,B0,0D,00,00,00,00,00,00,
13835415,00000008,false,Rx,9,3,B0,01,10,00,00,00,00,00,
13844294,000000AA,false,Rx,9,2,AA,04,00,00,00,00,00,00,
13848663,00000040,false,Rx,9,3,B0,01,0C,00,00,00,00,00,
13848835,000002BC,false,Rx,9,3,03,00,0F,00,00,00,00,00,
13850244,00000010,false,Rx,9,7,B0,01,0C,11,0C,0D,00,00,
13855312,00000008,false,Rx,9,3,B0,01,10,00,00,00,00,00,
13864261,000000AA,false,Rx,9,2,AA,04,00,00,00,00,00,00,
13868721,00000040,false,Rx,9,3,B0,01,0C,00,00,00,00,00,
13868881,000002B4,false,Rx,9,3,03,00,02,00,00,00,00,00,
13870189,00000010,false,Rx,9,7,B0,01,0C,11,0C,0D,00,00,
13875620,00000008,false,Rx,9,7,B0,01,10,0C,B6,0D,09,00,
13884222,000000AA,false,Rx,9,2,AA,04,00,00,00,00,00,00,
13887104,00000040,false,Rx,9,3,B0,01,0C,00,00,00,00,00,
13888803,000003AC,false,Rx,9,3,03,00,1D,00,00,00,00,00,
13890250,00000010,false,Rx,9,7,B0,01,0C,11,0C,0D,00,00,
13895367,00000008,false,Rx,9,3,B0,01,10,00,00,00,00,00,
13904309,000000AA,false,Rx,9,2,AA,04,00,00,00,00,00,00,
13907089,00000040,false,Rx,9,3,B0,01,0C,00,00,00,00,00,
13908903,000003A4,false,Rx,9,3,03,00,2C,00,00,00,00,00,
13910231,00000010,false,Rx,9,7,B0,01,0C,11,0C,0D,00,00,
13915339,00000008,false,Rx,9,3,B0,01,10,00,00,00,00,00,
13924263,000000AA,false,Rx,9,2,AA,04,00,00,00,00,00,00,
13927144,00000040,false,Rx,9,3,B0,01,0C,00,00,00,00,00,
13930212,00000010,false,Rx,9,7,B0,01,0C,11,0C,0D,00,00,
13935363,00000008,false,Rx,9,3,B0,01,10,00,00,00,00,00,
13944300,000000AA,false,Rx,9,2,AA,04,00,00,00,00,00,00,
13947185,00000040,false,Rx,9,3,B0,01,0C,00,00,00,00,00,
13950432,00000010,false,Rx,9,7,B0,01,0C,11,0C,0D,00,00,
13951198,0000029C,false,Rx,9,3,03,00,1A,00,00,00,00,00,
13955299,00000008,false,Rx,9,3,B0,01,10,00,00,00,00,00,
13964972,000000AA,false,Rx,9,2,AA,04,00,00,00,00,00,00,
13967114,00000040,false,Rx,9,3,B0,01,0C,00,00,00,00,00,
13969055,000002BC,false,Rx,9,3,03,00,0F,00,00,00,00,00,
13970269,00000010,false,Rx,9,7,B0,01,0C,11,0C,0D,00,00,
13975363,00000008,false,Rx,9,3,B0,01,10,00,00,00,00,00,
13984309,000000AA,false,Rx,9,2,AA,04,00,00,00,00,00,00,
13987162,00000040,false,Rx,9,3,B0,01,0C,00,00,00,00,00,
13989123,000002B4,false,Rx,9,3,03,00,02,00,00,00,00,00,
13990235,00000010,false,Rx,9,7,B0,01,0C,11,0C,0D,00,00,
13995345,00000008,false,Rx,9,3,B0,01,10,00,00,00,00,00,
14004376,000000AA,false,Rx,9,2,AA,04,00,00,00,00,00,00,
14009146,00000040,false,Rx,9,8,B0,01,0C,93,E5,00,14,00,
14009166,00000040,false,Rx,9,3,B0,35,BF,00,00,00,00,00,
14010181,000003AC,false,Rx,9,3,03,00,1D,00,00,00,00,00,
14011299,00000010,false,Rx,9,7,B0,01,0C,11,0C,0D,00,00,
14015273,00000008,false,Rx,9,3,B0,01,10,00,00,00,00,00,
14024936,000000AA,false,Rx,9,2,AA,04,00,00,00,00,00,00,
14027185,00000040,false,Rx,9,3,B0,01,0C,00,00,00,00,00,
14029195,000003A4,false,Rx,9,3,03,00,2C,00,00,00,00,00,
14030197,00000010,false,Rx,9,7,B0,01,0C,11,0C,0E,40,00,
14031070,00000010,false,Rx,9,3,B0,0D,00,00,00,00,00,00,
14035327,00000008,false,Rx,9,3,B0,01,10,00,00,00,00,00,
14044361,000000AA,false,Rx,9,2,AA,04,00,00,00,00,00,00,
14047139,00000040,false,Rx,9,3,B0,01,0C,00,00,00,00,00,
14050311,00000010,false,Rx,9,7,B0,01,0C,11,0C,0D,00,00,
14055332,00000008,false,Rx,9,3,B0,01,10,00,00,00,00,00,
14064962,000000AA,false,Rx,9,2,AA,04,00,00,00,00,00,00,
14067215,00000040,false,Rx,9,3,B0,01,0C,00,00,00,00,00,
14070513,00000010,false,Rx,9,7,B0,01,0C,11,0C,0D,00,00,
14071273,0000029C,false,Rx,9,3,03,00,1A,00,00,00,00,00,
14075661,00000008,false,Rx,9,7,B0,01,10,0C,B6,0D,09,00,
14084372,000000AA,false,Rx,9,2,AA,04,00,00,00,00,00,00,
14087150,00000040,false,Rx,9,3,B0,01,0C,00,00,00,00,00,
14089370,000002BC,false,Rx,9,3,03,00,0F,00,00,00,00,00,
14090286,00000010,false,Rx,9,7,B0,01,0C,11,0C,0D,00,00,
14095372,00000008,false,Rx,9,3,B0,01,10,00,00,00,00,00,
14104310,000000AA,false,Rx,9,2,AA,04,00,00,00,00,00,00,
14107195,00000040,false,Rx,9,3,B0,01,0C,00,00,00,00,00,
14109791,000002B4,false,Rx,9,3,03,00,0A,00,00,00,00,00,
14110310,00000010,false,Rx,9,7,B0,01,0C,11,0C,0D,00,00,
14115264,00000008,false,Rx,9,3,B0,01,10,00,00,00,00,00,
14125042,000000AA,false,Rx,9,2,AA,04,00,00,00,00,00,00,
14127180,00000040,false,Rx,9,3,B0,01,0C,00,00,00,00,00,
14129487,000003AC,false,Rx,9,3,03,00,1D,00,00,00,00,00,
14130302,00000010,false,Rx,9,7,B0,01,0C,11,0C,0D,00,00,
14135358,00000008,false,Rx,9,3,B0,01,10,00,00,00,00,00,
14144407,000000AA,false,Rx,9,2,AA,04,00,00,00,00,00,00,
14147189,00000040,false,Rx,9,3,B0,01,0C,00,00,00,00,00,
14149493,000003A4,false,Rx,9,3,03,00,2C,00,00,00,00,00,
14150226,00000010,false,Rx,9,7,B0,01,0C,11,0C,0D,00,00,
14155274,00000008,false,Rx,9,3,B0,01,10,00,00,00,00,00,
14165087,000000AA,false,Rx,9,2,AA,04,00,00,00,00,00,00,
14167234,00000040,false,Rx,9,3,B0,01,0C,00,00,00,00,00,
14170335,00000010,false,Rx,9,7,B0,01,0C,11,0C,0D,00,00,
14175327,00000008,false,Rx,9,3,B0,01,10,00,00,00,00,00,
14184372,000000AA,false,Rx,9,2,AA,04,00,00,00,00,00,00,
14187255,00000040,false,Rx,9,3,B0,01,0C,00,00,00,00,00,
14190650,00000010,false,Rx,9,7,B0,01,0C,11,0C,0D,00,00,
14191306,0000029C,false,Rx,9,3,03,00,1A,00,00,00,00,00,
14194104,00000010,false,Rx,9,4,31,08,00,35,00,00,00,00,
14195395,00000008,false,Rx,9,3,B0,01,10,00,00,00,00,00,
14205067,000000AA,false,Rx,9,2,AA,04,00,00,00,00,00,00,
14207738,00000040,false,Rx,9,8,B0,01,0C,93,E5,00,14,00,
14209646,000002BC,false,Rx,9,3,03,00,0F,00,00,00,00,00,
14211107,00000010,false,Rx,9,7,B0,01,0C,11,0C,0D,00,00,
14215321,00000008,false,Rx,9,3,B0,01,10,00,00,00,00,00,
14224373,000000AA,false,Rx,9,2,AA,04,00,00,00,00,00,00,
14227255,00000040,false,Rx,9,3,B0,01,0C,00,00,00,00,00,
14229622,000002B4,false,Rx,9,3,03,00,02,00,00,00,00,00,
14230295,00000010,false,Rx,9,7,B0,01,0C,11,0C,0E,40,00,
14231061,00000010,false,Rx,9,3,B0,0D,00,00,00,00,00,00,
14235318,00000008,false,Rx,9,3,B0,01,10,00,00,00,00,00,
14244398,000000AA,false,Rx,9,2,AA,04,00,00,00,00,00,00,
14247180,00000040,false,Rx,9,3,B0,01,0C,00,00,00,00,00,
14249695,000003AC,false,Rx,9,3,03,00,1D,00,00,00,00,00,
14250309,00000010,false,Rx,9,7,B0,01,0C,11,0C,0D,00,00,
14255378,00000008,false,Rx,9,3,B0,01,10,00,00,00,00,00,
14264424,000000AA,false,Rx,9,2,AA,04,00,00,00,00,00,00,
14267207,00000040,false,Rx,9,3,B0,01,0C,00,00,00,00,00,
14269755,000003A4,false,Rx,9,3,03,00,2C,00,00,00,00,00,
14270242,00000010,false,Rx,9,7,B0,01,0C,11,0C,0D,00,00,
14275675,00000008,false,Rx,9,7,B0,01,10,0C,B6,0D,09,00,
14284493,000000AA,false,Rx,9,2,AA,04,00,00,00,00,00,00,
14287166,00000040,false,Rx,9,3,B0,01,0C,00,00,00,00,00,
14290259,00000010,false,Rx,9,7,B0,01,0C,11,0C,0D,00,00,
14295355,00000008,false,Rx,9,3,B0,01,10,00,00,00,00,00,
14305140,000000AA,false,Rx,9,2,AA,04,00,00,00,00,00,00,
14307177,00000040,false,Rx,9,3,B0,01,0C,00,00,00,00,00,
14310558,00000010,false,Rx,9,7,B0,01,0C,11,0C,0D,00,00,
14311216,0000029C,false,Rx,9,3,03,00,1A,00,00,00,00,00,
14315285,00000008,false,Rx,9,3,B0,01,10,00,00,00,00,00,
14324420,000000AA,false,Rx,9,2,AA,04,00,00,00,00,00,00,
14327199,00000040,false,Rx,9,3,B0,01,0C,00,00,00,00,00,
14329855,000002BC,false,Rx,9,3,03,00,0F,00,00,00,00,00,
14330340,00000010,false,Rx,9,7,B0,01,0C,11,0C,0D,00,00,
14335330,00000008,false,Rx,9,3,B0,01,10,00,00,00,00,00,
14344483,000000AA,false,Rx,9,2,AA,04,00,00,00,00,00,00,
14347261,00000040,false,Rx,9,3,B0,01,0C,00,00,00,00,00,
14349897,000002B4,false,Rx,9,3,03,00,02,00,00,00,00,00,
14350288,00000010,false,Rx,9,7,B0,01,0C,11,0C,0D,00,00,
14355295,00000008,false,Rx,9,3,B0,01,10,00,00,00,00,00,
