Time Stamp,ID,Extended,Dir,Bus,LEN,D1,D2,D3,D4,D5,D6,D7,D8
633244,00001000,true,Rx,9,8,00,00,00,0F,00,00,00,00,
634672,00001001,true,Rx,9,8,00,00,00,00,00,00,00,00,
636071,00001002,true,Rx,9,8,00,00,00,00,00,00,00,00,
1633272,00001000,true,Rx,9,8,00,00,00,10,00,00,00,00,
1634686,00001001,true,Rx,9,8,00,00,00,00,00,00,00,00,
1636072,00001002,true,Rx,9,8,00,00,00,00,00,00,00,00,
2633299,00001000,true,Rx,9,8,00,00,00,11,00,00,00,00,
2634737,00001001,true,Rx,9,8,00,00,00,00,00,00,00,00,
2636140,00001002,true,Rx,9,8,00,00,00,00,00,00,00,00,
3633299,00001000,true,Rx,9,8,00,00,00,12,00,00,00,00,
3634717,00001001,true,Rx,9,8,00,00,00,00,00,00,00,00,
3636109,00001002,true,Rx,9,8,00,00,00,00,00,00,00,00,
4633337,00001000,true,Rx,9,8,00,00,00,13,00,00,00,00,
4634794,00001001,true,Rx,9,8,00,00,00,00,00,00,00,00,
4636193,00001002,true,Rx,9,8,00,00,00,00,00,00,00,00,
5633395,00001000,true,Rx,9,8,00,00,00,14,00,00,00,00,
5634813,00001001,true,Rx,9,8,00,00,00,00,00,00,00,00,
5636529,00001002,true,Rx,9,8,00,00,00,00,00,00,00,00,
6633143,00001000,true,Rx,9,8,00,00,00,15,00,00,00,00,
6634531,00001001,true,Rx,9,8,00,00,00,00,00,00,00,00,
6635737,00001002,true,Rx,9,8,00,00,00,00,00,00,00,00,
6813432,00000040,false,Rx,9,8,20,00,00,08,00,00,00,00,
6818452,00000040,false,Rx,9,8,20,00,00,08,00,00,00,00,
6875705,000000AA,false,Rx,9,2,AA,04,00,00,00,00,00,00,
6877975,000000AA,false,Rx,9,2,AA,04,00,00,00,00,00,00,
6880264,000000AA,false,Rx,9,2,AA,04,00,00,00,00,00,00,
6882413,000000AA,false,Rx,9,2,AA,04,00,00,00,00,00,00,
6884734,000000AA,false,Rx,9,2,AA,04,00,00,00,00,00,00,
6887031,000000AA,false,Rx,9,2,AA,04,00,00,00,00,00,00,
6889316,000000AA,false,Rx,9,2,AA,04,00,00,00,00,00,00,
6891447,000000AA,false,Rx,9,2,AA,04,00,00,00,00,00,00,
6892946,00000040,false,Rx,9,8,23,00,00,08,FC,80,00,00,
6893630,00000008,false,Rx,9,1,A3,00,00,00,00,00,00,00,
6894188,00000010,false,Rx,9,1,A3,00,00,00,00,00,00,00,
6898028,00000040,false,Rx,9,8,23,00,00,08,FC,80,00,00,
6898684,00000008,false,Rx,9,1,A3,00,00,00,00,00,00,00,
6899236,00000010,false,Rx,9,1,A3,00,00,00,00,00,00,00,
6904552,000000AA,false,Rx,9,2,AA,04,00,00,00,00,00,00,
6906164,00000040,false,Rx,9,8,21,00,00,08,FC,80,00,00,
6906928,00000008,false,Rx,9,1,A1,00,00,00,00,00,00,00,
6908959,00000010,false,Rx,9,1,A1,00,00,00,00,00,00,00,
6911307,00000040,false,Rx,9,8,21,00,00,08,FC,80,00,00,
6911986,00000008,false,Rx,9,1,A1,00,00,00,00,00,00,00,
6912797,00000010,false,Rx,9,1,A1,00,00,00,00,00,00,00,
6916922,000000AA,false,Rx,9,2,AA,04,00,00,00,00,00,00,
6918528,00000040,false,Rx,9,8,24,00,00,08,FC,40,00,00,
6919186,00000008,false,Rx,9,1,A4,00,00,00,00,00,00,00,
6919742,00000010,false,Rx,9,1,A4,00,00,00,00,00,00,00,
6923575,00000040,false,Rx,9,8,24,00,00,08,FC,40,00,00,
6924341,00000008,false,Rx,9,1,A4,00,00,00,00,00,00,00,
6924893,00000010,false,Rx,9,1,A4,00,00,00,00,00,00,00,
6931946,000000AA,false,Rx,9,2,AA,04,00,00,00,00,00,00,
6935702,000000AA,false,Rx,9,2,AA,04,00,00,00,00,00,00,
6939430,000000AA,false,Rx,9,2,AA,04,00,00,00,00,00,00,
6943160,000000AA,false,Rx,9,2,AA,04,00,00,00,00,00,00,
6947002,000000AA,false,Rx,9,2,AA,04,00,00,00,00,00,00,
6950897,000000AA,false,Rx,9,2,AA,04,00,00,00,00,00,00,
6954667,000000AA,false,Rx,9,2,AA,04,00,00,00,00,00,00,
6958415,000000AA,false,Rx,9,2,AA,04,00,00,00,00,00,00,
6962252,000000AA,false,Rx,9,2,AA,04,00,00,00,00,00,00,
6965983,000000AA,false,Rx,9,2,AA,04,00,00,00,00,00,00,
6969912,000000AA,false,Rx,9,2,AA,04,00,00,00,00,00,00,
6973702,000000AA,false,Rx,9,2,AA,04,00,00,00,00,00,00,
6977441,000000AA,false,Rx,9,2,AA,04,00,00,00,00,00,00,
6981279,000000AA,false,Rx,9,2,AA,04,00,00,00,00,00,00,
6985111,000000AA,false,Rx,9,2,AA,04,00,00,00,00,00,00,
6989474,000000AA,false,Rx,9,2,AA,04,00,00,00,00,00,00,
6992748,000000AA,false,Rx,9,2,AA,04,00,00,00,00,00,00,
6996517,000000AA,false,Rx,9,2,AA,04,00,00,00,00,00,00,
7000377,000000AA,false,Rx,9,2,AA,04,00,00,00,00,00,00,
7004214,000000AA,false,Rx,9,2,AA,04,00,00,00,00,00,00,
7009390,000000AA,false,Rx,9,2,AA,04,00,00,00,00,00,00,
7011775,000000AA,false,Rx,9,2,AA,04,00,00,00,00,00,00,
7015649,000000AA,false,Rx,9,2,AA,04,00,00,00,00,00,00,
7019498,000000AA,false,Rx,9,2,AA,04,00,00,00,00,00,00,
7023336,000000AA,false,Rx,9,2,AA,04,00,00,00,00,00,00,
7027067,000000AA,false,Rx,9,2,AA,04,00,00,00,00,00,00,
7030971,000000AA,false,Rx,9,2,AA,04,00,00,00,00,00,00,
7034769,000000AA,false,Rx,9,2,AA,04,00,00,00,00,00,00,
7038511,000000AA,false,Rx,9,2,AA,04,00,00,00,00,00,00,
7042360,000000AA,false,Rx,9,2,AA,04,00,00,00,00,00,00,
7046312,000000AA,false,Rx,9,2,AA,04,00,00,00,00,00,00,
7050449,000000AA,false,Rx,9,2,AA,04,00,00,00,00,00,00,
7052726,000000AA,false,Rx,9,2,AA,04,00,00,00,00,00,00,
7056455,00000040,false,Rx,9,8,27,00,00,FD,00,80,00,00,
7061352,00000040,false,Rx,9,8,13,01,00,00,00,FF,00,00,
7076628,000000AA,false,Rx,9,2,AA,04,00,00,00,00,00,00,
7081084,0000029C,false,Rx,9,3,03,00,1A,00,00,00,00,00,
7086849,00000010,false,Rx,9,4,30,08,00,01,00,00,00,00,
7087928,00000040,false,Rx,9,3,B0,01,10,00,00,00,00,00,
7096731,000000AA,false,Rx,9,2,AA,04,00,00,00,00,00,00,
7099528,00000040,false,Rx,9,3,B0,01,10,00,00,00,00,00,
7103469,000002BC,false,Rx,9,3,03,00,0B,00,00,00,00,00,
7117363,000000AA,false,Rx,9,2,AA,04,00,00,00,00,00,00,
7119423,00000040,false,Rx,9,3,B0,01,10,00,00,00,00,00,
7122094,000002B4,false,Rx,9,3,03,00,0A,00,00,00,00,00,
7123386,00000008,false,Rx,9,3,B0,01,02,00,00,00,00,00,
7124257,00000040,false,Rx,9,5,30,02,00,01,08,00,00,00,
7125338,00000010,false,Rx,9,3,B0,01,00,00,00,00,00,00,
7136737,000000AA,false,Rx,9,2,AA,04,00,00,00,00,00,00,
7139528,00000040,false,Rx,9,3,B0,01,0C,00,00,00,00,00,
7141563,000003AC,false,Rx,9,3,03,00,1D,00,00,00,00,00,
7143385,00000010,false,Rx,9,3,B0,01,02,00,00,00,00,00,
7145628,00000008,false,Rx,9,5,B0,01,02,0C,B6,00,00,00,
7147239,00000008,false,Rx,9,8,10,00,00,00,00,FF,00,00,
7152873,00000040,false,Rx,9,8,90,01,00,00,06,29,00,00,
7157374,000000AA,false,Rx,9,2,AA,04,00,00,00,00,00,00,
7159513,00000040,false,Rx,9,3,B0,01,10,00,00,00,00,00,
7161548,000003A4,false,Rx,9,3,03,00,2C,00,00,00,00,00,
7163374,00000010,false,Rx,9,3,B0,01,02,00,00,00,00,00,
7165513,00000008,false,Rx,9,3,B0,01,02,00,00,00,00,00,
7167233,00000008,false,Rx,9,8,10,00,00,01,06,29,00,00,
7169979,00000040,false,Rx,9,8,90,01,00,01,47,22,00,00,
7176743,000000AA,false,Rx,9,2,AA,04,00,00,00,00,00,00,
7179536,00000040,false,Rx,9,3,B0,01,10,00,00,00,00,00,
7183265,00000010,false,Rx,9,3,B0,01,02,00,00,00,00,00,
7185829,00000008,false,Rx,9,3,B0,01,0C,00,00,00,00,00,
7187228,00000008,false,Rx,9,8,12,00,00,00,7F,00,00,00,
7190078,00000008,false,Rx,9,4,30,02,00,11,00,00,00,00,
7190468,00000040,false,Rx,9,8,13,02,00,00,00,FF,00,00,
7191126,00000010,false,Rx,9,3,B0,11,10,00,00,00,00,00,
7197345,000000AA,false,Rx,9,2,AA,04,00,00,00,00,00,00,
7199393,00000040,false,Rx,9,3,B0,01,10,00,00,00,00,00,
7202443,0000029C,false,Rx,9,3,03,00,1A,00,00,00,00,00,
7204180,00000010,false,Rx,9,5,B0,01,0C,11,10,00,00,00,
7205367,00000010,false,Rx,9,8,10,00,00,00,00,FF,00,00,
7206130,00000008,false,Rx,9,3,B0,01,0C,00,00,00,00,00,
7212800,00000040,false,Rx,9,8,90,02,00,00,02,7C,00,00,
7216680,000000AA,false,Rx,9,2,AA,04,00,00,00,00,00,00,
7219563,00000040,false,Rx,9,3,B0,01,0C,00,00,00,00,00,
7221712,000002BC,false,Rx,9,3,03,00,0B,00,00,00,00,00,
7225018,00000010,false,Rx,9,5,B0,01,0C,11,0C,00,00,00,
7225672,00000008,false,Rx,9,3,B0,01,0C,00,00,00,00,00,
7226863,00000010,false,Rx,9,8,10,00,00,01,02,7C,00,00,
7228368,00000040,false,Rx,9,8,90,02,00,01,47,22,00,00,
7236746,000000AA,false,Rx,9,2,AA,04,00,00,00,00,00,00,
7239446,00000040,false,Rx,9,3,B0,01,0C,00,00,00,00,00,
7241162,000002B4,false,Rx,9,3,03,00,0A,00,00,00,00,00,
7243411,00000040,false,Rx,9,5,30,02,00,0E,03,00,00,00,
7244386,00000010,false,Rx,9,5,B0,01,0C,11,0C,00,00,00,
7245573,00000010,false,Rx,9,8,12,00,00,00,00,16,00,00,
7246338,00000008,false,Rx,9,3,B0,01,0C,00,00,00,00,00,
7246995,00000010,false,Rx,9,3,B0,0E,00,00,00,00,00,00,
7247970,00000040,false,Rx,9,5,30,02,00,0D,03,00,00,00,
7250122,00000010,false,Rx,9,4,30,01,00,0F,00,00,00,00,
7250141,00000010,false,Rx,9,4,30,01,00,0E,00,00,00,00,
7250804,00000040,false,Rx,9,5,30,01,00,0D,03,00,00,00,
7251655,00000010,false,Rx,9,4,30,01,00,07,00,00,00,00,
7252537,00000010,false,Rx,9,4,30,08,00,14,00,00,00,00,
7253942,00000010,false,Rx,9,3,B0,0D,00,00,00,00,00,00,
7254869,00000010,false,Rx,9,4,30,08,00,13,00,00,00,00,
7256796,000000AA,false,Rx,9,2,AA,04,00,00,00,00,00,00,
7258299,00000010,false,Rx,9,4,30,08,00,12,00,00,00,00,
7259589,00000040,false,Rx,9,6,B0,01,0C,92,FF,FF,00,00,
7261308,00000040,false,Rx,9,6,B0,93,E5,00,14,00,00,00,
7262710,000003AC,false,Rx,9,3,03,00,1D,00,00,00,00,00,
7264633,00000010,false,Rx,9,7,B0,01,0C,11,0C,0D,00,00,
7265928,00000008,false,Rx,9,7,B0,01,0C,0F,FF,0E,00,00,
7267010,00000008,false,Rx,9,5,B0,0D,00,07,10,00,00,00,
7276779,000000AA,false,Rx,9,2,AA,04,00,00,00,00,00,00,
7278844,00000040,false,Rx,9,3,B0,01,0C,00,00,00,00,00,
7284370,00000010,false,Rx,9,7,B0,01,0C,11,0C,0E,00,00,
7285239,00000010,false,Rx,9,3,B0,0D,10,00,00,00,00,00,
7286317,00000008,false,Rx,9,7,B0,01,0C,0F,FF,07,10,00,
7287080,000003A4,false,Rx,9,3,03,00,2C,00,00,00,00,00,
7296942,000000AA,false,Rx,9,2,AA,04,00,00,00,00,00,00,
7299000,00000040,false,Rx,9,3,B0,01,0C,00,00,00,00,00,
7304250,00000010,false,Rx,9,7,B0,01,0C,11,0C,0D,10,00,
7306287,00000008,false,Rx,9,7,B0,01,0C,0F,FF,07,10,00,
7317403,000000AA,false,Rx,9,2,AA,04,00,00,00,00,00,00,
7319470,00000040,false,Rx,9,3,B0,01,0C,00,00,00,00,00,
7322841,0000029C,false,Rx,9,3,03,00,1A,00,00,00,00,00,
7324473,00000010,false,Rx,9,7,B0,01,0C,11,0C,0D,10,00,
7326298,00000008,false,Rx,9,7,B0,01,0C,0C,B6,0F,FF,00,
7328228,00000008,false,Rx,9,7,B0,0E,00,0D,00,07,10,00,
7338498,000000AA,false,Rx,9,2,AA,04,00,00,00,00,00,00,
7340878,00000040,false,Rx,9,3,B0,01,0C,00,00,00,00,00,
7344500,00000010,false,Rx,9,7,B0,01,0C,11,0C,0D,10,00,
7346006,00000008,false,Rx,9,7,B0,01,0C,0F,FF,07,10,00,
7353098,000002BC,false,Rx,9,3,03,00,0B,00,00,00,00,00,
7356862,000000AA,false,Rx,9,2,AA,04,00,00,00,00,00,00,
7358894,00000040,false,Rx,9,3,B0,01,0C,00,00,00,00,00,
7364214,00000010,false,Rx,9,7,B0,01,0C,11,0C,0D,10,00,
7366354,00000008,false,Rx,9,7,B0,01,0C,0F,FF,07,10,00,
7376999,000002B4,false,Rx,9,3,03,00,0A,00,00,00,00,00,
7378744,000000AA,false,Rx,9,2,AA,04,00,00,00,00,00,00,
7380033,00000040,false,Rx,9,3,B0,01,0C,00,00,00,00,00,
7384187,00000010,false,Rx,9,7,B0,01,0C,11,0C,0D,10,00,
7386369,00000008,false,Rx,9,7,B0,01,0C,0F,FF,07,10,00,
7396983,000003AC,false,Rx,9,3,03,00,1D,00,00,00,00,00,
7398761,000000AA,false,Rx,9,2,AA,04,00,00,00,00,00,00,
7400060,00000040,false,Rx,9,3,B0,01,0C,00,00,00,00,00,
7404249,00000010,false,Rx,9,7,B0,01,0C,11,0C,0D,10,00,
7406290,00000008,false,Rx,9,7,B0,01,0C,0F,FF,07,10,00,
7416800,000000AA,false,Rx,9,2,AA,04,00,00,00,00,00,00,
7420455,00000040,false,Rx,9,3,B0,01,0C,00,00,00,00,00,
7424185,00000010,false,Rx,9,7,B0,01,0C,11,0C,0D,10,00,
7424949,000003A4,false,Rx,9,3,03,00,2C,00,00,00,00,00,
7426347,00000008,false,Rx,9,7,B0,01,0C,0F,FF,07,10,00,
7436853,000000AA,false,Rx,9,2,AA,04,00,00,00,00,00,00,
7438915,00000040,false,Rx,9,3,B0,01,0C,00,00,00,00,00,
7444233,00000010,false,Rx,9,7,B0,01,0C,11,0C,0D,10,00,
7446268,00000008,false,Rx,9,7,B0,01,0C,0F,FF,07,10,00,
7457795,000000AA,false,Rx,9,2,AA,04,00,00,00,00,00,00,
7460083,00000040,false,Rx,9,6,B0,01,0C,92,FF,FF,00,00,
7461376,00000040,false,Rx,9,6,B0,93,E5,00,14,00,00,00,
7464111,0000029C,false,Rx,9,3,03,00,1A,00,00,00,00,00,
7465634,00000010,false,Rx,9,7,B0,01,0C,11,0C,0D,10,00,
7466608,00000008,false,Rx,9,7,B0,01,0C,0F,FF,07,10,00,
7476890,000000AA,false,Rx,9,2,AA,04,00,00,00,00,00,00,
7478958,00000040,false,Rx,9,3,B0,01,0C,00,00,00,00,00,
7480782,000002BC,false,Rx,9,3,03,00,0B,00,00,00,00,00,
7484298,00000010,false,Rx,9,7,B0,01,0C,11,0C,0E,00,00,
7485165,00000010,false,Rx,9,3,B0,0D,10,00,00,00,00,00,
7486352,00000008,false,Rx,9,7,B0,01,0C,0F,FF,07,10,00,
7496870,000000AA,false,Rx,9,2,AA,04,00,00,00,00,00,00,
7499668,00000040,false,Rx,9,3,B0,01,0C,00,00,00,00,00,
7501358,000002B4,false,Rx,9,3,03,00,0A,00,00,00,00,00,
7504244,00000010,false,Rx,9,7,B0,01,0C,11,0C,0D,10,00,
7506412,00000008,false,Rx,9,7,B0,01,0C,0F,FF,07,10,00,
7517538,000000AA,false,Rx,9,2,AA,04,00,00,00,00,00,00,
7519597,00000040,false,Rx,9,3,B0,01,0C,00,00,00,00,00,
7521318,000003AC,false,Rx,9,3,03,00,1D,00,00,00,00,00,
7524306,00000010,false,Rx,9,7,B0,01,0C,11,0C,0D,10,00,
7526233,00000008,false,Rx,9,7,B0,01,0C,0C,B6,0F,FF,00,
7527418,00000008,false,Rx,9,7,B0,0E,00,0D,00,07,10,00,
7536835,000000AA,false,Rx,9,2,AA,04,00,00,00,00,00,00,
7539528,00000040,false,Rx,9,3,B0,01,0C,00,00,00,00,00,
7541247,000003A4,false,Rx,9,3,03,00,2C,00,00,00,00,00,
7544272,00000010,false,Rx,9,7,B0,01,0C,11,0C,0D,10,00,
7546308,00000008,false,Rx,9,7,B0,01,0C,0F,FF,07,10,00,
7556923,000000AA,false,Rx,9,2,AA,04,00,00,00,00,00,00,
7559728,00000040,false,Rx,9,3,B0,01,0C,00,00,00,00,00,
7564199,00000010,false,Rx,9,7,B0,01,0C,11,0C,0D,10,00,
7566341,00000008,false,Rx,9,7,B0,01,0C,0F,FF,07,10,00,
7576902,000000AA,false,Rx,9,2,AA,04,00,00,00,00,00,00,
7579596,00000040,false,Rx,9,3,B0,01,0C,00,00,00,00,00,
7582643,0000029C,false,Rx,9,3,03,00,1A,00,00,00,00,00,
7584596,00000010,false,Rx,9,7,B0,01,0C,11,0C,0D,10,00,
7586423,00000008,false,Rx,9,7,B0,01,0C,0F,FF,07,10,00,
7596932,000000AA,false,Rx,9,2,AA,04,00,00,00,00,00,00,
7599619,00000040,false,Rx,9,3,B0,01,0C,00,00,00,00,00,
7601338,000002BC,false,Rx,9,3,03,00,0B,00,00,00,00,00,
7604368,00000010,false,Rx,9,7,B0,01,0C,11,0C,0D,10,00,
7606303,00000008,false,Rx,9,7,B0,01,0C,0F,FF,07,10,00,
7616932,000000AA,false,Rx,9,2,AA,04,00,00,00,00,00,00,
7619626,00000040,false,Rx,9,3,B0,01,0C,00,00,00,00,00,
7621344,000002B4,false,Rx,9,3,03,00,0A,00,00,00,00,00,
7624328,00000010,false,Rx,9,7,B0,01,0C,11,0C,0D,10,00,
7626362,00000008,false,Rx,9,7,B0,01,0C,0F,FF,07,10,00,
7633192,00001000,true,Rx,9,8,00,00,00,16,00,00,00,F9,
7635050,00001001,true,Rx,9,8,00,00,00,00,00,00,00,00,
7636486,00001002,true,Rx,9,8,00,00,00,00,00,00,00,00,
7638451,000000AA,false,Rx,9,2,AA,04,00,00,00,00,00,00,
7639716,00000040,false,Rx,9,3,B0,01,0C,00,00,00,00,00,
7641476,000003AC,false,Rx,9,3,03,00,1D,00,00,00,00,00,
7644378,00000010,false,Rx,9,7,B0,01,0C,11,0C,0D,10,00,
7646306,00000008,false,Rx,9,7,B0,01,0C,0F,FF,07,10,00,
7651072,00000010,false,Rx,9,4,30,08,00,2C,00,00,00,00,
7651092,00000040,false,Rx,9,3,B0,2C,B3,00,00,00,00,00,
7656917,000000AA,false,Rx,9,2,AA,04,00,00,00,00,00,00,
7660029,00000040,false,Rx,9,6,B0,01,0C,92,FF,FF,00,00,
7661638,00000040,false,Rx,9,8,B0,93,E5,00,14,00,2C,B3,
7663039,000003A4,false,Rx,9,3,03,00,2C,00,00,00,00,00,
7665392,00000010,false,Rx,9,7,B0,01,0C,11,0C,0D,10,00,
7666368,00000008,false,Rx,9,7,B0,01,0C,0F,FF,07,10,00,
7676939,000000AA,false,Rx,9,2,AA,04,00,00,00,00,00,00,
7679754,00000040,false,Rx,9,3,B0,01,0C,00,00,00,00,00,
7684226,00000010,false,Rx,9,7,B0,01,0C,11,0C,0E,00,00,
7685094,00000010,false,Rx,9,3,B0,0D,10,00,00,00,00,00,
7686386,00000008,false,Rx,9,7,B0,01,0C,0F,FF,07,10,00,
7696922,000000AA,false,Rx,9,2,AA,04,00,00,00,00,00,00,
7699726,00000040,false,Rx,9,3,B0,01,0C,00,00,00,00,00,
7702776,0000029C,false,Rx,9,3,03,00,1A,00,00,00,00,00,
7704513,00000010,false,Rx,9,7,B0,01,0C,11,0C,0D,10,00,
7706514,00000008,false,Rx,9,7,B0,01,0C,0F,FF,07,10,00,
7716926,000000AA,false,Rx,9,2,AA,04,00,00,00,00,00,00,
7719849,00000040,false,Rx,9,3,B0,01,0C,00,00,00,00,00,
7721563,000002BC,false,Rx,9,3,03,00,0B,00,00,00,00,00,
7724344,00000010,false,Rx,9,7,B0,01,0C,11,0C,0D,10,00,
7726273,00000008,false,Rx,9,7,B0,01,0C,0C,B6,0F,FF,00,
7727565,00000008,false,Rx,9,7,B0,0E,00,0D,00,07,10,00,
7736965,000000AA,false,Rx,9,2,AA,04,00,00,00,00,00,00,
7739654,00000040,false,Rx,9,3,B0,01,0C,00,00,00,00,00,
7741476,000002B4,false,Rx,9,3,03,00,0A,00,00,00,00,00,
7744359,00000010,false,Rx,9,7,B0,01,0C,11,0C,0D,10,00,
7746392,00000008,false,Rx,9,7,B0,01,0C,0F,FF,07,10,00,
7757639,000000AA,false,Rx,9,2,AA,04,00,00,00,00,00,00,
7759691,00000040,false,Rx,9,3,B0,01,0C,00,00,00,00,00,
7761411,000003AC,false,Rx,9,3,03,00,1D,00,00,00,00,00,
7764295,00000010,false,Rx,9,7,B0,01,0C,11,0C,0D,10,00,
7766433,00000008,false,Rx,9,7,B0,01,0C,0F,FD,07,10,00,
7777664,000000AA,false,Rx,9,2,AA,04,00,00,00,00,00,00,
7779729,00000040,false,Rx,9,3,B0,01,0C,00,00,00,00,00,
7781444,000003A4,false,Rx,9,3,03,00,2C,00,00,00,00,00,
7784325,00000010,false,Rx,9,7,B0,01,0C,11,0C,0D,10,00,
7786359,00000008,false,Rx,9,7,B0,01,0C,0F,FD,07,10,00,
7796946,000000AA,false,Rx,9,2,AA,04,00,00,00,00,00,00,
7799752,00000040,false,Rx,9,3,B0,01,0C,00,00,00,00,00,
7804224,00000010,false,Rx,9,7,B0,01,0C,11,0C,0D,10,00,
7806362,00000008,false,Rx,9,7,B0,01,0C,0F,FA,07,10,00,
7816999,000000AA,false,Rx,9,2,AA,04,00,00,00,00,00,00,
7819722,00000040,false,Rx,9,3,B0,01,0C,00,00,00,00,00,
7822769,0000029C,false,Rx,9,3,03,00,1A,00,00,00,00,00,
7824608,00000010,false,Rx,9,7,B0,01,0C,11,0C,0D,10,00,
7826536,00000008,false,Rx,9,7,B0,01,0C,0F,FA,07,10,00,
7836998,000000AA,false,Rx,9,2,AA,04,00,00,00,00,00,00,
7839810,00000040,false,Rx,9,3,B0,01,0C,00,00,00,00,00,
7841524,000002BC,false,Rx,9,3,03,00,0B,00,00,00,00,00,
7844301,00000010,false,Rx,9,7,B0,01,0C,11,0C,0D,10,00,
7846335,00000008,false,Rx,9,7,B0,01,0C,0F,FA,07,10,00,
7857015,000000AA,false,Rx,9,2,AA,04,00,00,00,00,00,00,
7860133,00000040,false,Rx,9,6,B0,01,0C,92,FF,FF,00,00,
7861748,00000040,false,Rx,9,8,B0,93,E5,00,14,00,2C,B3,
7863145,000002B4,false,Rx,9,3,03,00,0A,00,00,00,00,00,
7865391,00000010,false,Rx,9,7,B0,01,0C,11,0C,0D,10,00,
7866473,00000008,false,Rx,9,7,B0,01,0C,0F,F7,07,10,00,
7877052,000000AA,false,Rx,9,2,AA,04,00,00,00,00,00,00,
7879863,00000040,false,Rx,9,3,B0,01,0C,00,00,00,00,00,
7881574,000003AC,false,Rx,9,3,03,00,1D,00,00,00,00,00,
7884389,00000010,false,Rx,9,7,B0,01,0C,11,0C,0E,00,00,
7885226,00000010,false,Rx,9,3,B0,0D,10,00,00,00,00,00,
7886480,00000008,false,Rx,9,7,B0,01,0C,0F,F7,07,10,00,
7897656,000000AA,false,Rx,9,2,AA,04,00,00,00,00,00,00,
7899823,00000040,false,Rx,9,3,B0,01,0C,00,00,00,00,00,
7901536,000003A4,false,Rx,9,3,03,00,2C,00,00,00,00,00,
7904313,00000010,false,Rx,9,7,B0,01,0C,11,0C,0D,10,00,
7906349,00000008,false,Rx,9,7,B0,01,0C,0F,F3,07,10,00,
7917093,000000AA,false,Rx,9,2,AA,04,00,00,00,00,00,00,
7919889,00000040,false,Rx,9,3,B0,01,0C,00,00,00,00,00,
7924254,00000010,false,Rx,9,7,B0,01,0C,11,0C,0D,10,00,
7926287,00000008,false,Rx,9,7,B0,01,0C,0C,B6,0F,F3,00,
7927578,00000008,false,Rx,9,7,B0,0E,00,0D,00,07,10,00,
7937085,000000AA,false,Rx,9,2,AA,04,00,00,00,00,00,00,
7939795,00000040,false,Rx,9,3,B0,01,0C,00,00,00,00,00,
7942844,0000029C,false,Rx,9,3,03,00,1A,00,00,00,00,00,
7944579,00000010,false,Rx,9,7,B0,01,0C,11,0C,0D,10,00,
7946508,00000008,false,Rx,9,7,B0,01,0C,0F,F3,07,10,00,
7957060,000000AA,false,Rx,9,2,AA,04,00,00,00,00,00,00,
7959760,00000040,false,Rx,9,3,B0,01,0C,00,00,00,00,00,
7961578,000002BC,false,Rx,9,3,03,00,0B,00,00,00,00,00,
7964357,00000010,false,Rx,9,7,B0,01,0C,11,0C,0D,10,00,
7966392,00000008,false,Rx,9,7,B0,01,0C,0F,F0,07,10,00,
7977773,000000AA,false,Rx,9,2,AA,04,00,00,00,00,00,00,
7979829,00000040,false,Rx,9,3,B0,01,0C,00,00,00,00,00,
7981544,000002B4,false,Rx,9,3,03,00,0A,00,00,00,00,00,
7984322,00000010,false,Rx,9,7,B0,01,0C,11,0C,0D,10,00,
7986357,00000008,false,Rx,9,7,B0,01,0C,0F,F0,07,10,00,
7997702,000000AA,false,Rx,9,2,AA,04,00,00,00,00,00,00,
7999757,00000040,false,Rx,9,3,B0,01,0C,00,00,00,00,00,
8001575,000003AC,false,Rx,9,3,03,00,1D,00,00,00,00,00,
8004354,00000010,false,Rx,9,7,B0,01,0C,11,0C,0D,10,00,
8006385,00000008,false,Rx,9,7,B0,01,0C,0F,F0,07,10,00,
8017115,000000AA,false,Rx,9,2,AA,04,00,00,00,00,00,00,
8019821,00000040,false,Rx,9,3,B0,01,0C,00,00,00,00,00,
8021641,000003A4,false,Rx,9,3,03,00,2C,00,00,00,00,00,
8024418,00000010,false,Rx,9,7,B0,01,0C,11,0C,0D,10,00,
8026451,00000008,false,Rx,9,7,B0,01,0C,0F,ED,07,10,00,
8037085,000000AA,false,Rx,9,2,AA,04,00,00,00,00,00,00,
8039886,00000040,false,Rx,9,3,B0,01,0C,00,00,00,00,00,
8044299,00000010,false,Rx,9,7,B0,01,0C,11,0C,0D,10,00,
8046446,00000008,false,Rx,9,7,B0,01,0C,0F,ED,07,10,00,
8049643,00000010,false,Rx,9,4,30,08,00,2D,00,00,00,00,
8050408,00000010,false,Rx,9,4,31,08,00,2C,00,00,00,00,
8052090,00000040,false,Rx,9,3,B0,2D,A6,00,00,00,00,00,
8057067,000000AA,false,Rx,9,2,AA,04,00,00,00,00,00,00,
8060164,00000040,false,Rx,9,6,B0,01,0C,92,FF,FF,00,00,
8061778,00000040,false,Rx,9,8,B0,93,E5,00,14,00,2D,A6,
8064403,0000029C,false,Rx,9,3,03,00,1A,00,00,00,00,00,
8065928,00000010,false,Rx,9,7,B0,01,0C,11,0C,0D,10,00,
8067010,00000008,false,Rx,9,7,B0,01,0C,0F,ED,07,10,00,
8077091,000000AA,false,Rx,9,2,AA,04,00,00,00,00,00,00,
8079898,00000040,false,Rx,9,3,B0,01,0C,00,00,00,00,00,
8081613,000002BC,false,Rx,9,3,03,00,0B,00,00,00,00,00,
8084392,00000010,false,Rx,9,7,B0,01,0C,11,0C,0E,00,00,
8085260,00000010,false,Rx,9,3,B0,0D,10,00,00,00,00,00,
8086341,00000008,false,Rx,9,7,B0,01,0C,0F,E9,07,10,00,
8097158,000000AA,false,Rx,9,2,AA,04,00,00,00,00,00,00,
8099964,00000040,false,Rx,9,3,B0,01,0C,00,00,00,00,00,
8101678,000002B4,false,Rx,9,3,03,00,0A,00,00,00,00,00,
8104352,00000010,false,Rx,9,7,B0,01,0C,11,0C,0D,10,00,
8106386,00000008,false,Rx,9,7,B0,01,0C,0F,E9,07,10,00,
8117817,000000AA,false,Rx,9,2,AA,04,00,00,00,00,00,00,
8119902,00000040,false,Rx,9,3,B0,01,0C,00,00,00,00,00,
8122050,000003AC,false,Rx,9,3,03,00,1D,00,00,00,00,00,
8124403,00000010,false,Rx,9,7,B0,01,0C,11,0C,0D,10,00,
8126228,00000008,false,Rx,9,7,B0,01,0C,0C,B6,0F,E6,00,
8127521,00000008,false,Rx,9,7,B0,0E,00,0D,00,07,10,00,
8137783,000000AA,false,Rx,9,2,AA,04,00,00,00,00,00,00,
8139867,00000040,false,Rx,9,3,B0,01,0C,00,00,00,00,00,
8142536,000003A4,false,Rx,9,3,03,00,2C,00,00,00,00,00,
8144359,00000010,false,Rx,9,7,B0,01,0C,11,0C,0D,10,00,
8146497,00000008,false,Rx,9,7,B0,01,0C,0F,E6,07,10,00,
8157818,000000AA,false,Rx,9,2,AA,04,00,00,00,00,00,00,
8159888,00000040,false,Rx,9,3,B0,01,0C,00,00,00,00,00,
8164357,00000010,false,Rx,9,7,B0,01,0C,11,0C,0D,10,00,
8166392,00000008,false,Rx,9,7,B0,01,0C,0F,E6,07,10,00,
8177211,000000AA,false,Rx,9,2,AA,04,00,00,00,00,00,00,
8179906,00000040,false,Rx,9,3,B0,01,0C,00,00,00,00,00,
8182954,0000029C,false,Rx,9,3,03,00,1A,00,00,00,00,00,
8184581,00000010,false,Rx,9,7,B0,01,0C,11,0C,0D,10,00,
8186508,00000008,false,Rx,9,7,B0,01,0C,0F,E3,07,10,00,
8197116,000000AA,false,Rx,9,2,AA,04,00,00,00,00,00,00,
8200133,00000040,false,Rx,9,3,B0,01,0C,00,00,00,00,00,
8201853,000002BC,false,Rx,9,3,03,00,0B,00,00,00,00,00,
8204416,00000010,false,Rx,9,7,B0,01,0C,11,0C,0D,10,00,
8206449,00000008,false,Rx,9,7,B0,01,0C,0F,E3,07,10,00,
8217925,000000AA,false,Rx,9,2,AA,04,00,00,00,00,00,00,
8219971,00000040,false,Rx,9,3,B0,01,0C,00,00,00,00,00,
8221731,000002B4,false,Rx,9,3,03,00,0A,00,00,00,00,00,
8224416,00000010,false,Rx,9,7,B0,01,0C,11,0C,0D,10,00,
8226449,00000008,false,Rx,9,7,B0,01,0C,0F,DF,07,10,00,
8237150,000000AA,false,Rx,9,2,AA,04,00,00,00,00,00,00,
8239959,00000040,false,Rx,9,3,B0,01,0C,00,00,00,00,00,
8241672,000003AC,false,Rx,9,3,03,00,1D,00,00,00,00,00,
8244449,00000010,false,Rx,9,7,B0,01,0C,11,0C,0D,10,00,
8246375,00000008,false,Rx,9,7,B0,01,0C,0F,DF,07,10,00,
8257816,000000AA,false,Rx,9,2,AA,04,00,00,00,00,00,00,
8260194,00000040,false,Rx,9,6,B0,01,0C,92,FF,FF,00,00,
8261807,00000040,false,Rx,9,8,B0,93,E5,00,14,00,2D,A6,
8263310,000003A4,false,Rx,9,3,03,00,2C,00,00,00,00,00,
8265449,00000010,false,Rx,9,7,B0,01,0C,11,0C,0D,10,00,
8266528,00000008,false,Rx,9,7,B0,01,0C,0F,DF,07,10,00,
8277211,000000AA,false,Rx,9,2,AA,04,00,00,00,00,00,00,
8280128,00000040,false,Rx,9,3,B0,01,0C,00,00,00,00,00,
8284280,00000010,false,Rx,9,7,B0,01,0C,11,0C,0E,00,00,
8285148,00000010,false,Rx,9,3,B0,0D,10,00,00,00,00,00,
8286441,00000008,false,Rx,9,7,B0,01,0C,0F,DC,07,10,00,
8297240,000000AA,false,Rx,9,2,AA,04,00,00,00,00,00,00,
8300034,00000040,false,Rx,9,3,B0,01,0C,00,00,00,00,00,
8303085,0000029C,false,Rx,9,3,03,00,1A,00,00,00,00,00,
8304607,00000010,false,Rx,9,7,B0,01,0C,11,0C,0D,10,00,
8306536,00000008,false,Rx,9,7,B0,01,0C,0F,DC,07,10,00,
8317270,000000AA,false,Rx,9,2,AA,04,00,00,00,00,00,00,
8320115,00000040,false,Rx,9,3,B0,01,0C,00,00,00,00,00,
8321839,000002BC,false,Rx,9,3,03,00,0B,00,00,00,00,00,
8324443,00000010,false,Rx,9,7,B0,01,0C,11,0C,0D,10,00,
8326271,00000008,false,Rx,9,7,B0,01,0C,0C,B6,0F,DC,00,
8327562,00000008,false,Rx,9,7,B0,0E,00,0D,09,07,10,00,
8337219,000000AA,false,Rx,9,2,AA,04,00,00,00,00,00,00,
8340022,00000040,false,Rx,9,3,B0,01,0C,00,00,00,00,00,
8342059,000002B4,false,Rx,9,3,03,00,0A,00,00,00,00,00,
8344411,00000010,false,Rx,9,7,B0,01,0C,11,0C,0D,10,00,
8346446,00000008,false,Rx,9,7,B0,01,0C,0F,D8,07,10,00,
8357276,000000AA,false,Rx,9,2,AA,04,00,00,00,00,00,00,
8359962,00000040,false,Rx,9,3,B0,01,0C,00,00,00,00,00,
8361675,000003AC,false,Rx,9,3,03,00,1D,00,00,00,00,00,
8364452,00000010,false,Rx,9,7,B0,01,0C,11,0C,0D,10,00,
8366382,00000008,false,Rx,9,7,B0,01,0C,0F,D8,07,10,00,
8377204,000000AA,false,Rx,9,2,AA,04,00,00,00,00,00,00,
8380012,00000040,false,Rx,9,3,B0,01,0C,00,00,00,00,00,
8381774,000003A4,false,Rx,9,3,03,00,2C,00,00,00,00,00,
8384480,00000010,false,Rx,9,7,B0,01,0C,11,0C,0D,10,00,
8386551,00000008,false,Rx,9,7,B0,01,0C,0F,D8,07,10,00,
8397248,000000AA,false,Rx,9,2,AA,04,00,00,00,00,00,00,
8400059,00000040,false,Rx,9,3,B0,01,0C,00,00,00,00,00,
8404318,00000010,false,Rx,9,7,B0,01,0C,11,0C,0D,10,00,
8406457,00000008,false,Rx,9,7,B0,01,0C,0F,D5,07,10,00,
8417556,000000AA,false,Rx,9,2,AA,04,00,00,00,00,00,00,
8420075,00000040,false,Rx,9,3,B0,01,0C,00,00,00,00,00,
8423081,0000029C,false,Rx,9,3,03,00,1A,00,00,00,00,00,
8424612,00000010,false,Rx,9,7,B0,01,0C,11,0C,0D,10,00,
8426566,00000008,false,Rx,9,7,B0,01,0C,0F,D5,07,10,00,
8437266,000000AA,false,Rx,9,2,AA,04,00,00,00,00,00,00,
8440076,00000040,false,Rx,9,3,B0,01,0C,00,00,00,00,00,
8441796,000002BC,false,Rx,9,3,03,00,0B,00,00,00,00,00,
8444462,00000010,false,Rx,9,7,B0,01,0C,11,0C,0D,10,00,
8446391,00000008,false,Rx,9,7,B0,01,0C,0F,D5,07,10,00,
8449702,00000010,false,Rx,9,4,30,08,00,2E,00,00,00,00,
8450567,00000010,false,Rx,9,4,31,08,00,2D,00,00,00,00,
8451228,00000040,false,Rx,9,3,B0,2E,CC,00,00,00,00,00,
8457276,000000AA,false,Rx,9,2,AA,04,00,00,00,00,00,00,
8460425,00000040,false,Rx,9,6,B0,01,0C,92,FF,FF,00,00,
8461939,00000040,false,Rx,9,8,B0,93,E5,00,14,00,2E,CC,
8463443,000002B4,false,Rx,9,3,03,00,0A,00,00,00,00,00,
8465475,00000010,false,Rx,9,7,B0,01,0C,11,0C,0D,10,00,
8466554,00000008,false,Rx,9,7,B0,01,0C,0F,D2,07,10,00,
8477255,000000AA,false,Rx,9,2,AA,04,00,00,00,00,00,00,
8480169,00000040,false,Rx,9,3,B0,01,0C,00,00,00,00,00,
8482841,000003AC,false,Rx,9,3,03,00,1D,00,00,00,00,00,
8484343,00000010,false,Rx,9,7,B0,01,0C,11,0C,0E,00,00,
8485214,00000010,false,Rx,9,3,B0,0D,10,00,00,00,00,00,
8486506,00000008,false,Rx,9,7,B0,01,0C,0F,D2,07,10,00,
8497984,000000AA,false,Rx,9,2,AA,04,00,00,00,00,00,00,
8500045,00000040,false,Rx,9,3,B0,01,0C,00,00,00,00,00,
8501763,000003A4,false,Rx,9,3,03,00,2C,00,00,00,00,00,
8504431,00000010,false,Rx,9,7,B0,01,0C,11,0C,0D,10,00,
8506464,00000008,false,Rx,9,7,B0,01,0C,0F,D2,07,10,00,
8517292,000000AA,false,Rx,9,2,AA,04,00,00,00,00,00,00,
8520098,00000040,false,Rx,9,3,B0,01,0C,00,00,00,00,00,
8524357,00000010,false,Rx,9,7,B0,01,0C,11,0C,0D,10,00,
8526331,00000008,false,Rx,9,7,B0,01,0C,0C,B6,0F,CE,00,
8527628,00000008,false,Rx,9,7,B0,0E,00,0D,09,07,10,00,
8537263,000000AA,false,Rx,9,2,AA,04,00,00,00,00,00,00,
8540064,00000040,false,Rx,9,3,B0,01,0C,00,00,00,00,00,
8543044,0000029C,false,Rx,9,3,03,00,1A,00,00,00,00,00,
8544572,00000010,false,Rx,9,7,B0,01,0C,11,0C,0D,10,00,
8546500,00000008,false,Rx,9,7,B0,01,0C,0F,CE,07,10,00,
8557947,000000AA,false,Rx,9,2,AA,04,00,00,00,00,00,00,
8560011,00000040,false,Rx,9,3,B0,01,0C,00,00,00,00,00,
8561728,000002BC,false,Rx,9,3,03,00,0B,00,00,00,00,00,
8564502,00000010,false,Rx,9,7,B0,01,0C,11,0C,0D,10,00,
8566431,00000008,false,Rx,9,7,B0,01,0C,0F,CE,07,10,00,
8577332,000000AA,false,Rx,9,2,AA,04,00,00,00,00,00,00,
8580176,00000040,false,Rx,9,3,B0,01,0C,00,00,00,00,00,
8581907,000002B4,false,Rx,9,3,03,00,0A,00,00,00,00,00,
8584467,00000010,false,Rx,9,7,B0,01,0C,11,0C,0D,10,00,
8586397,00000008,false,Rx,9,7,B0,01,0C,0F,CE,07,10,00,
8597298,000000AA,false,Rx,9,2,AA,04,00,00,00,00,00,00,
8600112,00000040,false,Rx,9,3,B0,01,0C,00,00,00,00,00,
8601831,000003AC,false,Rx,9,3,03,00,1D,00,00,00,00,00,
8604500,00000010,false,Rx,9,7,B0,01,0C,11,0C,0D,10,00,
8606431,00000008,false,Rx,9,7,B0,01,0C,0F,CB,07,10,00,
8617404,000000AA,false,Rx,9,2,AA,04,00,00,00,00,00,00,
8620096,00000040,false,Rx,9,3,B0,01,0C,00,00,00,00,00,
8621917,000003A4,false,Rx,9,3,03,00,2C,00,00,00,00,00,
8624481,00000010,false,Rx,9,7,B0,01,0C,11,0C,0D,10,00,
8626411,00000008,false,Rx,9,7,B0,01,0C,0F,CB,07,10,00,
8634349,00001000,true,Rx,9,8,00,00,00,17,00,00,02,22,
8635917,00001001,true,Rx,9,8,00,00,00,00,00,00,00,00,
8637394,00001002,true,Rx,9,8,00,00,00,00,00,00,00,00,
8639220,000000AA,false,Rx,9,2,AA,04,00,00,00,00,00,00,
8640161,00000040,false,Rx,9,3,B0,01,0C,00,00,00,00,00,
8644419,00000010,false,Rx,9,7,B0,01,0C,11,0C,0D,10,00,
8646471,00000008,false,Rx,9,7,B0,01,0C,0F,CB,07,10,00,
8657399,000000AA,false,Rx,9,2,AA,04,00,00,00,00,00,00,
8660416,00000040,false,Rx,9,6,B0,01,0C,92,FF,FF,00,00,
8662027,00000040,false,Rx,9,8,B0,93,E5,00,14,00,2E,CC,
8664868,0000029C,false,Rx,9,3,03,00,1A,00,00,00,00,00,
8665844,00000010,false,Rx,9,7,B0,01,0C,11,0C,0D,10,00,
8666926,00000008,false,Rx,9,7,B0,01,0C,0F,C8,07,10,00,
8677381,000000AA,false,Rx,9,2,AA,04,00,00,00,00,00,00,
8680214,00000040,false,Rx,9,3,B0,01,0C,00,00,00,00,00,
8681945,000002BC,false,Rx,9,3,03,00,0F,00,00,00,00,00,
8684403,00000010,false,Rx,9,7,B0,01,0C,11,0C,0E,00,00,
8685274,00000010,false,Rx,9,3,B0,0D,10,00,00,00,00,00,
8686460,00000008,false,Rx,9,7,B0,01,0C,0F,C8,07,10,00,
8697389,000000AA,false,Rx,9,2,AA,04,00,00,00,00,00,00,
8700300,00000040,false,Rx,9,3,B0,01,0C,00,00,00,00,00,
8702123,000002B4,false,Rx,9,3,03,00,0A,00,00,00,00,00,
8704475,00000010,false,Rx,9,7,B0,01,0C,11,0C,0D,10,00,
8706406,00000008,false,Rx,9,7,B0,01,0C,0F,C8,07,10,00,
8718068,000000AA,false,Rx,9,2,AA,04,00,00,00,00,00,00,
8720127,00000040,false,Rx,9,3,B0,01,0C,00,00,00,00,00,
8721848,000003AC,false,Rx,9,3,03,00,1D,00,00,00,00,00,
8724516,00000010,false,Rx,9,7,B0,01,0C,11,0C,0D,10,00,
8726343,00000008,false,Rx,9,7,B0,01,0C,0C,B6,0F,C4,00,
8727634,00000008,false,Rx,9,7,B0,0E,00,0D,09,07,10,00,
8737429,000000AA,false,Rx,9,2,AA,04,00,00,00,00,00,00,
8740128,00000040,false,Rx,9,3,B0,01,0C,00,00,00,00,00,
8741849,000003A4,false,Rx,9,3,03,00,2C,00,00,00,00,00,
8744516,00000010,false,Rx,9,7,B0,01,0C,11,0C,0D,10,00,
8746446,00000008,false,Rx,9,7,B0,01,0C,0F,C4,07,10,00,
8758064,000000AA,false,Rx,9,2,AA,04,00,00,00,00,00,00,
8760125,00000040,false,Rx,9,3,B0,01,0C,00,00,00,00,00,
8764386,00000010,false,Rx,9,7,B0,01,0C,11,0C,0D,10,00,
8766423,00000008,false,Rx,9,7,B0,01,0C,0F,C4,07,10,00,
8778089,000000AA,false,Rx,9,2,AA,04,00,00,00,00,00,00,
8780156,00000040,false,Rx,9,3,B0,01,0C,00,00,00,00,00,
8783208,0000029C,false,Rx,9,3,03,00,1A,00,00,00,00,00,
8784737,00000010,false,Rx,9,7,B0,01,0C,11,0C,0D,10,00,
8786557,00000008,false,Rx,9,7,B0,01,0C,0F,C4,07,10,00,
8797452,000000AA,false,Rx,9,2,AA,04,00,00,00,00,00,00,
8800249,00000040,false,Rx,9,3,B0,01,0C,00,00,00,00,00,
8801964,000002BC,false,Rx,9,3,03,00,0F,00,00,00,00,00,
8804528,00000010,false,Rx,9,7,B0,01,0C,11,0C,0D,10,00,
8806458,00000008,false,Rx,9,7,B0,01,0C,0F,C1,07,10,00,
8817493,000000AA,false,Rx,9,2,AA,04,00,00,00,00,00,00,
8820189,00000040,false,Rx,9,3,B0,01,0C,00,00,00,00,00,
8822012,000002B4,false,Rx,9,3,03,00,0A,00,00,00,00,00,
8824470,00000010,false,Rx,9,7,B0,01,0C,11,0C,0D,10,00,
8826400,00000008,false,Rx,9,7,B0,01,0C,0F,C1,07,10,00,
8837493,000000AA,false,Rx,9,2,AA,04,00,00,00,00,00,00,
8840320,00000040,false,Rx,9,3,B0,01,0C,00,00,00,00,00,
8841946,000003AC,false,Rx,9,3,03,00,1D,00,00,00,00,00,
8844511,00000010,false,Rx,9,7,B0,01,0C,11,0C,0D,10,00,
8846441,00000008,false,Rx,9,7,B0,01,0C,0F,C1,07,10,00,
8849641,00000010,false,Rx,9,4,30,08,00,2F,00,00,00,00,
8850511,00000010,false,Rx,9,4,31,08,00,2E,00,00,00,00,
8851276,00000040,false,Rx,9,3,B0,2F,66,00,00,00,00,00,
8857486,000000AA,false,Rx,9,2,AA,04,00,00,00,00,00,00,
8860508,00000040,false,Rx,9,6,B0,01,0C,92,FF,FF,00,00,
8862120,00000040,false,Rx,9,8,B0,93,E5,00,14,00,2F,66,
8863624,000003A4,false,Rx,9,3,03,00,2C,00,00,00,00,00,
8865553,00000010,false,Rx,9,7,B0,01,0C,11,0C,0D,10,00,
8866633,00000008,false,Rx,9,7,B0,01,0C,0F,BD,07,10,00,
8878217,000000AA,false,Rx,9,2,AA,04,00,00,00,00,00,00,
8880235,00000040,false,Rx,9,3,B0,01,0C,00,00,00,00,00,
8884392,00000010,false,Rx,9,7,B0,01,0C,11,0C,0E,00,00,
8885263,00000010,false,Rx,9,3,B0,0D,10,00,00,00,00,00,
8887613,00000008,false,Rx,9,7,B0,01,0C,0F,BD,07,10,00,
8898151,000000AA,false,Rx,9,2,AA,04,00,00,00,00,00,00,
8900217,00000040,false,Rx,9,3,B0,01,0C,00,00,00,00,00,
8903265,0000029C,false,Rx,9,3,03,00,1A,00,00,00,00,00,
8904790,00000010,false,Rx,9,7,B0,01,0C,11,0C,0D,10,00,
8906611,00000008,false,Rx,9,7,B0,01,0C,0F,BA,07,10,00,
8917492,000000AA,false,Rx,9,2,AA,04,00,00,00,00,00,00,
8920286,00000040,false,Rx,9,3,B0,01,0C,00,00,00,00,00,
8922003,000002BC,false,Rx,9,3,03,00,0F,00,00,00,00,00,
8924565,00000010,false,Rx,9,7,B0,01,0C,11,0C,0D,10,00,
8926386,00000008,false,Rx,9,7,B0,01,0C,0C,B6,0F,BA,00,
8927573,00000008,false,Rx,9,7,B0,0E,00,0D,09,07,10,00,
8937512,000000AA,false,Rx,9,2,AA,04,00,00,00,00,00,00,
8940243,00000040,false,Rx,9,3,B0,01,0C,00,00,00,00,00,
8941963,000002B4,false,Rx,9,3,03,00,0A,00,00,00,00,00,
8944528,00000010,false,Rx,9,7,B0,01,0C,11,0C,0D,10,00,
8946457,00000008,false,Rx,9,7,B0,01,0C,0F,BA,07,10,00,
8957505,000000AA,false,Rx,9,2,AA,04,00,00,00,00,00,00,
8960310,00000040,false,Rx,9,3,B0,01,0C,00,00,00,00,00,
8961986,000003AC,false,Rx,9,3,03,00,1D,00,00,00,00,00,
8964585,00000010,false,Rx,9,7,B0,01,0C,11,0C,0D,10,00,
8966411,00000008,false,Rx,9,7,B0,01,0C,0F,BA,07,10,00,
8978188,000000AA,false,Rx,9,2,AA,04,00,00,00,00,00,00,
8980257,00000040,false,Rx,9,3,B0,01,0C,00,00,00,00,00,
8981973,000003A4,false,Rx,9,3,03,00,2C,00,00,00,00,00,
8984537,00000010,false,Rx,9,7,B0,01,0C,11,0C,0D,10,00,
8986467,00000008,false,Rx,9,7,B0,01,0C,0F,B7,07,10,00,
8997471,000000AA,false,Rx,9,2,AA,04,00,00,00,00,00,00,
9000269,00000040,false,Rx,9,3,B0,01,0C,00,00,00,00,00,
9004423,00000010,false,Rx,9,7,B0,01,0C,11,0C,0D,10,00,
9006457,00000008,false,Rx,9,7,B0,01,0C,0F,B7,07,10,00,
9017488,000000AA,false,Rx,9,2,AA,04,00,00,00,00,00,00,
9020301,00000040,false,Rx,9,3,B0,01,0C,00,00,00,00,00,
9023352,0000029C,false,Rx,9,3,03,00,1A,00,00,00,00,00,
9024880,00000010,false,Rx,9,7,B0,01,0C,11,0C,0D,10,00,
9026594,00000008,false,Rx,9,7,B0,01,0C,0F,B7,07,10,00,
9038225,000000AA,false,Rx,9,2,AA,04,00,00,00,00,00,00,
9040279,00000040,false,Rx,9,3,B0,01,0C,00,00,00,00,00,
9041996,000002BC,false,Rx,9,3,03,00,0F,00,00,00,00,00,
9044557,00000010,false,Rx,9,7,B0,01,0C,11,0C,0D,10,00,
9046491,00000008,false,Rx,9,7,B0,01,0C,0F,B3,07,10,00,
9058150,000000AA,false,Rx,9,2,AA,04,00,00,00,00,00,00,
9060641,00000040,false,Rx,9,6,B0,01,0C,92,FF,FF,00,00,
9062254,00000040,false,Rx,9,8,B0,93,E5,00,14,00,2F,66,
9063652,000002B4,false,Rx,9,3,03,00,0A,00,00,00,00,00,
9065580,00000010,false,Rx,9,7,B0,01,0C,11,0C,0D,10,00,
9066659,00000008,false,Rx,9,7,B0,01,0C,0F,B3,07,10,00,
9077689,000000AA,false,Rx,9,2,AA,04,00,00,00,00,00,00,
9080350,00000040,false,Rx,9,3,B0,01,0C,00,00,00,00,00,
9082067,000003AC,false,Rx,9,3,03,00,1D,00,00,00,00,00,
9084523,00000010,false,Rx,9,7,B0,01,0C,11,0C,0E,00,00,
9085395,00000010,false,Rx,9,3,B0,0D,10,00,00,00,00,00,
9086475,00000008,false,Rx,9,7,B0,01,0C,0F,B3,07,10,00,
9098146,000000AA,false,Rx,9,2,AA,04,00,00,00,00,00,00,
9100318,00000040,false,Rx,9,3,B0,01,0C,00,00,00,00,00,
9102033,000003A4,false,Rx,9,3,03,00,2C,00,00,00,00,00,
9104594,00000010,false,Rx,9,7,B0,01,0C,11,0C,0D,10,00,
9106418,00000008,false,Rx,9,7,B0,01,0C,0F,B3,07,10,00,
9117517,000000AA,false,Rx,9,2,AA,04,00,00,00,00,00,00,
9120343,00000040,false,Rx,9,3,B0,01,0C,00,00,00,00,00,
9124497,00000010,false,Rx,9,7,B0,01,0C,11,0C,0D,10,00,
9126322,00000008,false,Rx,9,7,B0,01,0C,0C,B6,0F,B0,00,
9127613,00000008,false,Rx,9,7,B0,0E,00,0D,09,07,10,00,
9137673,000000AA,false,Rx,9,2,AA,04,00,00,00,00,00,00,
9140346,00000040,false,Rx,9,3,B0,01,0C,00,00,00,00,00,
9143360,0000029C,false,Rx,9,3,03,00,1A,00,00,00,00,00,
9144893,00000010,false,Rx,9,7,B0,01,0C,11,0C,0D,10,00,
9146608,00000008,false,Rx,9,7,B0,01,0C,0F,B0,07,10,00,
9157574,000000AA,false,Rx,9,2,AA,04,00,00,00,00,00,00,
9160533,00000040,false,Rx,9,3,B0,01,0C,00,00,00,00,00,
9162258,000002BC,false,Rx,9,3,03,00,0F,00,00,00,00,00,
9164607,00000010,false,Rx,9,7,B0,01,0C,11,0C,0D,10,00,
9166431,00000008,false,Rx,9,7,B0,01,0C,0F,B0,07,10,00,
9178194,000000AA,false,Rx,9,2,AA,04,00,00,00,00,00,00,
9180368,00000040,false,Rx,9,3,B0,01,0C,00,00,00,00,00,
9182085,000002B4,false,Rx,9,3,03,00,0A,00,00,00,00,00,
9184538,00000010,false,Rx,9,7,B0,01,0C,11,0C,0D,10,00,
9186468,00000008,false,Rx,9,7,B0,01,0C,0F,B0,07,10,00,
9197550,000000AA,false,Rx,9,2,AA,04,00,00,00,00,00,00,
9200383,00000040,false,Rx,9,3,B0,01,0C,00,00,00,00,00,
9202111,000003AC,false,Rx,9,3,03,00,1D,00,00,00,00,00,
9204567,00000010,false,Rx,9,7,B0,01,0C,11,0C,0D,10,00,
9206497,00000008,false,Rx,9,7,B0,01,0C,0F,AC,07,10,00,
9217638,000000AA,false,Rx,9,2,AA,04,00,00,00,00,00,00,
9220341,00000040,false,Rx,9,3,B0,01,0C,00,00,00,00,00,
9222164,000003A4,false,Rx,9,3,03,00,2C,00,00,00,00,00,
9224517,00000010,false,Rx,9,7,B0,01,0C,11,0C,0D,10,00,
9226446,00000008,false,Rx,9,7,B0,01,0C,0F,AC,07,10,00,
9238280,000000AA,false,Rx,9,2,AA,04,00,00,00,00,00,00,
9240377,00000040,false,Rx,9,3,B0,01,0C,00,00,00,00,00,
9244485,00000010,false,Rx,9,7,B0,01,0C,11,0C,0D,10,00,
9246459,00000008,false,Rx,9,7,B0,01,0C,0F,AC,07,10,00,
9249668,00000010,false,Rx,9,4,30,08,00,30,00,00,00,00,
9250536,00000010,false,Rx,9,4,31,08,00,2F,00,00,00,00,
9251193,00000040,false,Rx,9,3,B0,30,99,00,00,00,00,00,
9257666,000000AA,false,Rx,9,2,AA,04,00,00,00,00,00,00,
9260683,00000040,false,Rx,9,6,B0,01,0C,92,FF,FF,00,00,
9262298,00000040,false,Rx,9,8,B0,93,E5,00,14,00,30,99,
9264926,0000029C,false,Rx,9,3,03,00,1A,00,00,00,00,00,
9266006,00000010,false,Rx,9,7,B0,01,0C,11,0C,0D,10,00,
9267084,00000008,false,Rx,9,7,B0,01,0C,0F,AC,07,10,00,
9277692,000000AA,false,Rx,9,2,AA,04,00,00,00,00,00,00,
9280529,00000040,false,Rx,9,3,B0,01,0C,00,00,00,00,00,
9282153,000002BC,false,Rx,9,3,03,00,0F,00,00,00,00,00,
9284505,00000010,false,Rx,9,7,B0,01,0C,11,0C,0E,00,00,
9285376,00000010,false,Rx,9,3,B0,0D,10,00,00,00,00,00,
9286458,00000008,false,Rx,9,7,B0,01,0C,0F,A9,07,10,00,
9298330,000000AA,false,Rx,9,2,AA,04,00,00,00,00,00,00,
9300392,00000040,false,Rx,9,3,B0,01,0C,00,00,00,00,00,
9302216,000002B4,false,Rx,9,3,03,00,02,00,00,00,00,00,
9304567,00000010,false,Rx,9,7,B0,01,0C,11,0C,0D,10,00,
9306497,00000008,false,Rx,9,7,B0,01,0C,0F,A9,07,10,00,
9317783,000000AA,false,Rx,9,2,AA,04,00,00,00,00,00,00,
9320441,00000040,false,Rx,9,3,B0,01,0C,00,00,00,00,00,
9322162,000003AC,false,Rx,9,3,03,00,1D,00,00,00,00,00,
9324622,00000010,false,Rx,9,7,B0,01,0C,11,0C,0D,10,00,
9326341,00000008,false,Rx,9,7,B0,01,0C,0C,B6,0F,A9,00,
9327634,00000008,false,Rx,9,7,B0,0E,00,0D,09,07,10,00,
9337715,000000AA,false,Rx,9,2,AA,04,00,00,00,00,00,00,
9340518,00000040,false,Rx,9,3,B0,01,0C,00,00,00,00,00,
9342341,000003A4,false,Rx,9,3,03,00,2C,00,00,00,00,00,
9344629,00000010,false,Rx,9,7,B0,01,0C,11,0C,0D,10,00,
9346462,00000008,false,Rx,9,7,B0,01,0C,0F,A9,07,10,00,
9357689,000000AA,false,Rx,9,2,AA,04,00,00,00,00,00,00,
9360452,00000040,false,Rx,9,3,B0,01,0C,00,00,00,00,00,
9364508,00000010,false,Rx,9,7,B0,01,0C,11,0C,0D,10,00,
9366437,00000008,false,Rx,9,7,B0,01,0C,0F,A6,07,10,00,
9378320,000000AA,false,Rx,9,2,AA,04,00,00,00,00,00,00,
9380381,00000040,false,Rx,9,3,B0,01,0C,00,00,00,00,00,
9383430,0000029C,false,Rx,9,3,03,00,1A,00,00,00,00,00,
9385095,00000010,false,Rx,9,7,B0,01,0C,11,0C,0D,10,00,
9386687,00000008,false,Rx,9,7,B0,01,0C,0F,A6,07,10,00,
9398332,000000AA,false,Rx,9,2,AA,04,00,00,00,00,00,00,
9400397,00000040,false,Rx,9,3,B0,01,0C,00,00,00,00,00,
9402115,000002BC,false,Rx,9,3,03,00,0F,00,00,00,00,00,
9404573,00000010,false,Rx,9,7,B0,01,0C,11,0C,0D,10,00,
9406502,00000008,false,Rx,9,7,B0,01,0C,0F,A6,07,10,00,
9417627,000000AA,false,Rx,9,2,AA,04,00,00,00,00,00,00,
9420506,00000040,false,Rx,9,3,B0,01,0C,00,00,00,00,00,
9422236,000002B4,false,Rx,9,3,03,00,02,00,00,00,00,00,
9424587,00000010,false,Rx,9,7,B0,01,0C,11,0C,0D,10,00,
9426517,00000008,false,Rx,9,7,B0,01,0C,0F,A6,07,10,00,
9437741,000000AA,false,Rx,9,2,AA,04,00,00,00,00,00,00,
9440549,00000040,false,Rx,9,3,B0,01,0C,00,00,00,00,00,
9442266,000003AC,false,Rx,9,3,03,00,1D,00,00,00,00,00,
9444616,00000010,false,Rx,9,7,B0,01,0C,11,0C,0D,10,00,
9446478,00000008,false,Rx,9,7,B0,01,0C,0F,A2,07,10,00,
9457735,000000AA,false,Rx,9,2,AA,04,00,00,00,00,00,00,
9460857,00000040,false,Rx,9,6,B0,01,0C,92,FF,FF,00,00,
9462374,00000040,false,Rx,9,8,B0,93,E5,00,14,00,30,99,
9463775,000003A4,false,Rx,9,3,03,00,2C,00,00,00,00,00,
9465810,00000010,false,Rx,9,7,B0,01,0C,11,0C,0D,10,00,
9466889,00000008,false,Rx,9,7,B0,01,0C,0F,A2,07,10,00,
9477686,000000AA,false,Rx,9,2,AA,04,00,00,00,00,00,00,
9480497,00000040,false,Rx,9,3,B0,01,0C,00,00,00,00,00,
9484547,00000010,false,Rx,9,7,B0,01,0C,11,0C,0E,00,00,
9485312,00000010,false,Rx,9,3,B0,0D,10,00,00,00,00,00,
9486497,00000008,false,Rx,9,7,B0,01,0C,0F,A2,07,10,00,
9497856,000000AA,false,Rx,9,2,AA,04,00,00,00,00,00,00,
9500523,00000040,false,Rx,9,3,B0,01,0C,00,00,00,00,00,
9503575,0000029C,false,Rx,9,3,03,00,1A,00,00,00,00,00,
9505100,00000010,false,Rx,9,7,B0,01,0C,11,0C,0D,10,00,
9506392,00000008,false,Rx,9,7,B0,01,0C,0F,A2,07,10,00,
9517700,000000AA,false,Rx,9,2,AA,04,00,00,00,00,00,00,
9520508,00000040,false,Rx,9,3,B0,01,0C,00,00,00,00,00,
9522228,000002BC,false,Rx,9,3,03,00,0F,00,00,00,00,00,
9524578,00000010,false,Rx,9,7,B0,01,0C,11,0C,0D,10,00,
9526403,00000008,false,Rx,9,7,B0,01,0C,0C,B6,0F,9F,00,
9527695,00000008,false,Rx,9,7,B0,0E,00,0D,09,07,10,00,
9537778,000000AA,false,Rx,9,2,AA,04,00,00,00,00,00,00,
9540545,00000040,false,Rx,9,3,B0,01,0C,00,00,00,00,00,
9542312,000002B4,false,Rx,9,3,03,00,0A,00,00,00,00,00,
9544569,00000010,false,Rx,9,7,B0,01,0C,11,0C,0D,10,00,
9546503,00000008,false,Rx,9,7,B0,01,0C,0F,9F,07,10,00,
9557713,000000AA,false,Rx,9,2,AA,04,00,00,00,00,00,00,
9560518,00000040,false,Rx,9,3,B0,01,0C,00,00,00,00,00,
9562239,000003AC,false,Rx,9,3,03,00,1D,00,00,00,00,00,
9564586,00000010,false,Rx,9,7,B0,01,0C,11,0C,0D,10,00,
9566199,00000008,false,Rx,9,7,B0,01,0C,0F,9F,07,10,00,
9577801,000000AA,false,Rx,9,2,AA,04,00,00,00,00,00,00,
9580502,00000040,false,Rx,9,3,B0,01,0C,00,00,00,00,00,
9582233,000003A4,false,Rx,9,3,03,00,2C,00,00,00,00,00,
9584581,00000010,false,Rx,9,7,B0,01,0C,11,0C,0D,10,00,
9586406,00000008,false,Rx,9,7,B0,01,0C,0F,9F,07,10,00,
9597753,000000AA,false,Rx,9,2,AA,04,00,00,00,00,00,00,
9600553,00000040,false,Rx,9,3,B0,01,0C,00,00,00,00,00,
9604602,00000010,false,Rx,9,7,B0,01,0C,11,0C,0D,10,00,
9606427,00000008,false,Rx,9,7,B0,01,0C,0F,9C,07,10,00,
9634297,00001000,true,Rx,9,8,00,00,00,18,00,00,03,4C,
9635950,00001001,true,Rx,9,8,00,00,00,00,00,00,00,00,
9637145,00001002,true,Rx,9,8,00,00,00,00,00,00,00,00,
9618435,000000AA,false,Rx,9,2,AA,04,00,00,00,00,00,00,
9620497,00000040,false,Rx,9,3,B0,01,0C,00,00,00,00,00,
9623600,0000029C,false,Rx,9,3,03,00,1A,00,00,00,00,00,
9625022,00000010,false,Rx,9,7,B0,01,0C,11,0C,0D,10,00,
9626317,00000008,false,Rx,9,7,B0,01,0C,0F,9C,07,10,00,
9638629,000000AA,false,Rx,9,2,AA,04,00,00,00,00,00,00,
9640587,00000040,false,Rx,9,3,B0,01,0C,00,00,00,00,00,
9642310,000002BC,false,Rx,9,3,03,00,0F,00,00,00,00,00,
9644659,00000010,false,Rx,9,7,B0,01,0C,11,0C,0D,10,00,
9646481,00000008,false,Rx,9,7,B0,01,0C,0F,9C,07,10,00,
9649680,00000010,false,Rx,9,4,30,08,00,31,00,00,00,00,
9650551,00000010,false,Rx,9,4,31,08,00,30,00,00,00,00,
9651254,00000040,false,Rx,9,3,B0,31,99,00,00,00,00,00,
9658411,000000AA,false,Rx,9,2,AA,04,00,00,00,00,00,00,
9660896,00000040,false,Rx,9,6,B0,01,0C,92,FF,FF,00,00,
9662506,00000040,false,Rx,9,8,B0,93,E5,00,14,00,31,99,
9663915,000002B4,false,Rx,9,3,03,00,02,00,00,00,00,00,
9665975,00000010,false,Rx,9,7,B0,01,0C,11,0C,0D,10,00,
9666966,00000008,false,Rx,9,7,B0,01,0C,0F,9C,07,10,00,
9678455,000000AA,false,Rx,9,2,AA,04,00,00,00,00,00,00,
9680792,00000040,false,Rx,9,3,B0,01,0C,00,00,00,00,00,
9682430,000003AC,false,Rx,9,3,03,00,1D,00,00,00,00,00,
9684666,00000010,false,Rx,9,7,B0,01,0C,11,0C,0E,00,00,
9685444,00000010,false,Rx,9,3,B0,0D,10,00,00,00,00,00,
9686523,00000008,false,Rx,9,7,B0,01,0C,0F,98,07,10,00,
9697780,000000AA,false,Rx,9,2,AA,04,00,00,00,00,00,00,
9700731,00000040,false,Rx,9,3,B0,01,0C,00,00,00,00,00,
9702376,000003A4,false,Rx,9,3,03,00,2C,00,00,00,00,00,
9704621,00000010,false,Rx,9,7,B0,01,0C,11,0C,0D,10,00,
9706446,00000008,false,Rx,9,7,B0,01,0C,0F,98,07,10,00,
9717810,000000AA,false,Rx,9,2,AA,04,00,00,00,00,00,00,
9720686,00000040,false,Rx,9,3,B0,01,0C,00,00,00,00,00,
9724629,00000010,false,Rx,9,7,B0,01,0C,11,0C,0D,10,00,
9726364,00000008,false,Rx,9,7,B0,01,0C,0C,B6,0F,98,00,
9727654,00000008,false,Rx,9,7,B0,0E,00,0D,09,07,10,00,
9737748,000000AA,false,Rx,9,2,AA,04,00,00,00,00,00,00,
9740723,00000040,false,Rx,9,3,B0,01,0C,00,00,00,00,00,
9743592,0000029C,false,Rx,9,3,03,00,1A,00,00,00,00,00,
9745117,00000010,false,Rx,9,7,B0,01,0C,11,0C,0D,10,00,
9746411,00000008,false,Rx,9,7,B0,01,0C,0F,95,07,10,00,
9758026,000000AA,false,Rx,9,2,AA,04,00,00,00,00,00,00,
9760664,00000040,false,Rx,9,3,B0,01,0C,00,00,00,00,00,
9762324,000002BC,false,Rx,9,3,03,00,0F,00,00,00,00,00,
9764659,00000010,false,Rx,9,7,B0,01,0C,11,0C,0D,10,00,
9766180,00000008,false,Rx,9,7,B0,01,0C,0F,95,07,10,00,
9777754,000000AA,false,Rx,9,2,AA,04,00,00,00,00,00,00,
9780716,00000040,false,Rx,9,3,B0,01,0C,00,00,00,00,00,
9782372,000002B4,false,Rx,9,3,03,00,02,00,00,00,00,00,
9784616,00000010,false,Rx,9,7,B0,01,0C,11,0C,0D,10,00,
9786441,00000008,false,Rx,9,7,B0,01,0C,0F,95,07,10,00,
9797807,000000AA,false,Rx,9,2,AA,04,00,00,00,00,00,00,
9800776,00000040,false,Rx,9,3,B0,01,0C,00,00,00,00,00,
9802328,000003AC,false,Rx,9,3,03,00,1D,00,00,00,00,00,
9804739,00000010,false,Rx,9,7,B0,01,0C,11,0C,0D,10,00,
9806149,00000008,false,Rx,9,7,B0,01,0C,0F,95,07,10,00,
9817826,000000AA,false,Rx,9,2,AA,04,00,00,00,00,00,00,
9820804,00000040,false,Rx,9,3,B0,01,0C,00,00,00,00,00,
9822450,000003A4,false,Rx,9,3,03,00,2C,00,00,00,00,00,
9824692,00000010,false,Rx,9,7,B0,01,0C,11,0C,0D,10,00,
9826517,00000008,false,Rx,9,7,B0,01,0C,0F,95,07,10,00,
9838513,000000AA,false,Rx,9,2,AA,04,00,00,00,00,00,00,
9840842,00000040,false,Rx,9,3,B0,01,0C,00,00,00,00,00,
9844660,00000010,false,Rx,9,7,B0,01,0C,11,0C,0D,10,00,
9846500,00000008,false,Rx,9,7,B0,01,0C,0F,92,07,10,00,
9858478,000000AA,false,Rx,9,2,AA,04,00,00,00,00,00,00,
9861009,00000040,false,Rx,9,6,B0,01,0C,92,FF,FF,00,00,
9862538,00000040,false,Rx,9,8,B0,93,E5,00,14,00,31,99,
9865165,0000029C,false,Rx,9,3,03,00,1A,00,00,00,00,00,
9866246,00000010,false,Rx,9,7,B0,01,0C,11,0C,0D,10,00,
9867325,00000008,false,Rx,9,7,B0,01,0C,0F,92,07,10,00,
9877856,000000AA,false,Rx,9,2,AA,04,00,00,00,00,00,00,
9880931,00000040,false,Rx,9,3,B0,01,0C,00,00,00,00,00,
9882486,000002BC,false,Rx,9,3,03,00,0F,00,00,00,00,00,
9884669,00000010,false,Rx,9,7,B0,01,0C,11,0C,0E,00,00,
9885827,00000010,false,Rx,9,3,B0,0D,10,00,00,00,00,00,
9886589,00000008,false,Rx,9,7,B0,01,0C,0F,92,07,10,00,
9898574,000000AA,false,Rx,9,2,AA,04,00,00,00,00,00,00,
9900938,00000040,false,Rx,9,3,B0,01,0C,00,00,00,00,00,
9902390,000002B4,false,Rx,9,3,03,00,0A,00,00,00,00,00,
9904638,00000010,false,Rx,9,7,B0,01,0C,11,0C,0D,10,00,
9906252,00000008,false,Rx,9,7,B0,01,0C,0F,92,07,10,00,
9917826,000000AA,false,Rx,9,2,AA,04,00,00,00,00,00,00,
9920997,00000040,false,Rx,9,3,B0,01,0C,00,00,00,00,00,
9922517,000003AC,false,Rx,9,3,03,00,1D,00,00,00,00,00,
9924740,00000010,false,Rx,9,7,B0,01,0C,11,0C,0D,10,00,
9926051,00000008,false,Rx,9,7,B0,01,0C,0C,B6,0F,8E,00,
9927448,00000008,false,Rx,9,7,B0,0E,00,0D,09,07,10,00,
9937853,000000AA,false,Rx,9,2,AA,04,00,00,00,00,00,00,
9941044,00000040,false,Rx,9,3,B0,01,0C,00,00,00,00,00,
9942371,000003A4,false,Rx,9,3,03,00,2C,00,00,00,00,00,
9944618,00000010,false,Rx,9,7,B0,01,0C,11,0C,0D,10,00,
9946233,00000008,false,Rx,9,7,B0,01,0C,0F,8E,07,10,00,
9957912,000000AA,false,Rx,9,2,AA,04,00,00,00,00,00,00,
9961142,00000040,false,Rx,9,3,B0,01,0C,00,00,00,00,00,
9964726,00000010,false,Rx,9,7,B0,01,0C,11,0C,0D,10,00,
9966457,00000008,false,Rx,9,7,B0,01,0C,0F,8E,07,10,00,
9978559,000000AA,false,Rx,9,2,AA,04,00,00,00,00,00,00,
9981213,00000040,false,Rx,9,3,B0,01,0C,00,00,00,00,00,
9983678,0000029C,false,Rx,9,3,03,00,1A,00,00,00,00,00,
9985205,00000010,false,Rx,9,7,B0,01,0C,11,0C,0D,10,00,
9986391,00000008,false,Rx,9,7,B0,01,0C,0F,8E,07,10,00,
9997859,000000AA,false,Rx,9,2,AA,04,00,00,00,00,00,00,
10001223,00000040,false,Rx,9,3,B0,01,0C,00,00,00,00,00,
10002461,000002BC,false,Rx,9,3,03,00,0F,00,00,00,00,00,
10004691,00000010,false,Rx,9,7,B0,01,0C,11,0C,0D,10,00,
10006217,00000008,false,Rx,9,7,B0,01,0C,0F,8E,07,10,00,
10018533,000000AA,false,Rx,9,2,AA,04,00,00,00,00,00,00,
10021284,00000040,false,Rx,9,3,B0,01,0C,00,00,00,00,00,
10022413,000002B4,false,Rx,9,3,03,00,0A,00,00,00,00,00,
10024665,00000010,false,Rx,9,7,B0,01,0C,11,0C,0D,10,00,
10026172,00000008,false,Rx,9,7,B0,01,0C,0F,8A,07,10,00,
10037853,000000AA,false,Rx,9,2,AA,04,00,00,00,00,00,00,
10041361,00000040,false,Rx,9,3,B0,01,0C,00,00,00,00,00,
10042472,000003AC,false,Rx,9,3,03,00,1D,00,00,00,00,00,
10044708,00000010,false,Rx,9,7,B0,01,0C,11,0C,0D,10,00,
10046231,00000008,false,Rx,9,7,B0,01,0C,0F,8A,07,10,00,
10049641,00000010,false,Rx,9,4,30,08,00,32,00,00,00,00,
10050511,00000010,false,Rx,9,4,31,08,00,31,00,00,00,00,
10051382,00000040,false,Rx,9,3,B0,32,FF,00,00,00,00,00,
10058611,000000AA,false,Rx,9,2,AA,04,00,00,00,00,00,00,
10061476,00000040,false,Rx,9,6,B0,01,0C,92,FF,FF,00,00,
10062597,00000040,false,Rx,9,8,B0,93,E5,00,14,00,32,FF,
10064004,000003A4,false,Rx,9,3,03,00,2C,00,00,00,00,00,
10066062,00000010,false,Rx,9,7,B0,01,0C,11,0C,0D,10,00,
10067051,00000008,false,Rx,9,7,B0,01,0C,0F,8A,07,10,00,
10077886,000000AA,false,Rx,9,2,AA,04,00,00,00,00,00,00,
10081375,00000040,false,Rx,9,3,B0,01,0C,00,00,00,00,00,
10084812,00000010,false,Rx,9,7,B0,01,0C,11,0C,0E,00,00,
10085454,00000010,false,Rx,9,3,B0,0D,10,00,00,00,00,00,
10086544,00000008,false,Rx,9,7,B0,01,0C,0F,8A,07,10,00,
10097907,000000AA,false,Rx,9,2,AA,04,00,00,00,00,00,00,
10101369,00000040,false,Rx,9,3,B0,01,0C,00,00,00,00,00,
10103967,0000029C,false,Rx,9,3,03,00,1A,00,00,00,00,00,
10105048,00000010,false,Rx,9,7,B0,01,0C,11,0C,0D,10,00,
10106674,00000008,false,Rx,9,7,B0,01,0C,0F,8A,07,10,00,
10117932,000000AA,false,Rx,9,2,AA,04,00,00,00,00,00,00,
10121405,00000040,false,Rx,9,3,B0,01,0C,00,00,00,00,00,
10122564,000002BC,false,Rx,9,3,03,00,0F,00,00,00,00,00,
10124712,00000010,false,Rx,9,7,B0,01,0C,11,0C,0D,10,00,
10126178,00000008,false,Rx,9,7,B0,01,0C,0C,B6,0F,88,00,
10127382,00000008,false,Rx,9,7,B0,0E,00,0D,09,07,10,00,
10138188,000000AA,false,Rx,9,2,AA,04,00,00,00,00,00,00,
10141437,00000040,false,Rx,9,3,B0,01,0C,00,00,00,00,00,
10142463,000002B4,false,Rx,9,3,03,00,02,00,00,00,00,00,
10144721,00000010,false,Rx,9,7,B0,01,0C,11,0C,0D,10,00,
10146226,00000008,false,Rx,9,7,B0,01,0C,0F,88,07,10,00,
10158006,000000AA,false,Rx,9,2,AA,04,00,00,00,00,00,00,
10161473,00000040,false,Rx,9,3,B0,01,0C,00,00,00,00,00,
10162503,000003AC,false,Rx,9,3,03,00,1D,00,00,00,00,00,
10164804,00000010,false,Rx,9,7,B0,01,0C,11,0C,0D,10,00,
10166236,00000008,false,Rx,9,7,B0,01,0C,0F,88,07,10,00,
10177979,000000AA,false,Rx,9,2,AA,04,00,00,00,00,00,00,
10181557,00000040,false,Rx,9,3,B0,01,0C,00,00,00,00,00,
10182578,000003A4,false,Rx,9,3,03,00,2C,00,00,00,00,00,
10184723,00000010,false,Rx,9,7,B0,01,0C,11,0C,0D,10,00,
10186226,00000008,false,Rx,9,7,B0,01,0C,0F,88,07,10,00,
10198004,000000AA,false,Rx,9,2,AA,04,00,00,00,00,00,00,
10201599,00000040,false,Rx,9,3,B0,01,0C,00,00,00,00,00,
10204681,00000010,false,Rx,9,7,B0,01,0C,11,0C,0D,10,00,
10206208,00000008,false,Rx,9,7,B0,01,0C,0F,88,07,10,00,
10218624,000000AA,false,Rx,9,2,AA,04,00,00,00,00,00,00,
10221707,00000040,false,Rx,9,3,B0,01,0C,00,00,00,00,00,
10223856,0000029C,false,Rx,9,3,03,00,1A,00,00,00,00,00,
10224832,00000010,false,Rx,9,7,B0,01,0C,11,0C,0D,10,00,
10226672,00000008,false,Rx,9,7,B0,01,0C,0F,84,07,10,00,
10238670,000000AA,false,Rx,9,2,AA,04,00,00,00,00,00,00,
10241730,00000040,false,Rx,9,3,B0,01,0C,00,00,00,00,00,
10242541,000002BC,false,Rx,9,3,03,00,0F,00,00,00,00,00,
10244684,00000010,false,Rx,9,7,B0,01,0C,11,0C,0D,10,00,
10246301,00000008,false,Rx,9,7,B0,01,0C,0F,84,07,10,00,
10257992,000000AA,false,Rx,9,2,AA,04,00,00,00,00,00,00,
10261789,00000040,false,Rx,9,6,B0,01,0C,92,FF,FF,00,00,
10262726,00000040,false,Rx,9,8,B0,93,E5,00,14,00,32,FF,
10264233,000002B4,false,Rx,9,3,03,00,0A,00,00,00,00,00,
10266196,00000010,false,Rx,9,7,B0,01,0C,11,0C,0D,10,00,
10267293,00000008,false,Rx,9,7,B0,01,0C,0F,84,07,10,00,
10278677,000000AA,false,Rx,9,2,AA,04,00,00,00,00,00,00,
10281866,00000040,false,Rx,9,3,B0,01,0C,00,00,00,00,00,
10282573,000003AC,false,Rx,9,3,03,00,1D,00,00,00,00,00,
10284732,00000010,false,Rx,9,7,B0,01,0C,11,0C,0E,00,00,
10285510,00000010,false,Rx,9,3,B0,0D,10,00,00,00,00,00,
10286590,00000008,false,Rx,9,7,B0,01,0C,0F,84,07,10,00,
10298691,000000AA,false,Rx,9,2,AA,04,00,00,00,00,00,00,
10301866,00000040,false,Rx,9,3,B0,01,0C,00,00,00,00,00,
10302565,000003A4,false,Rx,9,3,03,00,2C,00,00,00,00,00,
10304718,00000010,false,Rx,9,7,B0,01,0C,11,0C,0D,10,00,
10306223,00000008,false,Rx,9,7,B0,01,0C,0F,84,07,10,00,
10318004,000000AA,false,Rx,9,2,AA,04,00,00,00,00,00,00,
10321848,00000040,false,Rx,9,3,B0,01,0C,00,00,00,00,00,
10324725,00000010,false,Rx,9,7,B0,01,0C,11,0C,0D,10,00,
10326212,00000008,false,Rx,9,7,B0,01,0C,0C,B6,0F,80,00,
10327424,00000008,false,Rx,9,7,B0,0E,00,0D,09,07,10,00,
10338044,000000AA,false,Rx,9,2,AA,04,00,00,00,00,00,00,
10341964,00000040,false,Rx,9,3,B0,01,0C,00,00,00,00,00,
10343907,0000029C,false,Rx,9,3,03,00,1A,00,00,00,00,00,
10344884,00000010,false,Rx,9,7,B0,01,0C,11,0C,0D,10,00,
10346618,00000008,false,Rx,9,7,B0,01,0C,0F,80,07,10,00,
10358083,000000AA,false,Rx,9,2,AA,04,00,00,00,00,00,00,
10361992,00000040,false,Rx,9,3,B0,01,0C,00,00,00,00,00,
10362612,000002BC,false,Rx,9,3,03,00,0F,00,00,00,00,00,
10364769,00000010,false,Rx,9,7,B0,01,0C,11,0C,0D,10,00,
10366285,00000008,false,Rx,9,7,B0,01,0C,0F,80,07,10,00,
10378072,000000AA,false,Rx,9,2,AA,04,00,00,00,00,00,00,
10382103,00000040,false,Rx,9,3,B0,01,0C,00,00,00,00,00,
10382586,000002B4,false,Rx,9,3,03,00,0A,00,00,00,00,00,
10384739,00000010,false,Rx,9,7,B0,01,0C,11,0C,0D,10,00,
10386252,00000008,false,Rx,9,7,B0,01,0C,0F,80,07,10,00,
10398097,000000AA,false,Rx,9,2,AA,04,00,00,00,00,00,00,
10402127,00000040,false,Rx,9,3,B0,01,0C,00,00,00,00,00,
10402627,000003AC,false,Rx,9,3,03,00,1D,00,00,00,00,00,
10404772,00000010,false,Rx,9,7,B0,01,0C,11,0C,0D,10,00,
10406276,00000008,false,Rx,9,7,B0,01,0C,0F,80,07,10,00,
10418064,000000AA,false,Rx,9,2,AA,04,00,00,00,00,00,00,
10422179,00000040,false,Rx,9,3,B0,01,0C,00,00,00,00,00,
10422675,000003A4,false,Rx,9,3,03,00,2C,00,00,00,00,00,
10424718,00000010,false,Rx,9,7,B0,01,0C,11,0C,0D,10,00,
10426223,00000008,false,Rx,9,7,B0,01,0C,0F,7D,07,10,00,
10438135,000000AA,false,Rx,9,2,AA,04,00,00,00,00,00,00,
10442279,00000040,false,Rx,9,3,B0,01,0C,00,00,00,00,00,
10444683,00000010,false,Rx,9,7,B0,01,0C,11,0C,0D,10,00,
10446191,00000008,false,Rx,9,7,B0,01,0C,0F,7D,07,10,00,
10449596,00000010,false,Rx,9,4,30,08,00,33,00,00,00,00,
10450468,00000010,false,Rx,9,4,31,08,00,32,00,00,00,00,
10451654,00000040,false,Rx,9,3,B0,33,B3,00,00,00,00,00,
10458037,000000AA,false,Rx,9,2,AA,04,00,00,00,00,00,00,
10462377,00000040,false,Rx,9,6,B0,01,0C,92,FF,FF,00,00,
10462869,00000040,false,Rx,9,8,B0,93,E5,00,14,00,33,B3,
10465611,0000029C,false,Rx,9,3,03,00,1A,00,00,00,00,00,
10467077,00000008,false,Rx,9,7,B0,01,0C,0F,7D,07,10,00,
10468083,00000010,false,Rx,9,7,B0,01,0C,11,0C,0D,10,00,
10478160,000000AA,false,Rx,9,2,AA,04,00,00,00,00,00,00,
10482412,00000040,false,Rx,9,3,B0,01,0C,00,00,00,00,00,
10482679,000002BC,false,Rx,9,3,03,00,0F,00,00,00,00,00,
10484738,00000010,false,Rx,9,7,B0,01,0C,11,0C,0E,00,00,
10485602,00000010,false,Rx,9,3,B0,0D,10,00,00,00,00,00,
10486684,00000008,false,Rx,9,7,B0,01,0C,0F,7D,07,10,00,
10498793,000000AA,false,Rx,9,2,AA,04,00,00,00,00,00,00,
10502481,00000040,false,Rx,9,3,B0,01,0C,00,00,00,00,00,
10502655,000002B4,false,Rx,9,3,03,00,02,00,00,00,00,00,
10504719,00000010,false,Rx,9,7,B0,01,0C,11,0C,0D,10,00,
10506581,00000008,false,Rx,9,7,B0,01,0C,0F,7D,07,10,00,
10518149,000000AA,false,Rx,9,2,AA,04,00,00,00,00,00,00,
10522501,00000040,false,Rx,9,3,B0,01,0C,00,00,00,00,00,
10522678,000003AC,false,Rx,9,3,03,00,1D,00,00,00,00,00,
10524834,00000010,false,Rx,9,7,B0,01,0C,11,0C,0D,10,00,
10526443,00000008,false,Rx,9,7,B0,01,0C,0C,B6,0F,7A,00,
10527739,00000008,false,Rx,9,7,B0,0E,00,0D,09,07,10,00,
10538142,000000AA,false,Rx,9,2,AA,04,00,00,00,00,00,00,
10540917,00000040,false,Rx,9,3,B0,01,0C,00,00,00,00,00,
10542744,000003A4,false,Rx,9,3,03,00,2C,00,00,00,00,00,
10544815,00000010,false,Rx,9,7,B0,01,0C,11,0C,0D,10,00,
10546267,00000008,false,Rx,9,7,B0,01,0C,0F,7A,07,10,00,
10558771,000000AA,false,Rx,9,2,AA,04,00,00,00,00,00,00,
10560912,00000040,false,Rx,9,3,B0,01,0C,00,00,00,00,00,
10564725,00000010,false,Rx,9,7,B0,01,0C,11,0C,0D,10,00,
10566260,00000008,false,Rx,9,7,B0,01,0C,0F,7A,07,10,00,
10578840,000000AA,false,Rx,9,2,AA,04,00,00,00,00,00,00,
10580988,00000040,false,Rx,9,3,B0,01,0C,00,00,00,00,00,
10583994,0000029C,false,Rx,9,3,03,00,1A,00,00,00,00,00,
10585043,00000010,false,Rx,9,7,B0,01,0C,11,0C,0D,10,00,
10586704,00000008,false,Rx,9,7,B0,01,0C,0F,7A,07,10,00,
10598812,000000AA,false,Rx,9,2,AA,04,00,00,00,00,00,00,
10600954,00000040,false,Rx,9,3,B0,01,0C,00,00,00,00,00,
10602858,000002BC,false,Rx,9,3,03,00,0F,00,00,00,00,00,
10604732,00000010,false,Rx,9,7,B0,01,0C,11,0C,0D,10,00,
10606233,00000008,false,Rx,9,7,B0,01,0C,0F,7A,07,10,00,
10618762,000000AA,false,Rx,9,2,AA,04,00,00,00,00,00,00,
10621006,00000040,false,Rx,9,3,B0,01,0C,00,00,00,00,00,
10634403,00001000,true,Rx,9,8,00,00,00,19,00,00,04,76,
10635789,00001001,true,Rx,9,8,00,00,00,00,00,00,00,00,
10636963,00001002,true,Rx,9,8,00,00,00,00,00,00,00,00,
10622902,000002B4,false,Rx,9,3,03,00,02,00,00,00,00,00,
10624801,00000010,false,Rx,9,7,B0,01,0C,11,0C,0D,10,00,
10626303,00000008,false,Rx,9,7,B0,01,0C,0F,7A,07,10,00,
10638741,000000AA,false,Rx,9,2,AA,04,00,00,00,00,00,00,
10641091,00000040,false,Rx,9,3,B0,01,0C,00,00,00,00,00,
10642928,000003AC,false,Rx,9,3,03,00,1D,00,00,00,00,00,
10644840,00000010,false,Rx,9,7,B0,01,0C,11,0C,0D,10,00,
10646518,00000008,false,Rx,9,7,B0,01,0C,0F,76,07,10,00,
10658187,000000AA,false,Rx,9,2,AA,04,00,00,00,00,00,00,
10661306,00000040,false,Rx,9,6,B0,01,0C,92,FF,FF,00,00,
10663100,00000040,false,Rx,9,8,B0,93,E5,00,14,00,33,B3,
10664334,000003A4,false,Rx,9,3,03,00,2C,00,00,00,00,00,
10666475,00000008,false,Rx,9,7,B0,01,0C,0F,76,07,10,00,
10667554,00000010,false,Rx,9,7,B0,01,0C,11,0C,0D,10,00,
10678209,000000AA,false,Rx,9,2,AA,04,00,00,00,00,00,00,
10681233,00000040,false,Rx,9,3,B0,01,0C,00,00,00,00,00,
10684980,00000010,false,Rx,9,7,B0,01,0C,11,0C,0E,00,00,
10685773,00000010,false,Rx,9,3,B0,0D,10,00,00,00,00,00,
10686888,00000008,false,Rx,9,7,B0,01,0C,0F,76,07,10,00,
10698833,000000AA,false,Rx,9,2,AA,04,00,00,00,00,00,00,
10701079,00000040,false,Rx,9,3,B0,01,0C,00,00,00,00,00,
10704049,0000029C,false,Rx,9,3,03,00,1A,00,00,00,00,00,
10705132,00000010,false,Rx,9,7,B0,01,0C,11,0C,0D,10,00,
10706654,00000008,false,Rx,9,7,B0,01,0C,0F,76,07,10,00,
10718233,000000AA,false,Rx,9,2,AA,04,00,00,00,00,00,00,
10721006,00000040,false,Rx,9,3,B0,01,0C,00,00,00,00,00,
10723202,000002BC,false,Rx,9,3,03,00,0F,00,00,00,00,00,
10724884,00000010,false,Rx,9,7,B0,01,0C,11,0C,0D,10,00,
10726479,00000008,false,Rx,9,7,B0,01,0C,0C,B6,0F,76,00,
10727679,00000008,false,Rx,9,7,B0,0E,00,0D,09,07,10,00,
10738834,000000AA,false,Rx,9,2,AA,04,00,00,00,00,00,00,
10740974,00000040,false,Rx,9,3,B0,01,0C,00,00,00,00,00,
10743231,000002B4,false,Rx,9,3,03,00,0A,00,00,00,00,00,
10744751,00000010,false,Rx,9,7,B0,01,0C,11,0C,0D,10,00,
10746569,00000008,false,Rx,9,7,B0,01,0C,0F,76,07,10,00,
10758249,000000AA,false,Rx,9,2,AA,04,00,00,00,00,00,00,
10761022,00000040,false,Rx,9,3,B0,01,0C,00,00,00,00,00,
10763100,000003AC,false,Rx,9,3,03,00,1D,00,00,00,00,00,
10764833,00000010,false,Rx,9,7,B0,01,0C,11,0C,0D,10,00,
10766549,00000008,false,Rx,9,7,B0,01,0C,0F,73,07,10,00,
10778181,000000AA,false,Rx,9,2,AA,04,00,00,00,00,00,00,
10781072,00000040,false,Rx,9,3,B0,01,0C,00,00,00,00,00,
10783143,000003A4,false,Rx,9,3,03,00,2C,00,00,00,00,00,
10784875,00000010,false,Rx,9,7,B0,01,0C,11,0C,0D,10,00,
10786586,00000008,false,Rx,9,7,B0,01,0C,0F,73,07,10,00,
10798254,000000AA,false,Rx,9,2,AA,04,00,00,00,00,00,00,
10801054,00000040,false,Rx,9,3,B0,01,0C,00,00,00,00,00,
10804868,00000010,false,Rx,9,7,B0,01,0C,11,0C,0D,10,00,
10806189,00000008,false,Rx,9,7,B0,01,0C,0F,73,07,10,00,
10818899,000000AA,false,Rx,9,2,AA,04,00,00,00,00,00,00,
10821050,00000040,false,Rx,9,3,B0,01,0C,00,00,00,00,00,
10824118,0000029C,false,Rx,9,3,03,00,1A,00,00,00,00,00,
10825107,00000010,false,Rx,9,7,B0,01,0C,11,0C,0D,10,00,
10826631,00000008,false,Rx,9,7,B0,01,0C,0F,73,07,10,00,
10838839,000000AA,false,Rx,9,2,AA,04,00,00,00,00,00,00,
10841084,00000040,false,Rx,9,3,B0,01,0C,00,00,00,00,00,
10843577,000002BC,false,Rx,9,3,03,00,0F,00,00,00,00,00,
10844854,00000010,false,Rx,9,7,B0,01,0C,11,0C,0D,10,00,
10846573,00000008,false,Rx,9,7,B0,01,0C,0F,73,07,10,00,
10849776,00000010,false,Rx,9,4,30,08,00,34,00,00,00,00,
10850641,00000010,false,Rx,9,4,31,08,00,33,00,00,00,00,
10851832,00000040,false,Rx,9,3,B0,34,4D,00,00,00,00,00,
10858978,000000AA,false,Rx,9,2,AA,04,00,00,00,00,00,00,
10861340,00000040,false,Rx,9,6,B0,01,0C,92,FF,FF,00,00,
10863645,00000040,false,Rx,9,8,B0,93,E5,00,14,00,34,4D,
10864467,000002B4,false,Rx,9,3,03,00,02,00,00,00,00,00,
10866502,00000008,false,Rx,9,7,B0,01,0C,0F,73,07,10,00,
10867584,00000010,false,Rx,9,7,B0,01,0C,11,0C,0D,10,00,
10878945,000000AA,false,Rx,9,2,AA,04,00,00,00,00,00,00,
10881127,00000040,false,Rx,9,3,B0,01,0C,00,00,00,00,00,
10883602,000003AC,false,Rx,9,3,03,00,1D,00,00,00,00,00,
10884932,00000010,false,Rx,9,7,B0,01,0C,11,0C,0E,00,00,
10885700,00000010,false,Rx,9,3,B0,0D,10,00,00,00,00,00,
10886926,00000008,false,Rx,9,7,B0,01,0C,0F,73,07,10,00,
10898966,000000AA,false,Rx,9,2,AA,04,00,00,00,00,00,00,
10901142,00000040,false,Rx,9,3,B0,01,0C,00,00,00,00,00,
10903691,000003A4,false,Rx,9,3,03,00,2C,00,00,00,00,00,
10904930,00000010,false,Rx,9,7,B0,01,0C,11,0C,0D,10,00,
10906582,00000008,false,Rx,9,7,B0,01,0C,0F,70,07,10,00,
10918327,000000AA,false,Rx,9,2,AA,04,00,00,00,00,00,00,
10921105,00000040,false,Rx,9,3,B0,01,0C,00,00,00,00,00,
10924934,00000010,false,Rx,9,7,B0,01,0C,11,0C,0D,10,00,
10926149,00000008,false,Rx,9,7,B0,01,0C,0C,B6,0F,70,00,
10927444,00000008,false,Rx,9,7,B0,0E,00,0D,09,07,10,00,
10938276,000000AA,false,Rx,9,2,AA,04,00,00,00,00,00,00,
10941051,00000040,false,Rx,9,3,B0,01,0C,00,00,00,00,00,
10944126,0000029C,false,Rx,9,3,03,00,1A,00,00,00,00,00,
10945216,00000010,false,Rx,9,7,B0,01,0C,11,0C,0D,10,00,
10946739,00000008,false,Rx,9,7,B0,01,0C,0F,6C,07,10,00,
10958899,000000AA,false,Rx,9,2,AA,04,00,00,00,00,00,00,
10961042,00000040,false,Rx,9,3,B0,01,0C,00,00,00,00,00,
10963881,000002BC,false,Rx,9,3,03,00,0F,00,00,00,00,00,
10964821,00000010,false,Rx,9,7,B0,01,0C,11,0C,0D,10,00,
10966542,00000008,false,Rx,9,7,B0,01,0C,0F,6C,07,10,00,
10978322,000000AA,false,Rx,9,2,AA,04,00,00,00,00,00,00,
10981206,00000040,false,Rx,9,3,B0,01,0C,00,00,00,00,00,
10984008,000002B4,false,Rx,9,3,03,00,02,00,00,00,00,00,
10984921,00000010,false,Rx,9,7,B0,01,0C,11,0C,0D,10,00,
10986564,00000008,false,Rx,9,7,B0,01,0C,0F,6C,07,10,00,
10998316,000000AA,false,Rx,9,2,AA,04,00,00,00,00,00,00,
11001109,00000040,false,Rx,9,3,B0,01,0C,00,00,00,00,00,
11003990,000003AC,false,Rx,9,3,03,00,1D,00,00,00,00,00,
11004982,00000010,false,Rx,9,7,B0,01,0C,11,0C,0D,10,00,
11006584,00000008,false,Rx,9,7,B0,01,0C,0F,6C,07,10,00,
11019010,000000AA,false,Rx,9,2,AA,04,00,00,00,00,00,00,
11021149,00000040,false,Rx,9,3,B0,01,0C,00,00,00,00,00,
11024031,000003A4,false,Rx,9,3,03,00,2C,00,00,00,00,00,
11025001,00000010,false,Rx,9,7,B0,01,0C,11,0C,0D,10,00,
11026653,00000008,false,Rx,9,7,B0,01,0C,0F,6C,07,10,00,
11038398,000000AA,false,Rx,9,2,AA,04,00,00,00,00,00,00,
11041183,00000040,false,Rx,9,3,B0,01,0C,00,00,00,00,00,
11044979,00000010,false,Rx,9,7,B0,01,0C,11,0C,0D,10,00,
11046193,00000008,false,Rx,9,7,B0,01,0C,0F,6C,07,10,00,
11058400,000000AA,false,Rx,9,2,AA,04,00,00,00,00,00,00,
11061491,00000040,false,Rx,9,6,B0,01,0C,92,FF,FF,00,00,
11064100,00000040,false,Rx,9,8,B0,93,E5,00,14,00,34,4D,
11065827,0000029C,false,Rx,9,3,03,00,1A,00,00,00,00,00,
11066844,00000008,false,Rx,9,7,B0,01,0C,0F,69,07,10,00,
11067947,00000010,false,Rx,9,7,B0,01,0C,11,0C,0D,10,00,
11078376,000000AA,false,Rx,9,2,AA,04,00,00,00,00,00,00,
11081149,00000040,false,Rx,9,3,B0,01,0C,00,00,00,00,00,
11084206,000002BC,false,Rx,9,3,03,00,0F,00,00,00,00,00,
11084957,00000010,false,Rx,9,7,B0,01,0C,11,0C,0E,00,00,
11085832,00000010,false,Rx,9,3,B0,0D,10,00,00,00,00,00,
11086913,00000008,false,Rx,9,7,B0,01,0C,0F,69,07,10,00,
11098410,000000AA,false,Rx,9,2,AA,04,00,00,00,00,00,00,
11101298,00000040,false,Rx,9,3,B0,01,0C,00,00,00,00,00,
11104260,000002B4,false,Rx,9,3,03,00,0A,00,00,00,00,00,
11105096,00000010,false,Rx,9,7,B0,01,0C,11,0C,0D,10,00,
11106291,00000008,false,Rx,9,7,B0,01,0C,0F,69,07,10,00,
11118454,000000AA,false,Rx,9,2,AA,04,00,00,00,00,00,00,
11121249,00000040,false,Rx,9,3,B0,01,0C,00,00,00,00,00,
11124307,000003AC,false,Rx,9,3,03,00,1D,00,00,00,00,00,
11125009,00000010,false,Rx,9,7,B0,01,0C,11,0C,0D,10,00,
11126208,00000008,false,Rx,9,7,B0,01,0C,0C,B6,0F,69,00,
11127500,00000008,false,Rx,9,7,B0,0E,00,0D,09,07,10,00,
11138508,000000AA,false,Rx,9,2,AA,04,00,00,00,00,00,00,
11141206,00000040,false,Rx,9,3,B0,01,0C,00,00,00,00,00,
11144372,000003A4,false,Rx,9,3,03,00,2C,00,00,00,00,00,
11144956,00000010,false,Rx,9,7,B0,01,0C,11,0C,0D,10,00,
11146573,00000008,false,Rx,9,7,B0,01,0C,0F,69,07,10,00,
11158354,000000AA,false,Rx,9,2,AA,04,00,00,00,00,00,00,
11161233,00000040,false,Rx,9,3,B0,01,0C,00,00,00,00,00,
11164932,00000010,false,Rx,9,7,B0,01,0C,11,0C,0D,10,00,
11166266,00000008,false,Rx,9,7,B0,01,0C,0F,69,07,10,00,
11178464,000000AA,false,Rx,9,2,AA,04,00,00,00,00,00,00,
11181260,00000040,false,Rx,9,3,B0,01,0C,00,00,00,00,00,
11184501,0000029C,false,Rx,9,3,03,00,1A,00,00,00,00,00,
11185285,00000010,false,Rx,9,7,B0,01,0C,11,0C,0D,10,00,
11186815,00000008,false,Rx,9,7,B0,01,0C,0F,69,07,10,00,
11199081,000000AA,false,Rx,9,2,AA,04,00,00,00,00,00,00,
11201228,00000040,false,Rx,9,3,B0,01,0C,00,00,00,00,00,
11204514,000002BC,false,Rx,9,3,03,00,0F,00,00,00,00,00,
11205008,00000010,false,Rx,9,7,B0,01,0C,11,0C,0D,10,00,
11206306,00000008,false,Rx,9,7,B0,01,0C,0F,66,07,10,00,
11218449,000000AA,false,Rx,9,2,AA,04,00,00,00,00,00,00,
11221246,00000040,false,Rx,9,3,B0,01,0C,00,00,00,00,00,
11224516,000002B4,false,Rx,9,3,03,00,0A,00,00,00,00,00,
11225113,00000010,false,Rx,9,7,B0,01,0C,11,0C,0D,10,00,
11226313,00000008,false,Rx,9,7,B0,01,0C,0F,66,07,10,00,
11238418,000000AA,false,Rx,9,2,AA,04,00,00,00,00,00,00,
11241298,00000040,false,Rx,9,3,B0,01,0C,00,00,00,00,00,
11244499,000003AC,false,Rx,9,3,03,00,1D,00,00,00,00,00,
11245113,00000010,false,Rx,9,7,B0,01,0C,11,0C,0D,10,00,
11246353,00000008,false,Rx,9,7,B0,01,0C,0F,66,07,10,00,
11249976,00000010,false,Rx,9,4,30,08,00,35,00,00,00,00,
11250766,00000010,false,Rx,9,4,31,08,00,34,00,00,00,00,
11251952,00000040,false,Rx,9,3,B0,35,BF,00,00,00,00,00,
11258433,000000AA,false,Rx,9,2,AA,04,00,00,00,00,00,00,
11261528,00000040,false,Rx,9,6,B0,01,0C,92,FF,FF,00,00,
11264604,00000040,false,Rx,9,8,B0,93,E5,00,14,00,35,BF,
11264624,000003A4,false,Rx,9,3,03,00,2C,00,00,00,00,00,
11266376,00000010,false,Rx,9,7,B0,01,0C,11,0C,0D,10,00,
11267457,00000008,false,Rx,9,7,B0,01,0C,0F,66,07,10,00,
11278395,000000AA,false,Rx,9,2,AA,04,00,00,00,00,00,00,
11281281,00000040,false,Rx,9,3,B0,01,0C,00,00,00,00,00,
11285121,00000010,false,Rx,9,7,B0,01,0C,11,0C,0E,00,00,
11285920,00000010,false,Rx,9,3,B0,0D,10,00,00,00,00,00,
11287001,00000008,false,Rx,9,7,B0,01,0C,0F,66,07,10,00,
11299107,000000AA,false,Rx,9,2,AA,04,00,00,00,00,00,00,
11301251,00000040,false,Rx,9,3,B0,01,0C,00,00,00,00,00,
11304832,0000029C,false,Rx,9,3,03,00,1A,00,00,00,00,00,
11305426,00000010,false,Rx,9,7,B0,01,0C,11,0C,0D,10,00,
11306849,00000008,false,Rx,9,7,B0,01,0C,0F,66,07,10,00,
11319155,000000AA,false,Rx,9,2,AA,04,00,00,00,00,00,00,
11321298,00000040,false,Rx,9,3,B0,01,0C,00,00,00,00,00,
11323016,000002BC,false,Rx,9,3,03,00,0F,00,00,00,00,00,
11325153,00000010,false,Rx,9,7,B0,01,0C,11,0C,0D,10,00,
11326269,00000008,false,Rx,9,7,B0,01,0C,0C,B6,0F,66,00,
11327639,00000008,false,Rx,9,7,B0,0E,00,0D,09,07,10,00,
11339132,000000AA,false,Rx,9,2,AA,04,00,00,00,00,00,00,
11341276,00000040,false,Rx,9,3,B0,01,0C,00,00,00,00,00,
11342993,000002B4,false,Rx,9,3,03,00,02,00,00,00,00,00,
11345053,00000010,false,Rx,9,7,B0,01,0C,11,0C,0D,10,00,
11346349,00000008,false,Rx,9,7,B0,01,0C,0F,62,07,10,00,
11359201,000000AA,false,Rx,9,2,AA,04,00,00,00,00,00,00,
11361239,00000040,false,Rx,9,3,B0,01,0C,00,00,00,00,00,
11362954,000003AC,false,Rx,9,3,03,00,1D,00,00,00,00,00,
11365073,00000010,false,Rx,9,7,B0,01,0C,11,0C,0D,10,00,
11366298,00000008,false,Rx,9,7,B0,01,0C,0F,62,07,10,00,
11378514,000000AA,false,Rx,9,2,AA,04,00,00,00,00,00,00,
11381518,00000040,false,Rx,9,3,B0,01,0C,00,00,00,00,00,
11383239,000003A4,false,Rx,9,3,03,00,2C,00,00,00,00,00,
11385234,00000010,false,Rx,9,7,B0,01,0C,11,0C,0D,10,00,
11386667,00000008,false,Rx,9,7,B0,01,0C,0F,62,07,10,00,
11398543,000000AA,false,Rx,9,2,AA,04,00,00,00,00,00,00,
11401344,00000040,false,Rx,9,3,B0,01,0C,00,00,00,00,00,
11405180,00000010,false,Rx,9,7,B0,01,0C,11,0C,0D,10,00,
11406290,00000008,false,Rx,9,7,B0,01,0C,0F,62,07,10,00,
11418515,000000AA,false,Rx,9,2,AA,04,00,00,00,00,00,00,
11421306,00000040,false,Rx,9,3,B0,01,0C,00,00,00,00,00,
11425076,0000029C,false,Rx,9,3,03,00,1A,00,00,00,00,00,
11425361,00000010,false,Rx,9,7,B0,01,0C,11,0C,0D,10,00,
11426894,00000008,false,Rx,9,7,B0,01,0C,0F,62,07,10,00,
11438565,000000AA,false,Rx,9,2,AA,04,00,00,00,00,00,00,
11441341,00000040,false,Rx,9,3,B0,01,0C,00,00,00,00,00,
11443057,000002BC,false,Rx,9,3,03,00,0F,00,00,00,00,00,
11445268,00000010,false,Rx,9,7,B0,01,0C,11,0C,0D,10,00,
11446271,00000008,false,Rx,9,7,B0,01,0C,0F,62,07,10,00,
11459323,000000AA,false,Rx,9,2,AA,04,00,00,00,00,00,00,
11461796,00000040,false,Rx,9,6,B0,01,0C,92,FF,FF,00,00,
11463406,00000040,false,Rx,9,8,B0,93,E5,00,14,00,35,BF,
11465091,000002B4,false,Rx,9,3,03,00,0A,00,00,00,00,00,
11466432,00000010,false,Rx,9,7,B0,01,0C,11,0C,0D,10,00,
11467408,00000008,false,Rx,9,7,B0,01,0C,0F,5E,07,10,00,
11478551,000000AA,false,Rx,9,2,AA,04,00,00,00,00,00,00,
11481538,00000040,false,Rx,9,3,B0,01,0C,00,00,00,00,00,
11483257,000003AC,false,Rx,9,3,03,00,1D,00,00,00,00,00,
11485286,00000010,false,Rx,9,7,B0,01,0C,11,0C,0E,00,00,
11486397,00000008,false,Rx,9,7,B0,01,0C,0F,5E,07,10,00,
11487058,00000010,false,Rx,9,3,B0,0D,10,00,00,00,00,00,
11498742,000000AA,false,Rx,9,2,AA,04,00,00,00,00,00,00,
11501499,00000040,false,Rx,9,3,B0,01,0C,00,00,00,00,00,
11503130,000003A4,false,Rx,9,3,03,00,2C,00,00,00,00,00,
11505257,00000010,false,Rx,9,7,B0,01,0C,11,0C,0D,10,00,
11506383,00000008,false,Rx,9,7,B0,01,0C,0F,5E,07,10,00,
11518592,000000AA,false,Rx,9,2,AA,04,00,00,00,00,00,00,
11521370,00000040,false,Rx,9,3,B0,01,0C,00,00,00,00,00,
11525272,00000010,false,Rx,9,7,B0,01,0C,11,0C,0D,10,00,
11526219,00000008,false,Rx,9,7,B0,01,0C,0C,B6,0F,5E,00,
11527542,00000008,false,Rx,9,7,B0,0E,00,0D,09,07,10,00,
11538506,000000AA,false,Rx,9,2,AA,04,00,00,00,00,00,00,
11541386,00000040,false,Rx,9,3,B0,01,0C,00,00,00,00,00,
11545309,0000029C,false,Rx,9,3,03,00,1A,00,00,00,00,00,
11545472,00000010,false,Rx,9,7,B0,01,0C,11,0C,0D,10,00,
11546909,00000008,false,Rx,9,7,B0,01,0C,0F,5E,07,10,00,
11558587,000000AA,false,Rx,9,2,AA,04,00,00,00,00,00,00,
11561365,00000040,false,Rx,9,3,B0,01,0C,00,00,00,00,00,
11563082,000002BC,false,Rx,9,3,03,00,0F,00,00,00,00,00,
11565417,00000010,false,Rx,9,7,B0,01,0C,11,0C,0D,10,00,
11566333,00000008,false,Rx,9,7,B0,01,0C,0F,5E,07,10,00,
11579272,000000AA,false,Rx,9,2,AA,04,00,00,00,00,00,00,
11581423,00000040,false,Rx,9,3,B0,01,0C,00,00,00,00,00,
11583138,000002B4,false,Rx,9,3,03,00,0A,00,00,00,00,00,
11585458,00000010,false,Rx,9,7,B0,01,0C,11,0C,0D,10,00,
11586384,00000008,false,Rx,9,7,B0,01,0C,0F,5E,07,10,00,
11598633,000000AA,false,Rx,9,2,AA,04,00,00,00,00,00,00,
11601440,00000040,false,Rx,9,3,B0,01,0C,00,00,00,00,00,
11603165,000003AC,false,Rx,9,3,03,00,1D,00,00,00,00,00,
11605517,00000010,false,Rx,9,7,B0,01,0C,11,0C,0D,10,00,
11606316,00000008,false,Rx,9,7,B0,01,0C,0F,5C,07,10,00,
11618600,000000AA,false,Rx,9,2,AA,04,00,00,00,00,00,00,
11621387,00000040,false,Rx,9,3,B0,01,0C,00,00,00,00,00,
11623104,000003A4,false,Rx,9,3,03,00,2C,00,00,00,00,00,
11634398,00001000,true,Rx,9,8,00,00,00,1A,00,00,05,9D,
11636098,00001001,true,Rx,9,8,00,00,00,00,00,00,00,00,
11637533,00001002,true,Rx,9,8,00,00,00,00,00,00,00,00,
11625536,00000010,false,Rx,9,7,B0,01,0C,11,0C,0D,10,00,
11626334,00000008,false,Rx,9,7,B0,01,0C,0F,5C,07,10,00,
11639891,000000AA,false,Rx,9,2,AA,04,00,00,00,00,00,00,
11641514,00000040,false,Rx,9,3,B0,01,0C,00,00,00,00,00,
11645525,00000010,false,Rx,9,7,B0,01,0C,11,0C,0D,10,00,
11646247,00000008,false,Rx,9,7,B0,01,0C,0F,5C,07,10,00,
11649890,00000010,false,Rx,9,4,31,08,00,35,00,00,00,00,
11658612,000000AA,false,Rx,9,2,AA,04,00,00,00,00,00,00,
11661707,00000040,false,Rx,9,6,B0,01,0C,92,FF,FF,00,00,
11663104,00000040,false,Rx,9,6,B0,93,E5,00,14,00,00,00,
11665752,0000029C,false,Rx,9,3,03,00,1A,00,00,00,00,00,
11666727,00000008,false,Rx,9,7,B0,01,0C,0F,5C,07,10,00,
11667798,00000010,false,Rx,9,7,B0,01,0C,11,0C,0D,10,00,
11679295,000000AA,false,Rx,9,2,AA,04,00,00,00,00,00,00,
11681433,00000040,false,Rx,9,3,B0,01,0C,00,00,00,00,00,
11683149,000002BC,false,Rx,9,3,03,00,0F,00,00,00,00,00,
11685665,00000010,false,Rx,9,7,B0,01,0C,11,0C,0E,00,00,
11686391,00000008,false,Rx,9,7,B0,01,0C,0F,5C,07,10,00,
11687053,00000010,false,Rx,9,3,B0,0D,10,00,00,00,00,00,
11698637,000000AA,false,Rx,9,2,AA,04,00,00,00,00,00,00,
11701508,00000040,false,Rx,9,3,B0,01,0C,00,00,00,00,00,
11703291,000002B4,false,Rx,9,3,03,00,02,00,00,00,00,00,
11705722,00000010,false,Rx,9,7,B0,01,0C,11,0C,0D,10,00,
11706340,00000008,false,Rx,9,7,B0,01,0C,0F,5C,07,10,00,
11718652,000000AA,false,Rx,9,2,AA,04,00,00,00,00,00,00,
11721430,00000040,false,Rx,9,3,B0,01,0C,00,00,00,00,00,
11723147,000003AC,false,Rx,9,3,03,00,1D,00,00,00,00,00,
11725784,00000010,false,Rx,9,7,B0,01,0C,11,0C,0D,10,00,
11726263,00000008,false,Rx,9,7,B0,01,0C,0C,B6,0F,5C,00,
11727562,00000008,false,Rx,9,7,B0,0E,00,0D,09,07,10,00,
11739319,000000AA,false,Rx,9,2,AA,04,00,00,00,00,00,00,
11741365,00000040,false,Rx,9,3,B0,01,0C,00,00,00,00,00,
11743082,000003A4,false,Rx,9,3,03,00,2C,00,00,00,00,00,
11745858,00000010,false,Rx,9,7,B0,01,0C,11,0C,0D,10,00,
11746354,00000008,false,Rx,9,7,B0,01,0C,0F,5C,07,10,00,
11758670,000000AA,false,Rx,9,2,AA,04,00,00,00,00,00,00,
11761341,00000040,false,Rx,9,3,B0,01,0C,00,00,00,00,00,
11765890,00000010,false,Rx,9,7,B0,01,0C,11,0C,0D,10,00,
11766269,00000008,false,Rx,9,7,B0,01,0C,0F,58,07,10,00,
11778673,000000AA,false,Rx,9,2,AA,04,00,00,00,00,00,00,
11781463,00000040,false,Rx,9,3,B0,01,0C,00,00,00,00,00,
11785910,0000029C,false,Rx,9,3,03,00,1A,00,00,00,00,00,
11785934,00000010,false,Rx,9,7,B0,01,0C,11,0C,0D,10,00,
11786567,00000008,false,Rx,9,7,B0,01,0C,0F,58,07,10,00,
11798702,000000AA,false,Rx,9,2,AA,04,00,00,00,00,00,00,
11801503,00000040,false,Rx,9,3,B0,01,0C,00,00,00,00,00,
11803246,000002BC,false,Rx,9,3,03,00,0F,00,00,00,00,00,
11806050,00000010,false,Rx,9,7,B0,01,0C,11,0C,0D,10,00,
11806327,00000008,false,Rx,9,7,B0,01,0C,0F,58,07,10,00,
11818726,000000AA,false,Rx,9,2,AA,04,00,00,00,00,00,00,
11821413,00000040,false,Rx,9,3,B0,01,0C,00,00,00,00,00,
11823239,000002B4,false,Rx,9,3,03,00,02,00,00,00,00,00,
11826083,00000010,false,Rx,9,7,B0,01,0C,11,0C,0D,10,00,
11826373,00000008,false,Rx,9,7,B0,01,0C,0F,58,07,10,00,
11838683,000000AA,false,Rx,9,2,AA,04,00,00,00,00,00,00,
11841461,00000040,false,Rx,9,3,B0,01,0C,00,00,00,00,00,
11843285,000003AC,false,Rx,9,3,03,00,1D,00,00,00,00,00,
11846111,00000010,false,Rx,9,7,B0,01,0C,11,0C,0D,10,00,
11846399,00000008,false,Rx,9,7,B0,01,0C,0F,58,07,10,00,
11858771,000000AA,false,Rx,9,2,AA,04,00,00,00,00,00,00,
11861780,00000040,false,Rx,9,6,B0,01,0C,92,FF,FF,00,00,
11863174,00000040,false,Rx,9,6,B0,93,E5,00,14,00,00,00,
11864468,000003A4,false,Rx,9,3,03,00,2C,00,00,00,00,00,
11866363,00000010,false,Rx,9,7,B0,01,0C,11,0C,0D,10,00,
11867373,00000008,false,Rx,9,7,B0,01,0C,0F,58,07,10,00,
11878734,000000AA,false,Rx,9,2,AA,04,00,00,00,00,00,00,
11881508,00000040,false,Rx,9,3,B0,01,0C,00,00,00,00,00,
11887013,00000010,false,Rx,9,7,B0,01,0C,11,0C,0E,00,00,
11887032,00000008,false,Rx,9,7,B0,01,0C,0F,58,07,10,00,
11887049,00000010,false,Rx,9,3,B0,0D,10,00,00,00,00,00,
11898772,000000AA,false,Rx,9,2,AA,04,00,00,00,00,00,00,
11901559,00000040,false,Rx,9,3,B0,01,0C,00,00,00,00,00,
11904571,0000029C,false,Rx,9,3,03,00,1A,00,00,00,00,00,
11906012,00000010,false,Rx,9,7,B0,01,0C,11,0C,0D,10,00,
11906681,00000008,false,Rx,9,7,B0,01,0C,0F,58,07,10,00,
11919376,000000AA,false,Rx,9,2,AA,04,00,00,00,00,00,00,
11921520,00000040,false,Rx,9,3,B0,01,0C,00,00,00,00,00,
11923239,000002BC,false,Rx,9,3,03,00,0F,00,00,00,00,00,
11926013,00000010,false,Rx,9,7,B0,01,0C,11,0C,0D,10,00,
11926263,00000008,false,Rx,9,7,B0,01,0C,0C,B6,0F,54,00,
11927554,00000008,false,Rx,9,7,B0,0E,00,0D,09,07,10,00,
11938706,000000AA,false,Rx,9,2,AA,04,00,00,00,00,00,00,
11941483,00000040,false,Rx,9,3,B0,01,0C,00,00,00,00,00,
11943194,000002B4,false,Rx,9,3,03,00,0A,00,00,00,00,00,
11946407,00000010,false,Rx,9,7,B0,01,0C,11,0C,0D,10,00,
11946427,00000008,false,Rx,9,7,B0,01,0C,0F,54,07,10,00,
11959435,000000AA,false,Rx,9,2,AA,04,00,00,00,00,00,00,
11961481,00000040,false,Rx,9,3,B0,01,0C,00,00,00,00,00,
11963199,000003AC,false,Rx,9,3,03,00,1D,00,00,00,00,00,
11966366,00000010,false,Rx,9,7,B0,01,0C,11,0C,0D,10,00,
11966391,00000008,false,Rx,9,7,B0,01,0C,0F,54,07,10,00,
11978770,000000AA,false,Rx,9,2,AA,04,00,00,00,00,00,00,
11981545,00000040,false,Rx,9,3,B0,01,0C,00,00,00,00,00,
11983264,000003A4,false,Rx,9,3,03,00,2C,00,00,00,00,00,
11986431,00000010,false,Rx,9,7,B0,01,0C,11,0C,0D,10,00,
11986453,00000008,false,Rx,9,7,B0,01,0C,0F,54,07,10,00,
11998846,000000AA,false,Rx,9,2,AA,04,00,00,00,00,00,00,
12001528,00000040,false,Rx,9,3,B0,01,0C,00,00,00,00,00,
12006569,00000010,false,Rx,9,7,B0,01,0C,11,0C,0D,10,00,
12006589,00000008,false,Rx,9,7,B0,01,0C,0F,54,07,10,00,
12018771,000000AA,false,Rx,9,2,AA,04,00,00,00,00,00,00,
12021550,00000040,false,Rx,9,3,B0,01,0C,00,00,00,00,00,
12024602,0000029C,false,Rx,9,3,03,00,1A,00,00,00,00,00,
12026501,00000010,false,Rx,9,7,B0,01,0C,11,0C,0D,10,00,
12026688,00000008,false,Rx,9,7,B0,01,0C,0F,54,07,10,00,
12038794,000000AA,false,Rx,9,2,AA,04,00,00,00,00,00,00,
12041554,00000040,false,Rx,9,3,B0,01,0C,00,00,00,00,00,
12043349,000002BC,false,Rx,9,3,03,00,0F,00,00,00,00,00,
12046460,00000010,false,Rx,9,7,B0,01,0C,11,0C,0D,10,00,
12046480,00000008,false,Rx,9,7,B0,01,0C,0F,54,07,10,00,
12058794,000000AA,false,Rx,9,2,AA,04,00,00,00,00,00,00,
12061894,00000040,false,Rx,9,6,B0,01,0C,92,FF,FF,00,00,
12063291,00000040,false,Rx,9,6,B0,93,E5,00,14,00,00,00,
12064580,000002B4,false,Rx,9,3,03,00,02,00,00,00,00,00,
12066584,00000010,false,Rx,9,7,B0,01,0C,11,0C,0D,10,00,
12067416,00000008,false,Rx,9,7,B0,01,0C,0F,54,07,10,00,
12078772,000000AA,false,Rx,9,2,AA,04,00,00,00,00,00,00,
12081560,00000040,false,Rx,9,3,B0,01,0C,00,00,00,00,00,
12083281,000003AC,false,Rx,9,3,03,00,1D,00,00,00,00,00,
12086659,00000010,false,Rx,9,7,B0,01,0C,11,0C,0E,00,00,
12086685,00000008,false,Rx,9,7,B0,01,0C,0F,54,07,10,00,
12087083,00000010,false,Rx,9,3,B0,0D,10,00,00,00,00,00,
12098767,000000AA,false,Rx,9,2,AA,04,00,00,00,00,00,00,
12101644,00000040,false,Rx,9,3,B0,01,0C,00,00,00,00,00,
12103362,000003A4,false,Rx,9,3,03,00,2C,00,00,00,00,00,
12106741,00000010,false,Rx,9,7,B0,01,0C,11,0C,0D,10,00,
12106760,00000008,false,Rx,9,7,B0,01,0C,0F,52,07,10,00,
12119444,000000AA,false,Rx,9,2,AA,04,00,00,00,00,00,00,
12121603,00000040,false,Rx,9,3,B0,01,0C,00,00,00,00,00,
12126777,00000010,false,Rx,9,7,B0,01,0C,11,0C,0D,10,00,
12126799,00000008,false,Rx,9,7,B0,01,0C,0C,B6,0F,52,00,
12127618,00000008,false,Rx,9,7,B0,0E,00,0D,09,07,10,00,
12138885,000000AA,false,Rx,9,2,AA,04,00,00,00,00,00,00,
12141575,00000040,false,Rx,9,3,B0,01,0C,00,00,00,00,00,
12144627,0000029C,false,Rx,9,3,03,00,1A,00,00,00,00,00,
12146843,00000010,false,Rx,9,7,B0,01,0C,11,0C,0D,10,00,
12146862,00000008,false,Rx,9,7,B0,01,0C,0F,52,07,10,00,
12158814,000000AA,false,Rx,9,2,AA,04,00,00,00,00,00,00,
12161691,00000040,false,Rx,9,3,B0,01,0C,00,00,00,00,00,
12163411,000002BC,false,Rx,9,3,03,00,0F,00,00,00,00,00,
12166905,00000010,false,Rx,9,7,B0,01,0C,11,0C,0D,10,00,
12166925,00000008,false,Rx,9,7,B0,01,0C,0F,52,07,10,00,
12179533,000000AA,false,Rx,9,2,AA,04,00,00,00,00,00,00,
12181581,00000040,false,Rx,9,3,B0,01,0C,00,00,00,00,00,
12183298,000002B4,false,Rx,9,3,03,00,02,00,00,00,00,00,
12185334,00000010,false,Rx,9,7,B0,01,0C,11,0C,0D,10,00,
12187043,00000008,false,Rx,9,7,B0,01,0C,0F,52,07,10,00,
12198882,000000AA,false,Rx,9,2,AA,04,00,00,00,00,00,00,
12201657,00000040,false,Rx,9,3,B0,01,0C,00,00,00,00,00,
12203376,000003AC,false,Rx,9,3,03,00,1D,00,00,00,00,00,
12205306,00000010,false,Rx,9,7,B0,01,0C,11,0C,0D,10,00,
12207090,00000008,false,Rx,9,7,B0,01,0C,0F,52,07,10,00,
12219505,000000AA,false,Rx,9,2,AA,04,00,00,00,00,00,00,
12221567,00000040,false,Rx,9,3,B0,01,0C,00,00,00,00,00,
12223392,000003A4,false,Rx,9,3,03,00,2C,00,00,00,00,00,
12225323,00000010,false,Rx,9,7,B0,01,0C,11,0C,0D,10,00,
12227126,00000008,false,Rx,9,7,B0,01,0C,0F,52,07,10,00,
12238849,000000AA,false,Rx,9,2,AA,04,00,00,00,00,00,00,
12241628,00000040,false,Rx,9,3,B0,01,0C,00,00,00,00,00,
12245255,00000010,false,Rx,9,7,B0,01,0C,11,0C,0D,10,00,
12247133,00000008,false,Rx,9,7,B0,01,0C,0F,52,07,10,00,
12258898,000000AA,false,Rx,9,2,AA,04,00,00,00,00,00,00,
12261901,00000040,false,Rx,9,6,B0,01,0C,92,FF,FF,00,00,
12263300,00000040,false,Rx,9,6,B0,93,E5,00,14,00,00,00,
12267184,0000029C,false,Rx,9,3,03,00,1A,00,00,00,00,00,
12267208,00000008,false,Rx,9,7,B0,01,0C,0F,52,07,10,00,
12268127,00000010,false,Rx,9,7,B0,01,0C,11,0C,0D,10,00,
12279506,000000AA,false,Rx,9,2,AA,04,00,00,00,00,00,00,
12281643,00000040,false,Rx,9,3,B0,01,0C,00,00,00,00,00,
12283362,000002BC,false,Rx,9,3,03,00,0F,00,00,00,00,00,
12285292,00000010,false,Rx,9,7,B0,01,0C,11,0C,0E,00,00,
12287187,00000008,false,Rx,9,7,B0,01,0C,0F,4E,07,10,00,
12287214,00000010,false,Rx,9,3,B0,0D,10,00,00,00,00,00,
12298959,000000AA,false,Rx,9,2,AA,04,00,00,00,00,00,00,
12301857,00000040,false,Rx,9,3,B0,01,0C,00,00,00,00,00,
12303569,000002B4,false,Rx,9,3,03,00,0A,00,00,00,00,00,
12305287,00000010,false,Rx,9,7,B0,01,0C,11,0C,0D,10,00,
12307287,00000008,false,Rx,9,7,B0,01,0C,0F,4E,07,10,00,
12318869,000000AA,false,Rx,9,2,AA,04,00,00,00,00,00,00,
12321684,00000040,false,Rx,9,3,B0,01,0C,00,00,00,00,00,
12323408,000003AC,false,Rx,9,3,03,00,1D,00,00,00,00,00,
12325338,00000010,false,Rx,9,7,B0,01,0C,11,0C,0D,10,00,
12327352,00000008,false,Rx,9,7,B0,01,0C,0C,B6,0F,4E,00,
12327630,00000008,false,Rx,9,7,B0,0E,00,0D,09,07,10,00,
12338939,000000AA,false,Rx,9,2,AA,04,00,00,00,00,00,00,
12341625,00000040,false,Rx,9,3,B0,01,0C,00,00,00,00,00,
12343343,000003A4,false,Rx,9,3,03,00,2C,00,00,00,00,00,
12345376,00000010,false,Rx,9,7,B0,01,0C,11,0C,0D,10,00,
12347308,00000008,false,Rx,9,7,B0,01,0C,0F,4E,07,10,00,
12359615,000000AA,false,Rx,9,2,AA,04,00,00,00,00,00,00,
12361583,00000040,false,Rx,9,3,B0,01,0C,00,00,00,00,00,
12365318,00000010,false,Rx,9,7,B0,01,0C,11,0C,0D,10,00,
12367343,00000008,false,Rx,9,7,B0,01,0C,0F,4E,07,10,00,
12378895,000000AA,false,Rx,9,2,AA,04,00,00,00,00,00,00,
12381723,00000040,false,Rx,9,3,B0,01,0C,00,00,00,00,00,
12384785,0000029C,false,Rx,9,3,03,00,1A,00,00,00,00,00,
12385759,00000010,false,Rx,9,7,B0,01,0C,11,0C,0D,10,00,
12387256,00000008,false,Rx,9,7,B0,01,0C,0F,4E,07,10,00,
12399040,000000AA,false,Rx,9,2,AA,04,00,00,00,00,00,00,
12401813,00000040,false,Rx,9,3,B0,01,0C,00,00,00,00,00,
12403437,000002BC,false,Rx,9,3,03,00,0F,00,00,00,00,00,
12405368,00000010,false,Rx,9,7,B0,01,0C,11,0C,0D,10,00,
12407452,00000008,false,Rx,9,7,B0,01,0C,0F,4E,07,10,00,
12418929,000000AA,false,Rx,9,2,AA,04,00,00,00,00,00,00,
12421749,00000040,false,Rx,9,3,B0,01,0C,00,00,00,00,00,
12423468,000002B4,false,Rx,9,3,03,00,0A,00,00,00,00,00,
12425397,00000010,false,Rx,9,7,B0,01,0C,11,0C,0D,10,00,
12427532,00000008,false,Rx,9,7,B0,01,0C,0F,4E,07,10,00,
12438912,000000AA,false,Rx,9,2,AA,04,00,00,00,00,00,00,
12441811,00000040,false,Rx,9,3,B0,01,0C,00,00,00,00,00,
12443523,000003AC,false,Rx,9,3,03,00,1D,00,00,00,00,00,
12445344,00000010,false,Rx,9,7,B0,01,0C,11,0C,0D,10,00,
12447549,00000008,false,Rx,9,7,B0,01,0C,0F,4A,07,10,00,
12458987,000000AA,false,Rx,9,2,AA,04,00,00,00,00,00,00,
12462086,00000040,false,Rx,9,6,B0,01,0C,92,FF,FF,00,00,
12463376,00000040,false,Rx,9,6,B0,93,E5,00,14,00,00,00,
12464778,000003A4,false,Rx,9,3,03,00,2C,00,00,00,00,00,
12467558,00000010,false,Rx,9,7,B0,01,0C,11,0C,0D,10,00,
12467577,00000008,false,Rx,9,7,B0,01,0C,0F,4A,07,10,00,
12478946,000000AA,false,Rx,9,2,AA,04,00,00,00,00,00,00,
12481819,00000040,false,Rx,9,3,B0,01,0C,00,00,00,00,00,
12485338,00000010,false,Rx,9,7,B0,01,0C,11,0C,0E,00,00,
12487804,00000008,false,Rx,9,7,B0,01,0C,0F,4A,07,10,00,
12487824,00000010,false,Rx,9,3,B0,0D,10,00,00,00,00,00,
12498919,000000AA,false,Rx,9,2,AA,04,00,00,00,00,00,00,
12501806,00000040,false,Rx,9,3,B0,01,0C,00,00,00,00,00,
12504853,0000029C,false,Rx,9,3,03,00,1A,00,00,00,00,00,
12505829,00000010,false,Rx,9,7,B0,01,0C,11,0C,0D,10,00,
12507736,00000008,false,Rx,9,7,B0,01,0C,0F,4A,07,10,00,
12519057,000000AA,false,Rx,9,2,AA,04,00,00,00,00,00,00,
12521760,00000040,false,Rx,9,3,B0,01,0C,00,00,00,00,00,
12523500,000002BC,false,Rx,9,3,03,00,0F,00,00,00,00,00,
12525328,00000010,false,Rx,9,7,B0,01,0C,11,0C,0D,10,00,
12527767,00000008,false,Rx,9,7,B0,01,0C,0C,B6,0F,48,00,
12527789,00000008,false,Rx,9,7,B0,0E,00,0D,09,07,10,00,
12539629,000000AA,false,Rx,9,2,AA,04,00,00,00,00,00,00,
12541663,00000040,false,Rx,9,3,B0,01,0C,00,00,00,00,00,
12543482,000002B4,false,Rx,9,3,03,00,02,00,00,00,00,00,
12545424,00000010,false,Rx,9,7,B0,01,0C,11,0C,0D,10,00,
12547850,00000008,false,Rx,9,7,B0,01,0C,0F,48,07,10,00,
12559030,000000AA,false,Rx,9,2,AA,04,00,00,00,00,00,00,
12561721,00000040,false,Rx,9,3,B0,01,0C,00,00,00,00,00,
12563433,000003AC,false,Rx,9,3,03,00,1D,00,00,00,00,00,
12565363,00000010,false,Rx,9,7,B0,01,0C,11,0C,0D,10,00,
12567890,00000008,false,Rx,9,7,B0,01,0C,0F,48,07,10,00,
12579637,000000AA,false,Rx,9,2,AA,04,00,00,00,00,00,00,
12581785,00000040,false,Rx,9,3,B0,01,0C,00,00,00,00,00,
12583497,000003A4,false,Rx,9,3,03,00,2C,00,00,00,00,00,
12585322,00000010,false,Rx,9,7,B0,01,0C,11,0C,0D,10,00,
12587892,00000008,false,Rx,9,7,B0,01,0C,0F,48,07,10,00,
12599012,000000AA,false,Rx,9,2,AA,04,00,00,00,00,00,00,
12601817,00000040,false,Rx,9,3,B0,01,0C,00,00,00,00,00,
12605336,00000010,false,Rx,9,7,B0,01,0C,11,0C,0D,10,00,
12606313,00000008,false,Rx,9,7,B0,01,0C,0F,48,07,10,00,
12619056,000000AA,false,Rx,9,2,AA,04,00,00,00,00,00,00,
12621801,00000040,false,Rx,9,3,B0,01,0C,00,00,00,00,00,
12624888,0000029C,false,Rx,9,3,03,00,1A,00,00,00,00,00,
12625870,00000010,false,Rx,9,7,B0,01,0C,11,0C,0D,10,00,
12634530,00001000,true,Rx,9,8,00,00,00,1B,00,00,06,C2,
12636227,00001001,true,Rx,9,8,00,00,00,00,00,00,00,00,
12637654,00001002,true,Rx,9,8,00,00,00,00,00,00,00,00,
12628097,00000008,false,Rx,9,7,B0,01,0C,0F,48,07,10,00,
12639556,000000AA,false,Rx,9,2,AA,04,00,00,00,00,00,00,
12641822,00000040,false,Rx,9,3,B0,01,0C,00,00,00,00,00,
12643551,000002BC,false,Rx,9,3,03,00,0F,00,00,00,00,00,
12645444,00000010,false,Rx,9,7,B0,01,0C,11,0C,0D,10,00,
12646465,00000008,false,Rx,9,7,B0,01,0C,0F,48,07,10,00,
12659807,000000AA,false,Rx,9,2,AA,04,00,00,00,00,00,00,
12662078,00000040,false,Rx,9,6,B0,01,0C,92,FF,FF,00,00,
12663476,00000040,false,Rx,9,6,B0,93,E5,00,14,00,00,00,
12664874,000002B4,false,Rx,9,3,03,00,0A,00,00,00,00,00,
12666375,00000010,false,Rx,9,7,B0,01,0C,11,0C,0D,10,00,
12668179,00000008,false,Rx,9,7,B0,01,0C,0F,48,07,10,00,
12679681,000000AA,false,Rx,9,2,AA,04,00,00,00,00,00,00,
12681829,00000040,false,Rx,9,3,B0,01,0C,00,00,00,00,00,
12683543,000003AC,false,Rx,9,3,03,00,1D,00,00,00,00,00,
12685368,00000010,false,Rx,9,7,B0,01,0C,11,0C,0E,00,00,
12686448,00000008,false,Rx,9,7,B0,01,0C,0F,48,07,10,00,
12688249,00000010,false,Rx,9,3,B0,0D,10,00,00,00,00,00,
12699066,000000AA,false,Rx,9,2,AA,04,00,00,00,00,00,00,
12701864,00000040,false,Rx,9,3,B0,01,0C,00,00,00,00,00,
12703578,000003A4,false,Rx,9,3,03,00,2C,00,00,00,00,00,
12705403,00000010,false,Rx,9,7,B0,01,0C,11,0C,0D,10,00,
12706484,00000008,false,Rx,9,7,B0,01,0C,0F,48,07,10,00,
12719738,000000AA,false,Rx,9,2,AA,04,00,00,00,00,00,00,
12721805,00000040,false,Rx,9,3,B0,01,0C,00,00,00,00,00,
12725370,00000010,false,Rx,9,7,B0,01,0C,11,0C,0D,10,00,
12726352,00000008,false,Rx,9,7,B0,01,0C,0C,B6,0F,44,00,
12728694,00000008,false,Rx,9,7,B0,0E,00,0D,09,07,10,00,
12739177,000000AA,false,Rx,9,2,AA,04,00,00,00,00,00,00,
12741876,00000040,false,Rx,9,3,B0,01,0C,00,00,00,00,00,
12744820,0000029C,false,Rx,9,3,03,00,1A,00,00,00,00,00,
12745901,00000010,false,Rx,9,7,B0,01,0C,11,0C,0D,10,00,
12748417,00000008,false,Rx,9,7,B0,01,0C,0F,44,07,10,00,
12759116,000000AA,false,Rx,9,2,AA,04,00,00,00,00,00,00,
12761793,00000040,false,Rx,9,3,B0,01,0C,00,00,00,00,00,
12763508,000002BC,false,Rx,9,3,03,00,0F,00,00,00,00,00,
12765439,00000010,false,Rx,9,7,B0,01,0C,11,0C,0D,10,00,
12766415,00000008,false,Rx,9,7,B0,01,0C,0F,44,07,10,00,
12779100,000000AA,false,Rx,9,2,AA,04,00,00,00,00,00,00,
12781907,00000040,false,Rx,9,3,B0,01,0C,00,00,00,00,00,
12783622,000002B4,false,Rx,9,3,03,00,0A,00,00,00,00,00,
12785341,00000010,false,Rx,9,7,B0,01,0C,11,0C,0D,10,00,
12786423,00000008,false,Rx,9,7,B0,01,0C,0F,44,07,10,00,
12799801,000000AA,false,Rx,9,2,AA,04,00,00,00,00,00,00,
12801865,00000040,false,Rx,9,3,B0,01,0C,00,00,00,00,00,
12803578,000003AC,false,Rx,9,3,03,00,1D,00,00,00,00,00,
12805403,00000010,false,Rx,9,7,B0,01,0C,11,0C,0D,10,00,
12806484,00000008,false,Rx,9,7,B0,01,0C,0F,44,07,10,00,
12819836,000000AA,false,Rx,9,2,AA,04,00,00,00,00,00,00,
12821895,00000040,false,Rx,9,3,B0,01,0C,00,00,00,00,00,
12823608,000003A4,false,Rx,9,3,03,00,2C,00,00,00,00,00,
12825452,00000010,false,Rx,9,7,B0,01,0C,11,0C,0D,10,00,
12826480,00000008,false,Rx,9,7,B0,01,0C,0F,44,07,10,00,
12839773,000000AA,false,Rx,9,2,AA,04,00,00,00,00,00,00,
12841945,00000040,false,Rx,9,3,B0,01,0C,00,00,00,00,00,
12845357,00000010,false,Rx,9,7,B0,01,0C,11,0C,0D,10,00,
12846437,00000008,false,Rx,9,7,B0,01,0C,0F,44,07,10,00,
12859853,000000AA,false,Rx,9,2,AA,04,00,00,00,00,00,00,
12862233,00000040,false,Rx,9,6,B0,01,0C,92,FF,FF,00,00,
12863523,00000040,false,Rx,9,6,B0,93,E5,00,14,00,00,00,
12866578,00000010,false,Rx,9,7,B0,01,0C,11,0C,0D,10,00,
12868819,00000008,false,Rx,9,7,B0,01,0C,0F,44,07,10,00,
12868838,0000029C,false,Rx,9,3,03,00,1A,00,00,00,00,00,
12879093,000000AA,false,Rx,9,2,AA,04,00,00,00,00,00,00,
12881974,00000040,false,Rx,9,3,B0,01,0C,00,00,00,00,00,
12883686,000002BC,false,Rx,9,3,03,00,0F,00,00,00,00,00,
12885486,00000010,false,Rx,9,7,B0,01,0C,11,0C,0E,00,00,
12886481,00000008,false,Rx,9,7,B0,01,0C,0F,44,07,10,00,
12887169,00000010,false,Rx,9,3,B0,0D,10,00,00,00,00,00,
12899198,000000AA,false,Rx,9,2,AA,04,00,00,00,00,00,00,
12901992,00000040,false,Rx,9,3,B0,01,0C,00,00,00,00,00,
12903712,000002B4,false,Rx,9,3,03,00,02,00,00,00,00,00,
12905428,00000010,false,Rx,9,7,B0,01,0C,11,0C,0D,10,00,
12906508,00000008,false,Rx,9,7,B0,01,0C,0F,44,07,10,00,
12919151,000000AA,false,Rx,9,2,AA,04,00,00,00,00,00,00,
12921954,00000040,false,Rx,9,3,B0,01,0C,00,00,00,00,00,
12923667,000003AC,false,Rx,9,3,03,00,1D,00,00,00,00,00,
12925384,00000010,false,Rx,9,7,B0,01,0C,11,0C,0D,10,00,
12926463,00000008,false,Rx,9,7,B0,01,0C,0C,B6,0F,40,00,
12929113,00000008,false,Rx,9,7,B0,0E,00,0D,09,07,10,00,
12939183,000000AA,false,Rx,9,2,AA,04,00,00,00,00,00,00,
12941873,00000040,false,Rx,9,3,B0,01,0C,00,00,00,00,00,
12943586,000003A4,false,Rx,9,3,03,00,2C,00,00,00,00,00,
12945411,00000010,false,Rx,9,7,B0,01,0C,11,0C,0D,10,00,
12946491,00000008,false,Rx,9,7,B0,01,0C,0F,40,07,10,00,
12959210,000000AA,false,Rx,9,2,AA,04,00,00,00,00,00,00,
12961907,00000040,false,Rx,9,3,B0,01,0C,00,00,00,00,00,
12965423,00000010,false,Rx,9,7,B0,01,0C,11,0C,0D,10,00,
12966397,00000008,false,Rx,9,7,B0,01,0C,0F,40,07,10,00,
12979852,000000AA,false,Rx,9,2,AA,04,00,00,00,00,00,00,
12981907,00000040,false,Rx,9,3,B0,01,0C,00,00,00,00,00,
12984958,0000029C,false,Rx,9,3,03,00,1A,00,00,00,00,00,
12986039,00000010,false,Rx,9,7,B0,01,0C,11,0C,0D,10,00,
12987013,00000008,false,Rx,9,7,B0,01,0C,0F,40,07,10,00,
12999850,000000AA,false,Rx,9,2,AA,04,00,00,00,00,00,00,
13001907,00000040,false,Rx,9,3,B0,01,0C,00,00,00,00,00,
13003732,000002BC,false,Rx,9,3,03,00,0F,00,00,00,00,00,
13005446,00000010,false,Rx,9,7,B0,01,0C,11,0C,0D,10,00,
13006525,00000008,false,Rx,9,7,B0,01,0C,0F,40,07,10,00,
13019862,000000AA,false,Rx,9,2,AA,04,00,00,00,00,00,00,
13021917,00000040,false,Rx,9,3,B0,01,0C,00,00,00,00,00,
13023744,000002B4,false,Rx,9,3,03,00,02,00,00,00,00,00,
13025457,00000010,false,Rx,9,7,B0,01,0C,11,0C,0D,10,00,
13026536,00000008,false,Rx,9,7,B0,01,0C,0F,40,07,10,00,
13039231,000000AA,false,Rx,9,2,AA,04,00,00,00,00,00,00,
13042004,00000040,false,Rx,9,3,B0,01,0C,00,00,00,00,00,
13043679,000003AC,false,Rx,9,3,03,00,1D,00,00,00,00,00,
13045404,00000010,false,Rx,9,7,B0,01,0C,11,0C,0D,10,00,
13046486,00000008,false,Rx,9,7,B0,01,0C,0F,40,07,10,00,
13059287,000000AA,false,Rx,9,2,AA,04,00,00,00,00,00,00,
13062297,00000040,false,Rx,9,6,B0,01,0C,92,FF,FF,00,00,
13063692,00000040,false,Rx,9,6,B0,93,E5,00,14,00,00,00,
13065094,000003A4,false,Rx,9,3,03,00,2C,00,00,00,00,00,
13066491,00000010,false,Rx,9,7,B0,01,0C,11,0C,0D,10,00,
13067573,00000008,false,Rx,9,7,B0,01,0C,0F,40,07,10,00,
13079238,000000AA,false,Rx,9,2,AA,04,00,00,00,00,00,00,
13082037,00000040,false,Rx,9,3,B0,01,0C,00,00,00,00,00,
13085343,00000010,false,Rx,9,7,B0,01,0C,11,0C,0E,00,00,
13086423,00000008,false,Rx,9,7,B0,01,0C,0F,40,07,10,00,
13087080,00000010,false,Rx,9,3,B0,0D,10,00,00,00,00,00,
13099276,000000AA,false,Rx,9,2,AA,04,00,00,00,00,00,00,
13102073,00000040,false,Rx,9,3,B0,01,0C,00,00,00,00,00,
13105016,0000029C,false,Rx,9,3,03,00,1A,00,00,00,00,00,
13106096,00000010,false,Rx,9,7,B0,01,0C,11,0C,0D,10,00,
13107175,00000008,false,Rx,9,7,B0,01,0C,0F,40,07,10,00,
13119241,000000AA,false,Rx,9,2,AA,04,00,00,00,00,00,00,
13122043,00000040,false,Rx,9,3,B0,01,0C,00,00,00,00,00,
13123760,000002BC,false,Rx,9,3,03,00,0F,00,00,00,00,00,
13125475,00000010,false,Rx,9,7,B0,01,0C,11,0C,0D,10,00,
13126554,00000008,false,Rx,9,7,B0,01,0C,0C,B6,0F,40,00,
13127742,00000008,false,Rx,9,7,B0,0E,00,0D,09,07,10,00,
13139330,000000AA,false,Rx,9,2,AA,04,00,00,00,00,00,00,
13142021,00000040,false,Rx,9,3,B0,01,0C,00,00,00,00,00,
13143739,000002B4,false,Rx,9,3,03,00,0A,00,00,00,00,00,
13145454,00000010,false,Rx,9,7,B0,01,0C,11,0C,0D,10,00,
13146536,00000008,false,Rx,9,7,B0,01,0C,0F,3D,07,10,00,
13159976,000000AA,false,Rx,9,2,AA,04,00,00,00,00,00,00,
13162032,00000040,false,Rx,9,3,B0,01,0C,00,00,00,00,00,
13163751,000003AC,false,Rx,9,3,03,00,1D,00,00,00,00,00,
13165464,00000010,false,Rx,9,7,B0,01,0C,11,0C,0D,10,00,
13166544,00000008,false,Rx,9,7,B0,01,0C,0F,3D,07,10,00,
13179307,000000AA,false,Rx,9,2,AA,04,00,00,00,00,00,00,
13182000,00000040,false,Rx,9,3,B0,01,0C,00,00,00,00,00,
13183823,000003A4,false,Rx,9,3,03,00,2C,00,00,00,00,00,
13185430,00000010,false,Rx,9,7,B0,01,0C,11,0C,0D,10,00,
13186511,00000008,false,Rx,9,7,B0,01,0C,0F,3D,07,10,00,
13199302,000000AA,false,Rx,9,2,AA,04,00,00,00,00,00,00,
13202010,00000040,false,Rx,9,3,B0,01,0C,00,00,00,00,00,
13205423,00000010,false,Rx,9,7,B0,01,0C,11,0C,0D,10,00,
13206397,00000008,false,Rx,9,7,B0,01,0C,0F,3D,07,10,00,
13219361,000000AA,false,Rx,9,2,AA,04,00,00,00,00,00,00,
13222054,00000040,false,Rx,9,3,B0,01,0C,00,00,00,00,00,
13225105,0000029C,false,Rx,9,3,03,00,1A,00,00,00,00,00,
13226184,00000010,false,Rx,9,7,B0,01,0C,11,0C,0D,10,00,
13227160,00000008,false,Rx,9,7,B0,01,0C,0F,3D,07,10,00,
13239950,000000AA,false,Rx,9,2,AA,04,00,00,00,00,00,00,
13242121,00000040,false,Rx,9,3,B0,01,0C,00,00,00,00,00,
13243840,000002BC,false,Rx,9,3,03,00,0F,00,00,00,00,00,
13245448,00000010,false,Rx,9,7,B0,01,0C,11,0C,0D,10,00,
13246528,00000008,false,Rx,9,7,B0,01,0C,0F,3D,07,10,00,
13259335,000000AA,false,Rx,9,2,AA,04,00,00,00,00,00,00,
13262349,00000040,false,Rx,9,6,B0,01,0C,92,FF,FF,00,00,
13263751,00000040,false,Rx,9,6,B0,93,E5,00,14,00,00,00,
13265147,000002B4,false,Rx,9,3,03,00,02,00,00,00,00,00,
13266546,00000010,false,Rx,9,7,B0,01,0C,11,0C,0D,10,00,
13267521,00000008,false,Rx,9,7,B0,01,0C,0F,3D,07,10,00,
13279379,000000AA,false,Rx,9,2,AA,04,00,00,00,00,00,00,
13282082,00000040,false,Rx,9,3,B0,01,0C,00,00,00,00,00,
13283802,000003AC,false,Rx,9,3,03,00,1D,00,00,00,00,00,
13285411,00000010,false,Rx,9,7,B0,01,0C,11,0C,0E,00,00,
13286491,00000008,false,Rx,9,7,B0,01,0C,0F,3D,07,10,00,
13287255,00000010,false,Rx,9,3,B0,0D,10,00,00,00,00,00,
13299362,000000AA,false,Rx,9,2,AA,04,00,00,00,00,00,00,
13302265,00000040,false,Rx,9,3,B0,01,0C,00,00,00,00,00,
13303979,000003A4,false,Rx,9,3,03,00,2C,00,00,00,00,00,
13305481,00000010,false,Rx,9,7,B0,01,0C,11,0C,0D,10,00,
13306457,00000008,false,Rx,9,7,B0,01,0C,0F,3D,07,10,00,
13320042,000000AA,false,Rx,9,2,AA,04,00,00,00,00,00,00,
13322110,00000040,false,Rx,9,3,B0,01,0C,00,00,00,00,00,
13325416,00000010,false,Rx,9,7,B0,01,0C,11,0C,0D,10,00,
13326497,00000008,false,Rx,9,7,B0,01,0C,0C,B6,0F,3D,00,
13327793,00000008,false,Rx,9,7,B0,0E,00,0D,09,07,10,00,
13339370,000000AA,false,Rx,9,2,AA,04,00,00,00,00,00,00,
13342084,00000040,false,Rx,9,3,B0,01,0C,00,00,00,00,00,
13345144,0000029C,false,Rx,9,3,03,00,1A,00,00,00,00,00,
13346121,00000010,false,Rx,9,7,B0,01,0C,11,0C,0D,10,00,
13347201,00000008,false,Rx,9,7,B0,01,0C,0F,3D,07,10,00,
13359393,000000AA,false,Rx,9,2,AA,04,00,00,00,00,00,00,
13362096,00000040,false,Rx,9,3,B0,01,0C,00,00,00,00,00,
13363812,000002BC,false,Rx,9,3,03,00,0F,00,00,00,00,00,
13365528,00000010,false,Rx,9,7,B0,01,0C,11,0C,0D,10,00,
13366502,00000008,false,Rx,9,7,B0,01,0C,0F,3A,07,10,00,
13379381,000000AA,false,Rx,9,2,AA,04,00,00,00,00,00,00,
13382171,00000040,false,Rx,9,3,B0,01,0C,00,00,00,00,00,
13383889,000002B4,false,Rx,9,3,03,00,02,00,00,00,00,00,
13385528,00000010,false,Rx,9,7,B0,01,0C,11,0C,0D,10,00,
13386536,00000008,false,Rx,9,7,B0,01,0C,0F,3A,07,10,00,
13400100,000000AA,false,Rx,9,2,AA,04,00,00,00,00,00,00,
13402165,00000040,false,Rx,9,3,B0,01,0C,00,00,00,00,00,
13403883,000003AC,false,Rx,9,3,03,00,1D,00,00,00,00,00,
13405491,00000010,false,Rx,9,7,B0,01,0C,11,0C,0D,10,00,
13406573,00000008,false,Rx,9,7,B0,01,0C,0F,3A,07,10,00,
13419424,000000AA,false,Rx,9,2,AA,04,00,00,00,00,00,00,
13422116,00000040,false,Rx,9,3,B0,01,0C,00,00,00,00,00,
13423833,000003A4,false,Rx,9,3,03,00,2C,00,00,00,00,00,
13425549,00000010,false,Rx,9,7,B0,01,0C,11,0C,0D,10,00,
13426523,00000008,false,Rx,9,7,B0,01,0C,0F,3A,07,10,00,
13440104,000000AA,false,Rx,9,2,AA,04,00,00,00,00,00,00,
13442169,00000040,false,Rx,9,3,B0,01,0C,00,00,00,00,00,
13445396,00000010,false,Rx,9,7,B0,01,0C,11,0C,0D,10,00,
13446481,00000008,false,Rx,9,7,B0,01,0C,0F,3A,07,10,00,
13459420,000000AA,false,Rx,9,2,AA,04,00,00,00,00,00,00,
13462430,00000040,false,Rx,9,6,B0,01,0C,92,FF,FF,00,00,
13463831,00000040,false,Rx,9,6,B0,93,E5,00,14,00,00,00,
13466883,00000008,false,Rx,9,7,B0,01,0C,0F,3A,07,10,00,
13467857,00000010,false,Rx,9,7,B0,01,0C,11,0C,0D,10,00,
13468617,0000029C,false,Rx,9,3,03,00,1A,00,00,00,00,00,
13479371,000000AA,false,Rx,9,2,AA,04,00,00,00,00,00,00,
13482160,00000040,false,Rx,9,3,B0,01,0C,00,00,00,00,00,
13483983,000002BC,false,Rx,9,3,03,00,0F,00,00,00,00,00,
13485487,00000010,false,Rx,9,7,B0,01,0C,11,0C,0E,00,00,
