Time Stamp,ID,Extended,Dir,Bus,LEN,D1,D2,D3,D4,D5,D6,D7,D8
342739,00001000,true,Rx,9,8,00,00,00,4A,00,00,17,45,
344514,00001001,true,Rx,9,8,00,00,00,00,00,00,00,00,
345895,00001002,true,Rx,9,8,00,00,00,00,00,00,00,00,
1342733,00001000,true,Rx,9,8,00,00,00,4B,00,00,17,45,
1344131,00001001,true,Rx,9,8,00,00,00,00,00,00,00,00,
1345496,00001002,true,Rx,9,8,00,00,00,00,00,00,00,00,
2343087,00001000,true,Rx,9,8,00,00,00,4C,00,00,17,45,
2344723,00001001,true,Rx,9,8,00,00,00,00,00,00,00,00,
2346181,00001002,true,Rx,9,8,00,00,00,00,00,00,00,00,
3343170,00001000,true,Rx,9,8,00,00,00,4D,00,00,17,45,
3344613,00001001,true,Rx,9,8,00,00,00,00,00,00,00,00,
3345976,00001002,true,Rx,9,8,00,00,00,00,00,00,00,00,
4342925,00001000,true,Rx,9,8,00,00,00,4E,00,00,17,45,
4344379,00001001,true,Rx,9,8,00,00,00,00,00,00,00,00,
4345757,00001002,true,Rx,9,8,00,00,00,00,00,00,00,00,
5342960,00001000,true,Rx,9,8,00,00,00,4F,00,00,17,45,
5344353,00001001,true,Rx,9,8,00,00,00,00,00,00,00,00,
5345585,00001002,true,Rx,9,8,00,00,00,00,00,00,00,00,
5799301,00000040,false,Rx,9,8,20,00,00,08,00,00,00,00,
5804322,00000040,false,Rx,9,8,20,00,00,08,00,00,00,00,
5861623,000000AA,false,Rx,9,2,AA,04,00,00,00,00,00,00,
5863883,000000AA,false,Rx,9,2,AA,04,00,00,00,00,00,00,
5866132,000000AA,false,Rx,9,2,AA,04,00,00,00,00,00,00,
5868378,000000AA,false,Rx,9,2,AA,04,00,00,00,00,00,00,
5870658,000000AA,false,Rx,9,2,AA,04,00,00,00,00,00,00,
5872908,000000AA,false,Rx,9,2,AA,04,00,00,00,00,00,00,
5877205,000000AA,false,Rx,9,2,AA,04,00,00,00,00,00,00,
5879790,00000040,false,Rx,9,8,23,00,00,08,FC,80,00,00,
5879810,00000008,false,Rx,9,1,A3,00,00,00,00,00,00,00,
5880092,00000010,false,Rx,9,1,A3,00,00,00,00,00,00,00,
5883886,00000040,false,Rx,9,8,23,00,00,08,FC,80,00,00,
5884557,00000008,false,Rx,9,1,A3,00,00,00,00,00,00,00,
5885110,00000010,false,Rx,9,1,A3,00,00,00,00,00,00,00,
5890427,000000AA,false,Rx,9,2,AA,04,00,00,00,00,00,00,
5892037,00000040,false,Rx,9,8,21,00,00,08,FC,80,00,00,
5892798,00000008,false,Rx,9,1,A1,00,00,00,00,00,00,00,
5893350,00000010,false,Rx,9,1,A1,00,00,00,00,00,00,00,
5897187,00000040,false,Rx,9,8,21,00,00,08,FC,80,00,00,
5897842,00000008,false,Rx,9,1,A1,00,00,00,00,00,00,00,
5899642,00000010,false,Rx,9,1,A1,00,00,00,00,00,00,00,
5903014,000000AA,false,Rx,9,2,AA,04,00,00,00,00,00,00,
5904377,00000040,false,Rx,9,8,24,00,00,08,FC,40,00,00,
5905142,00000008,false,Rx,9,1,A4,00,00,00,00,00,00,00,
5905723,00000010,false,Rx,9,1,A4,00,00,00,00,00,00,00,
5909460,00000040,false,Rx,9,8,24,00,00,08,FC,40,00,00,
5910223,00000008,false,Rx,9,1,A4,00,00,00,00,00,00,00,
5910772,00000010,false,Rx,9,1,A4,00,00,00,00,00,00,00,
5917790,000000AA,false,Rx,9,2,AA,04,00,00,00,00,00,00,
5921572,000000AA,false,Rx,9,2,AA,04,00,00,00,00,00,00,
5925366,000000AA,false,Rx,9,2,AA,04,00,00,00,00,00,00,
5929109,000000AA,false,Rx,9,2,AA,04,00,00,00,00,00,00,
5932836,000000AA,false,Rx,9,2,AA,04,00,00,00,00,00,00,
5936746,000000AA,false,Rx,9,2,AA,04,00,00,00,00,00,00,
5940533,000000AA,false,Rx,9,2,AA,04,00,00,00,00,00,00,
5944295,000000AA,false,Rx,9,2,AA,04,00,00,00,00,00,00,
5948132,000000AA,false,Rx,9,2,AA,04,00,00,00,00,00,00,
5951859,000000AA,false,Rx,9,2,AA,04,00,00,00,00,00,00,
5955695,000000AA,false,Rx,9,2,AA,04,00,00,00,00,00,00,
5959724,000000AA,false,Rx,9,2,AA,04,00,00,00,00,00,00,
5963430,000000AA,false,Rx,9,2,AA,04,00,00,00,00,00,00,
5967175,000000AA,false,Rx,9,2,AA,04,00,00,00,00,00,00,
5970903,000000AA,false,Rx,9,2,AA,04,00,00,00,00,00,00,
5974741,000000AA,false,Rx,9,2,AA,04,00,00,00,00,00,00,
5979688,000000AA,false,Rx,9,2,AA,04,00,00,00,00,00,00,
5982446,000000AA,false,Rx,9,2,AA,04,00,00,00,00,00,00,
5986179,000000AA,false,Rx,9,2,AA,04,00,00,00,00,00,00,
5990015,000000AA,false,Rx,9,2,AA,04,00,00,00,00,00,00,
5993847,000000AA,false,Rx,9,2,AA,04,00,00,00,00,00,00,
5997684,000000AA,false,Rx,9,2,AA,04,00,00,00,00,00,00,
6001615,000000AA,false,Rx,9,2,AA,04,00,00,00,00,00,00,
6005397,000000AA,false,Rx,9,2,AA,04,00,00,00,00,00,00,
6009143,000000AA,false,Rx,9,2,AA,04,00,00,00,00,00,00,
6012978,000000AA,false,Rx,9,2,AA,04,00,00,00,00,00,00,
6016812,000000AA,false,Rx,9,2,AA,04,00,00,00,00,00,00,
6020645,000000AA,false,Rx,9,2,AA,04,00,00,00,00,00,00,
6024398,000000AA,false,Rx,9,2,AA,04,00,00,00,00,00,00,
6028130,000000AA,false,Rx,9,2,AA,04,00,00,00,00,00,00,
6032179,000000AA,false,Rx,9,2,AA,04,00,00,00,00,00,00,
6036226,000000AA,false,Rx,9,2,AA,04,00,00,00,00,00,00,
6039970,000000AA,false,Rx,9,2,AA,04,00,00,00,00,00,00,
6042299,00000040,false,Rx,9,8,27,00,00,FD,00,80,00,00,
6047242,00000040,false,Rx,9,8,13,01,00,00,00,FF,00,00,
6063015,000000AA,false,Rx,9,2,AA,04,00,00,00,00,00,00,
6066947,0000029C,false,Rx,9,3,03,00,1A,00,00,00,00,00,
6071969,00000010,false,Rx,9,4,30,08,00,01,00,00,00,00,
6073048,00000040,false,Rx,9,3,B0,01,10,00,00,00,00,00,
6083363,000000AA,false,Rx,9,2,AA,04,00,00,00,00,00,00,
6085447,00000040,false,Rx,9,3,B0,01,10,00,00,00,00,00,
6089497,000002BC,false,Rx,9,3,03,00,0B,00,00,00,00,00,
6102634,000000AA,false,Rx,9,2,AA,04,00,00,00,00,00,00,
6105442,00000040,false,Rx,9,3,B0,01,10,00,00,00,00,00,
6108113,000002B4,false,Rx,9,3,03,00,0A,00,00,00,00,00,
6109827,00000040,false,Rx,9,5,30,02,00,01,08,00,00,00,
6110909,00000008,false,Rx,9,3,B0,01,02,00,00,00,00,00,
6111569,00000010,false,Rx,9,3,B0,01,00,00,00,00,00,00,
6122609,000000AA,false,Rx,9,2,AA,04,00,00,00,00,00,00,
6125516,00000040,false,Rx,9,3,B0,01,0C,00,00,00,00,00,
6127553,000003AC,false,Rx,9,3,03,00,1D,00,00,00,00,00,
6128316,00000010,false,Rx,9,3,B0,01,02,00,00,00,00,00,
6132788,00000008,false,Rx,9,5,B0,01,02,0C,BB,00,00,00,
6134082,00000008,false,Rx,9,8,10,00,00,00,00,FF,00,00,
6142674,00000040,false,Rx,9,8,90,01,00,00,06,29,00,00,
6144419,000000AA,false,Rx,9,2,AA,04,00,00,00,00,00,00,
6146166,00000040,false,Rx,9,3,B0,01,10,00,00,00,00,00,
6148736,000003A4,false,Rx,9,3,03,00,2C,00,00,00,00,00,
6149501,00000010,false,Rx,9,3,B0,01,02,00,00,00,00,00,
6153021,00000008,false,Rx,9,3,B0,01,02,00,00,00,00,00,
6154733,00000008,false,Rx,9,8,10,00,00,01,06,29,00,00,
6156311,00000040,false,Rx,9,8,90,01,00,01,47,22,00,00,
6162614,000000AA,false,Rx,9,2,AA,04,00,00,00,00,00,00,
6165620,00000040,false,Rx,9,3,B0,01,10,00,00,00,00,00,
6168726,00000010,false,Rx,9,3,B0,01,02,00,00,00,00,00,
6173097,00000008,false,Rx,9,3,B0,01,02,00,00,00,00,00,
6174706,00000008,false,Rx,9,8,12,00,00,00,7F,00,00,00,
6176319,00000008,false,Rx,9,4,30,02,00,11,00,00,00,00,
6177398,00000010,false,Rx,9,3,B0,11,10,00,00,00,00,00,
6180253,00000040,false,Rx,9,8,13,02,00,00,00,FF,00,00,
6182549,000000AA,false,Rx,9,2,AA,04,00,00,00,00,00,00,
6185330,00000040,false,Rx,9,3,B0,01,10,00,00,00,00,00,
6188405,0000029C,false,Rx,9,3,03,00,1A,00,00,00,00,00,
6189275,00000010,false,Rx,9,5,B0,01,02,11,10,00,00,00,
6190906,00000010,false,Rx,9,8,10,00,00,00,00,FF,00,00,
6193580,00000008,false,Rx,9,3,B0,01,10,00,00,00,00,00,
6198685,00000040,false,Rx,9,8,90,02,00,00,02,7C,00,00,
6203308,000000AA,false,Rx,9,2,AA,04,00,00,00,00,00,00,
6205275,00000040,false,Rx,9,3,B0,01,10,00,00,00,00,00,
6207099,000002BC,false,Rx,9,3,03,00,0B,00,00,00,00,00,
6209979,00000010,false,Rx,9,5,B0,01,10,11,10,00,00,00,
6211269,00000010,false,Rx,9,8,10,00,00,01,02,7C,00,00,
6212774,00000040,false,Rx,9,8,90,02,00,01,47,22,00,00,
6213538,00000008,false,Rx,9,3,B0,01,10,00,00,00,00,00,
6222669,000000AA,false,Rx,9,2,AA,04,00,00,00,00,00,00,
6225437,00000040,false,Rx,9,3,B0,01,10,00,00,00,00,00,
6227174,000002B4,false,Rx,9,3,03,00,0A,00,00,00,00,00,
6228572,00000010,false,Rx,9,5,B0,01,10,11,10,00,00,00,
6229441,00000040,false,Rx,9,5,30,02,00,0E,03,00,00,00,
6230628,00000010,false,Rx,9,8,12,00,00,00,00,14,00,00,
6231499,00000040,false,Rx,9,5,30,02,00,0D,03,00,00,00,
6232262,00000010,false,Rx,9,3,B0,0E,00,00,00,00,00,00,
6233237,00000010,false,Rx,9,3,B0,0D,00,00,00,00,00,00,
6234106,00000010,false,Rx,9,4,30,01,00,0F,00,00,00,00,
6234866,00000008,false,Rx,9,3,B0,01,10,00,00,00,00,00,
6235631,00000010,false,Rx,9,4,30,01,00,0E,00,00,00,00,
6236928,00000040,false,Rx,9,5,30,01,00,0D,03,00,00,00,
6237687,00000010,false,Rx,9,4,30,01,00,07,00,00,00,00,
6240440,00000010,false,Rx,9,4,30,08,00,14,00,00,00,00,
6240460,00000010,false,Rx,9,4,30,08,00,13,00,00,00,00,
6242956,00000040,false,Rx,9,6,B0,93,E5,00,14,00,00,00,
6243758,00000010,false,Rx,9,4,30,08,00,12,00,00,00,00,
6244846,000000AA,false,Rx,9,2,AA,04,00,00,00,00,00,00,
6246915,00000040,false,Rx,9,6,B0,01,10,92,FF,FF,00,00,
6248352,00000040,false,Rx,9,6,B0,93,E5,00,14,00,00,00,
6249545,00000010,false,Rx,9,7,B0,01,10,11,10,0D,00,00,
6250203,000003AC,false,Rx,9,3,03,00,1D,00,00,00,00,00,
6253722,00000008,false,Rx,9,7,B0,01,10,0F,FF,0E,00,00,
6254803,00000008,false,Rx,9,5,B0,0D,00,07,00,00,00,00,
6262818,000000AA,false,Rx,9,2,AA,04,00,00,00,00,00,00,
6264867,00000040,false,Rx,9,3,B0,01,10,00,00,00,00,00,
6269343,00000010,false,Rx,9,7,B0,01,10,11,10,0E,00,00,
6270214,00000010,false,Rx,9,3,B0,0D,00,00,00,00,00,00,
6272672,000003A4,false,Rx,9,3,03,00,2C,00,00,00,00,00,
6273751,00000008,false,Rx,9,7,B0,01,10,0F,FF,07,00,00,
6282962,000000AA,false,Rx,9,2,AA,04,00,00,00,00,00,00,
6285133,00000040,false,Rx,9,3,B0,01,10,00,00,00,00,00,
6289180,00000010,false,Rx,9,7,B0,01,10,11,10,0D,00,00,
6293543,00000008,false,Rx,9,7,B0,01,10,0F,FF,07,00,00,
6302705,000000AA,false,Rx,9,2,AA,04,00,00,00,00,00,00,
6304829,00000040,false,Rx,9,3,B0,01,10,00,00,00,00,00,
6307774,0000029C,false,Rx,9,3,03,00,1A,00,00,00,00,00,
6309405,00000010,false,Rx,9,7,B0,01,10,11,10,0D,00,00,
6313456,00000008,false,Rx,9,7,B0,01,10,0C,BB,0F,FF,00,
6314746,00000008,false,Rx,9,7,B0,0E,00,0D,00,07,00,00,
6323556,000000AA,false,Rx,9,2,AA,04,00,00,00,00,00,00,
6326046,00000040,false,Rx,9,3,B0,01,10,00,00,00,00,00,
6329458,00000010,false,Rx,9,7,B0,01,10,11,10,0D,00,00,
6333611,00000008,false,Rx,9,7,B0,01,10,0F,FF,07,00,00,
6335859,000002BC,false,Rx,9,3,03,00,0B,00,00,00,00,00,
6343029,00001000,true,Rx,9,8,00,00,00,50,00,00,17,F1,
6344717,00001001,true,Rx,9,8,00,00,00,00,00,00,00,00,
6346309,00001002,true,Rx,9,8,00,00,00,00,00,00,00,00,
6347930,000000AA,false,Rx,9,2,AA,04,00,00,00,00,00,00,
6347949,00000040,false,Rx,9,3,B0,01,10,00,00,00,00,00,
6349163,00000010,false,Rx,9,7,B0,01,10,11,10,0D,00,00,
6353802,00000008,false,Rx,9,7,B0,01,10,0F,FF,07,00,00,
6359093,000002B4,false,Rx,9,3,03,00,0A,00,00,00,00,00,
6362847,000000AA,false,Rx,9,2,AA,04,00,00,00,00,00,00,
6364847,00000040,false,Rx,9,3,B0,01,10,00,00,00,00,00,
6369226,00000010,false,Rx,9,7,B0,01,10,11,10,0D,00,00,
6373593,00000008,false,Rx,9,7,B0,01,10,0F,FF,07,00,00,
6378276,000003AC,false,Rx,9,3,03,00,1D,00,00,00,00,00,
6382708,000000AA,false,Rx,9,2,AA,04,00,00,00,00,00,00,
6384877,00000040,false,Rx,9,3,B0,01,10,00,00,00,00,00,
6389142,00000010,false,Rx,9,7,B0,01,10,11,10,0D,00,00,
6393506,00000008,false,Rx,9,7,B0,01,10,0F,FF,07,00,00,
6400815,000003A4,false,Rx,9,3,03,00,2C,00,00,00,00,00,
6402688,000000AA,false,Rx,9,2,AA,04,00,00,00,00,00,00,
6404909,00000040,false,Rx,9,3,B0,01,10,00,00,00,00,00,
6409235,00000010,false,Rx,9,7,B0,01,10,11,10,0D,00,00,
6413607,00000008,false,Rx,9,7,B0,01,10,0F,FF,07,00,00,
6422807,000000AA,false,Rx,9,2,AA,04,00,00,00,00,00,00,
6424986,00000040,false,Rx,9,3,B0,01,10,00,00,00,00,00,
6427931,0000029C,false,Rx,9,3,03,00,1A,00,00,00,00,00,
6429456,00000010,false,Rx,9,7,B0,01,10,11,10,0D,00,00,
6433506,00000008,false,Rx,9,7,B0,01,10,0F,FF,07,00,00,
6442951,000000AA,false,Rx,9,2,AA,04,00,00,00,00,00,00,
6445655,00000040,false,Rx,9,3,B0,01,10,00,00,00,00,00,
6449427,00000010,false,Rx,9,7,B0,01,10,11,10,0D,00,00,
6453513,00000008,false,Rx,9,7,B0,01,10,0F,FF,07,00,00,
6455658,000002BC,false,Rx,9,3,03,00,0B,00,00,00,00,00,
6462800,000000AA,false,Rx,9,2,AA,04,00,00,00,00,00,00,
6465003,00000040,false,Rx,9,3,B0,01,10,00,00,00,00,00,
6469170,00000010,false,Rx,9,7,B0,01,10,11,10,0E,00,00,
6469936,000002B4,false,Rx,9,3,03,00,0A,00,00,00,00,00,
6470589,00000010,false,Rx,9,3,B0,0D,00,00,00,00,00,00,
6473683,00000008,false,Rx,9,7,B0,01,10,0F,FF,07,00,00,
6483423,000000AA,false,Rx,9,2,AA,04,00,00,00,00,00,00,
6485590,00000040,false,Rx,9,3,B0,01,10,00,00,00,00,00,
6487307,000003AC,false,Rx,9,3,03,00,1D,00,00,00,00,00,
6489343,00000010,false,Rx,9,7,B0,01,10,11,10,0D,00,00,
6493601,00000008,false,Rx,9,7,B0,01,10,0F,FF,07,00,00,
6502736,000000AA,false,Rx,9,2,AA,04,00,00,00,00,00,00,
6505826,00000040,false,Rx,9,3,B0,01,10,00,00,00,00,00,
6507467,000003A4,false,Rx,9,3,03,00,2C,00,00,00,00,00,
6509502,00000010,false,Rx,9,7,B0,01,10,11,10,0D,00,00,
6513442,00000008,false,Rx,9,7,B0,01,10,0C,BB,0F,FF,00,
6514734,00000008,false,Rx,9,7,B0,0E,00,0D,00,07,00,00,
6522757,000000AA,false,Rx,9,2,AA,04,00,00,00,00,00,00,
6525636,00000040,false,Rx,9,3,B0,01,10,00,00,00,00,00,
6529372,00000010,false,Rx,9,7,B0,01,10,11,10,0D,00,00,
6533528,00000008,false,Rx,9,7,B0,01,10,0F,FF,07,00,00,
6542747,000000AA,false,Rx,9,2,AA,04,00,00,00,00,00,00,
6545839,00000040,false,Rx,9,3,B0,01,10,00,00,00,00,00,
6548795,0000029C,false,Rx,9,3,03,00,1A,00,00,00,00,00,
6549874,00000010,false,Rx,9,7,B0,01,10,11,10,0D,00,00,
6553790,00000008,false,Rx,9,7,B0,01,10,0F,FF,07,00,00,
6562745,000000AA,false,Rx,9,2,AA,04,00,00,00,00,00,00,
6565656,00000040,false,Rx,9,3,B0,01,10,00,00,00,00,00,
6567372,000002BC,false,Rx,9,3,03,00,0B,00,00,00,00,00,
6569516,00000010,false,Rx,9,7,B0,01,10,11,10,0D,00,00,
6573563,00000008,false,Rx,9,7,B0,01,10,0F,FF,07,00,00,
6583646,000000AA,false,Rx,9,2,AA,04,00,00,00,00,00,00,
6585713,00000040,false,Rx,9,3,B0,01,10,00,00,00,00,00,
6587433,000002B4,false,Rx,9,3,03,00,0A,00,00,00,00,00,
6589467,00000010,false,Rx,9,7,B0,01,10,11,10,0D,00,00,
6593515,00000008,false,Rx,9,7,B0,01,10,0F,FF,07,00,00,
6602765,000000AA,false,Rx,9,2,AA,04,00,00,00,00,00,00,
6605652,00000040,false,Rx,9,3,B0,01,10,00,00,00,00,00,
6607267,000003AC,false,Rx,9,3,03,00,1D,00,00,00,00,00,
6609408,00000010,false,Rx,9,7,B0,01,10,11,10,0D,00,00,
6613567,00000008,false,Rx,9,7,B0,01,10,0F,FF,07,00,00,
6622776,000000AA,false,Rx,9,2,AA,04,00,00,00,00,00,00,
6625862,00000040,false,Rx,9,3,B0,01,10,00,00,00,00,00,
6627488,000003A4,false,Rx,9,3,03,00,2C,00,00,00,00,00,
6629628,00000010,false,Rx,9,7,B0,01,10,11,10,0D,00,00,
6633572,00000008,false,Rx,9,7,B0,01,10,0F,FF,07,00,00,
6634335,00000010,false,Rx,9,4,30,08,00,2C,00,00,00,00,
6636264,00000040,false,Rx,9,3,B0,2C,B3,00,00,00,00,00,
6642840,000000AA,false,Rx,9,2,AA,04,00,00,00,00,00,00,
6646070,00000040,false,Rx,9,6,B0,01,10,92,FF,FF,00,00,
6647680,00000040,false,Rx,9,8,B0,93,E5,00,14,00,2C,B3,
6650777,00000010,false,Rx,9,7,B0,01,10,11,10,0D,00,00,
6653915,00000008,false,Rx,9,7,B0,01,10,0F,FF,07,00,00,
6662869,000000AA,false,Rx,9,2,AA,04,00,00,00,00,00,00,
6665863,00000040,false,Rx,9,3,B0,01,10,00,00,00,00,00,
6668822,0000029C,false,Rx,9,3,03,00,1A,00,00,00,00,00,
6669903,00000010,false,Rx,9,7,B0,01,10,11,10,0E,00,00,
6671115,00000010,false,Rx,9,3,B0,0D,00,00,00,00,00,00,
6673888,00000008,false,Rx,9,7,B0,01,10,0F,FF,07,00,00,
6682862,000000AA,false,Rx,9,2,AA,04,00,00,00,00,00,00,
6685884,00000040,false,Rx,9,3,B0,01,10,00,00,00,00,00,
6687650,000002BC,false,Rx,9,3,03,00,0B,00,00,00,00,00,
6689605,00000010,false,Rx,9,7,B0,01,10,11,10,0D,00,00,
6693548,00000008,false,Rx,9,7,B0,01,10,0F,FF,07,00,00,
6702837,000000AA,false,Rx,9,2,AA,04,00,00,00,00,00,00,
6705754,00000040,false,Rx,9,3,B0,01,10,00,00,00,00,00,
6707472,000002B4,false,Rx,9,3,03,00,0A,00,00,00,00,00,
6709504,00000010,false,Rx,9,7,B0,01,10,11,10,0D,00,00,
6713449,00000008,false,Rx,9,7,B0,01,10,0C,BB,0F,FF,00,
6714738,00000008,false,Rx,9,7,B0,0E,00,0D,00,07,00,00,
6723524,000000AA,false,Rx,9,2,AA,04,00,00,00,00,00,00,
6725584,00000040,false,Rx,9,3,B0,01,10,00,00,00,00,00,
6727301,000003AC,false,Rx,9,3,03,00,1D,00,00,00,00,00,
6729442,00000010,false,Rx,9,7,B0,01,10,11,10,0D,00,00,
6733551,00000008,false,Rx,9,7,B0,01,10,0F,FF,07,00,00,
6742878,000000AA,false,Rx,9,2,AA,04,00,00,00,00,00,00,
6745663,00000040,false,Rx,9,3,B0,01,10,00,00,00,00,00,
6747460,000003A4,false,Rx,9,3,03,00,2C,00,00,00,00,00,
6749501,00000010,false,Rx,9,7,B0,01,10,11,10,0D,00,00,
6753551,00000008,false,Rx,9,7,B0,01,10,0F,FF,07,00,00,
6762825,000000AA,false,Rx,9,2,AA,04,00,00,00,00,00,00,
6765837,00000040,false,Rx,9,3,B0,01,10,00,00,00,00,00,
6769475,00000010,false,Rx,9,7,B0,01,10,11,10,0D,00,00,
6773521,00000008,false,Rx,9,7,B0,01,10,0F,FF,07,00,00,
6783524,000000AA,false,Rx,9,2,AA,04,00,00,00,00,00,00,
6785665,00000040,false,Rx,9,3,B0,01,10,00,00,00,00,00,
6788722,0000029C,false,Rx,9,3,03,00,1A,00,00,00,00,00,
6789803,00000010,false,Rx,9,7,B0,01,10,11,10,0D,00,00,
6793659,00000008,false,Rx,9,7,B0,01,10,0F,FF,07,00,00,
6802868,000000AA,false,Rx,9,2,AA,04,00,00,00,00,00,00,
6805853,00000040,false,Rx,9,3,B0,01,10,00,00,00,00,00,
6807584,000002BC,false,Rx,9,3,03,00,0B,00,00,00,00,00,
6809617,00000010,false,Rx,9,7,B0,01,10,11,10,0D,00,00,
6813561,00000008,false,Rx,9,7,B0,01,10,0F,FF,07,00,00,
6823640,000000AA,false,Rx,9,2,AA,04,00,00,00,00,00,00,
6825812,00000040,false,Rx,9,3,B0,01,10,00,00,00,00,00,
6827636,000002B4,false,Rx,9,3,03,00,0A,00,00,00,00,00,
6829566,00000010,false,Rx,9,7,B0,01,10,11,10,0D,00,00,
6833512,00000008,false,Rx,9,7,B0,01,10,0F,FF,07,00,00,
6842858,000000AA,false,Rx,9,2,AA,04,00,00,00,00,00,00,
6846216,00000040,false,Rx,9,6,B0,01,10,92,FF,FF,00,00,
6847731,00000040,false,Rx,9,8,B0,93,E5,00,14,00,2C,B3,
6849131,000003AC,false,Rx,9,3,03,00,1D,00,00,00,00,00,
6850843,00000010,false,Rx,9,7,B0,01,10,11,10,0D,00,00,
6853833,00000008,false,Rx,9,7,B0,01,10,0F,FF,07,00,00,
6863552,000000AA,false,Rx,9,2,AA,04,00,00,00,00,00,00,
6865722,00000040,false,Rx,9,3,B0,01,10,00,00,00,00,00,
6867442,000003A4,false,Rx,9,3,03,00,2C,00,00,00,00,00,
6869582,00000010,false,Rx,9,7,B0,01,10,11,10,0E,00,00,
6870453,00000010,false,Rx,9,3,B0,0D,00,00,00,00,00,00,
6873653,00000008,false,Rx,9,7,B0,01,10,0F,FF,07,00,00,
6882928,000000AA,false,Rx,9,2,AA,04,00,00,00,00,00,00,
6885962,00000040,false,Rx,9,3,B0,01,10,00,00,00,00,00,
6889589,00000010,false,Rx,9,7,B0,01,10,11,10,0D,00,00,
6893539,00000008,false,Rx,9,7,B0,01,10,0F,FF,07,00,00,
6903713,000000AA,false,Rx,9,2,AA,04,00,00,00,00,00,00,
6905880,00000040,false,Rx,9,3,B0,01,10,00,00,00,00,00,
6908943,0000029C,false,Rx,9,3,03,00,1A,00,00,00,00,00,
6909912,00000010,false,Rx,9,7,B0,01,10,11,10,0D,00,00,
6913763,00000008,false,Rx,9,7,B0,01,10,0C,BB,0F,FF,00,
6914954,00000008,false,Rx,9,7,B0,0E,00,0D,00,07,00,00,
6922891,000000AA,false,Rx,9,2,AA,04,00,00,00,00,00,00,
6925925,00000040,false,Rx,9,3,B0,01,10,00,00,00,00,00,
6927547,000002BC,false,Rx,9,3,03,00,0B,00,00,00,00,00,
6929581,00000010,false,Rx,9,7,B0,01,10,11,10,0D,00,00,
6933523,00000008,false,Rx,9,7,B0,01,10,0F,FF,07,00,00,
6942996,000000AA,false,Rx,9,2,AA,04,00,00,00,00,00,00,
6945798,00000040,false,Rx,9,3,B0,01,10,00,00,00,00,00,
6947517,000002B4,false,Rx,9,3,03,00,0A,00,00,00,00,00,
6949550,00000010,false,Rx,9,7,B0,01,10,11,10,0D,00,00,
6953599,00000008,false,Rx,9,7,B0,01,10,0F,FF,07,00,00,
6962997,000000AA,false,Rx,9,2,AA,04,00,00,00,00,00,00,
6965815,00000040,false,Rx,9,3,B0,01,10,00,00,00,00,00,
6967513,000003AC,false,Rx,9,3,03,00,1D,00,00,00,00,00,
6969561,00000010,false,Rx,9,7,B0,01,10,11,10,0D,00,00,
6973654,00000008,false,Rx,9,7,B0,01,10,0F,FF,07,00,00,
6983001,000000AA,false,Rx,9,2,AA,04,00,00,00,00,00,00,
6985909,00000040,false,Rx,9,3,B0,01,10,00,00,00,00,00,
6987628,000003A4,false,Rx,9,3,03,00,2C,00,00,00,00,00,
6989662,00000010,false,Rx,9,7,B0,01,10,11,10,0D,00,00,
6993601,00000008,false,Rx,9,7,B0,01,10,0F,FF,07,00,00,
7003836,000000AA,false,Rx,9,2,AA,04,00,00,00,00,00,00,
7005914,00000040,false,Rx,9,3,B0,01,10,00,00,00,00,00,
7009554,00000010,false,Rx,9,7,B0,01,10,11,10,0D,00,00,
7013601,00000008,false,Rx,9,7,B0,01,10,0F,FF,07,00,00,
7022949,000000AA,false,Rx,9,2,AA,04,00,00,00,00,00,00,
7025969,00000040,false,Rx,9,3,B0,01,10,00,00,00,00,00,
7029014,0000029C,false,Rx,9,3,03,00,1A,00,00,00,00,00,
7030094,00000010,false,Rx,9,7,B0,01,10,11,10,0D,00,00,
7033952,00000008,false,Rx,9,7,B0,01,10,0F,FF,07,00,00,
7034712,00000010,false,Rx,9,4,30,08,00,2D,00,00,00,00,
7036008,00000010,false,Rx,9,4,31,08,00,2C,00,00,00,00,
7036767,00000040,false,Rx,9,3,B0,2D,A6,00,00,00,00,00,
7043019,000000AA,false,Rx,9,2,AA,04,00,00,00,00,00,00,
7046515,00000040,false,Rx,9,6,B0,01,10,92,FF,FF,00,00,
7047866,00000040,false,Rx,9,8,B0,93,E5,00,14,00,2D,A6,
7049267,000002BC,false,Rx,9,3,03,00,0B,00,00,00,00,00,
7050877,00000010,false,Rx,9,7,B0,01,10,11,10,0D,00,00,
7053866,00000008,false,Rx,9,7,B0,01,10,0F,FF,07,00,00,
7063781,000000AA,false,Rx,9,2,AA,04,00,00,00,00,00,00,
7065954,00000040,false,Rx,9,3,B0,01,10,00,00,00,00,00,
7067702,000002B4,false,Rx,9,3,03,00,0A,00,00,00,00,00,
7069633,00000010,false,Rx,9,7,B0,01,10,11,10,0E,00,00,
7070504,00000010,false,Rx,9,3,B0,0D,00,00,00,00,00,00,
7073701,00000008,false,Rx,9,7,B0,01,10,0F,FF,07,00,00,
7083057,000000AA,false,Rx,9,2,AA,04,00,00,00,00,00,00,
7086008,00000040,false,Rx,9,3,B0,01,10,00,00,00,00,00,
7087733,000003AC,false,Rx,9,3,03,00,1D,00,00,00,00,00,
7089664,00000010,false,Rx,9,7,B0,01,10,11,10,0D,00,00,
7093607,00000008,false,Rx,9,7,B0,01,10,0F,FF,07,00,00,
7103019,000000AA,false,Rx,9,2,AA,04,00,00,00,00,00,00,
7106042,00000040,false,Rx,9,3,B0,01,10,00,00,00,00,00,
7108284,000003A4,false,Rx,9,3,03,00,2C,00,00,00,00,00,
7109682,00000010,false,Rx,9,7,B0,01,10,11,10,0D,00,00,
7113413,00000008,false,Rx,9,7,B0,01,10,0C,BB,0F,FF,00,
7114706,00000008,false,Rx,9,7,B0,0E,00,0D,00,07,00,00,
7123730,000000AA,false,Rx,9,2,AA,04,00,00,00,00,00,00,
7126045,00000040,false,Rx,9,3,B0,01,10,00,00,00,00,00,
7129637,00000010,false,Rx,9,7,B0,01,10,11,10,0D,00,00,
7133582,00000008,false,Rx,9,7,B0,01,10,0F,FF,07,00,00,
7143741,000000AA,false,Rx,9,2,AA,04,00,00,00,00,00,00,
7145915,00000040,false,Rx,9,3,B0,01,10,00,00,00,00,00,
7148973,0000029C,false,Rx,9,3,03,00,1A,00,00,00,00,00,
7150054,00000010,false,Rx,9,7,B0,01,10,11,10,0D,00,00,
7153909,00000008,false,Rx,9,7,B0,01,10,0F,FF,07,00,00,
7163064,000000AA,false,Rx,9,2,AA,04,00,00,00,00,00,00,
7166132,00000040,false,Rx,9,3,B0,01,10,00,00,00,00,00,
7167596,000002BC,false,Rx,9,3,03,00,0B,00,00,00,00,00,
7169684,00000010,false,Rx,9,7,B0,01,10,11,10,0D,00,00,
7173628,00000008,false,Rx,9,7,B0,01,10,0F,FF,07,00,00,
7183064,000000AA,false,Rx,9,2,AA,04,00,00,00,00,00,00,
7185879,00000040,false,Rx,9,3,B0,01,10,00,00,00,00,00,
7187982,000002B4,false,Rx,9,3,03,00,0A,00,00,00,00,00,
7189664,00000010,false,Rx,9,7,B0,01,10,11,10,0D,00,00,
7193607,00000008,false,Rx,9,7,B0,01,10,0F,FF,07,00,00,
7203058,000000AA,false,Rx,9,2,AA,04,00,00,00,00,00,00,
7205938,00000040,false,Rx,9,3,B0,01,10,00,00,00,00,00,
7207656,000003AC,false,Rx,9,3,03,00,1D,00,00,00,00,00,
7209690,00000010,false,Rx,9,7,B0,01,10,11,10,0D,00,00,
7213631,00000008,false,Rx,9,7,B0,01,10,0F,FF,07,00,00,
7223089,000000AA,false,Rx,9,2,AA,04,00,00,00,00,00,00,
7226084,00000040,false,Rx,9,3,B0,01,10,00,00,00,00,00,
7227793,000003A4,false,Rx,9,3,03,00,2C,00,00,00,00,00,
7229638,00000010,false,Rx,9,7,B0,01,10,11,10,0D,00,00,
7233582,00000008,false,Rx,9,7,B0,01,10,0F,FF,07,00,00,
7243757,000000AA,false,Rx,9,2,AA,04,00,00,00,00,00,00,
7246248,00000040,false,Rx,9,6,B0,01,10,92,FF,FF,00,00,
7247773,00000040,false,Rx,9,8,B0,93,E5,00,14,00,2D,A6,
7250769,00000010,false,Rx,9,7,B0,01,10,11,10,0D,00,00,
7253863,00000008,false,Rx,9,7,B0,01,10,0F,FF,07,00,00,
7263706,000000AA,false,Rx,9,2,AA,04,00,00,00,00,00,00,
7265967,00000040,false,Rx,9,3,B0,01,10,00,00,00,00,00,
7268985,0000029C,false,Rx,9,3,03,00,1A,00,00,00,00,00,
7270065,00000010,false,Rx,9,7,B0,01,10,11,10,0E,00,00,
7271193,00000010,false,Rx,9,3,B0,0D,00,00,00,00,00,00,
7273872,00000008,false,Rx,9,7,B0,01,10,0F,FF,07,00,00,
7283221,000000AA,false,Rx,9,2,AA,04,00,00,00,00,00,00,
7286247,00000040,false,Rx,9,3,B0,01,10,00,00,00,00,00,
7287969,000002BC,false,Rx,9,3,03,00,0B,00,00,00,00,00,
7289683,00000010,false,Rx,9,7,B0,01,10,11,10,0D,00,00,
7293626,00000008,false,Rx,9,7,B0,01,10,0F,FF,07,00,00,
7303274,000000AA,false,Rx,9,2,AA,04,00,00,00,00,00,00,
7306143,00000040,false,Rx,9,3,B0,01,10,00,00,00,00,00,
7307866,000002B4,false,Rx,9,3,03,00,0A,00,00,00,00,00,
7309690,00000010,false,Rx,9,7,B0,01,10,11,10,0D,00,00,
7313419,00000008,false,Rx,9,7,B0,01,10,0C,BB,0F,FF,00,
7314712,00000008,false,Rx,9,7,B0,0E,00,0D,0E,07,00,00,
7323847,000000AA,false,Rx,9,2,AA,04,00,00,00,00,00,00,
7326015,00000040,false,Rx,9,3,B0,01,10,00,00,00,00,00,
7328258,000003AC,false,Rx,9,3,03,00,1D,00,00,00,00,00,
7329656,00000010,false,Rx,9,7,B0,01,10,11,10,0D,00,00,
7333599,00000008,false,Rx,9,7,B0,01,10,0F,FF,07,00,00,
7343900,00001000,true,Rx,9,8,00,00,00,51,00,00,19,16,
7345618,00001001,true,Rx,9,8,00,00,00,00,00,00,00,00,
7347123,00001002,true,Rx,9,8,00,00,00,00,00,00,00,00,
7348780,000000AA,false,Rx,9,2,AA,04,00,00,00,00,00,00,
7348799,00000040,false,Rx,9,3,B0,01,10,00,00,00,00,00,
7348815,000003A4,false,Rx,9,3,03,00,2C,00,00,00,00,00,
7349739,00000010,false,Rx,9,7,B0,01,10,11,10,0D,00,00,
7353599,00000008,false,Rx,9,7,B0,01,10,0F,FF,07,00,00,
7363365,000000AA,false,Rx,9,2,AA,04,00,00,00,00,00,00,
7366157,00000040,false,Rx,9,3,B0,01,10,00,00,00,00,00,
7369627,00000010,false,Rx,9,7,B0,01,10,11,10,0D,00,00,
7373693,00000008,false,Rx,9,7,B0,01,10,0F,FF,07,00,00,
7383747,000000AA,false,Rx,9,2,AA,04,00,00,00,00,00,00,
7385920,00000040,false,Rx,9,3,B0,01,10,00,00,00,00,00,
7388974,0000029C,false,Rx,9,3,03,00,1A,00,00,00,00,00,
7390054,00000010,false,Rx,9,7,B0,01,10,11,10,0D,00,00,
7393909,00000008,false,Rx,9,7,B0,01,10,0F,FF,07,00,00,
7403441,000000AA,false,Rx,9,2,AA,04,00,00,00,00,00,00,
7406077,00000040,false,Rx,9,3,B0,01,10,00,00,00,00,00,
7407935,000002BC,false,Rx,9,3,03,00,0B,00,00,00,00,00,
7409668,00000010,false,Rx,9,7,B0,01,10,11,10,0D,00,00,
7413611,00000008,false,Rx,9,7,B0,01,10,0F,FF,07,00,00,
7423451,000000AA,false,Rx,9,2,AA,04,00,00,00,00,00,00,
7426186,00000040,false,Rx,9,3,B0,01,10,00,00,00,00,00,
7427906,000002B4,false,Rx,9,3,03,00,0A,00,00,00,00,00,
7429731,00000010,false,Rx,9,7,B0,01,10,11,10,0D,00,00,
7433566,00000008,false,Rx,9,7,B0,01,10,0F,FF,07,00,00,
7434329,00000010,false,Rx,9,4,30,08,00,2E,00,00,00,00,
7435622,00000010,false,Rx,9,4,31,08,00,2D,00,00,00,00,
7436288,00000040,false,Rx,9,3,B0,2E,CC,00,00,00,00,00,
7443932,000000AA,false,Rx,9,2,AA,04,00,00,00,00,00,00,
7446431,00000040,false,Rx,9,6,B0,01,10,92,FF,FF,00,00,
7448042,00000040,false,Rx,9,8,B0,93,E5,00,14,00,2E,CC,
7449442,000003AC,false,Rx,9,3,03,00,1D,00,00,00,00,00,
7451265,00000010,false,Rx,9,7,B0,01,10,11,10,0D,00,00,
7453938,00000008,false,Rx,9,7,B0,01,10,0F,FF,07,00,00,
7463573,000000AA,false,Rx,9,2,AA,04,00,00,00,00,00,00,
7466297,00000040,false,Rx,9,3,B0,01,10,00,00,00,00,00,
7468769,000003A4,false,Rx,9,3,03,00,2C,00,00,00,00,00,
7469849,00000010,false,Rx,9,7,B0,01,10,11,10,0E,00,00,
7471040,00000010,false,Rx,9,3,B0,0D,00,00,00,00,00,00,
7473888,00000008,false,Rx,9,7,B0,01,10,0F,FF,07,00,00,
7483645,000000AA,false,Rx,9,2,AA,04,00,00,00,00,00,00,
7486078,00000040,false,Rx,9,3,B0,01,10,00,00,00,00,00,
7489595,00000010,false,Rx,9,7,B0,01,10,11,10,0D,00,00,
7493641,00000008,false,Rx,9,7,B0,01,10,0F,FF,07,00,00,
7503704,000000AA,false,Rx,9,2,AA,04,00,00,00,00,00,00,
7506111,00000040,false,Rx,9,3,B0,01,10,00,00,00,00,00,
7509173,0000029C,false,Rx,9,3,03,00,1A,00,00,00,00,00,
7510216,00000010,false,Rx,9,7,B0,01,10,11,10,0D,00,00,
7513866,00000008,false,Rx,9,7,B0,01,10,0C,BB,0F,FF,00,
7515689,00000008,false,Rx,9,7,B0,0E,00,0D,0E,07,00,00,
7523983,000000AA,false,Rx,9,2,AA,04,00,00,00,00,00,00,
7526124,00000040,false,Rx,9,3,B0,01,10,00,00,00,00,00,
7527842,000002BC,false,Rx,9,3,03,00,0B,00,00,00,00,00,
7529772,00000010,false,Rx,9,7,B0,01,10,11,10,0D,00,00,
7533609,00000008,false,Rx,9,7,B0,01,10,0F,FF,07,00,00,
7543779,000000AA,false,Rx,9,2,AA,04,00,00,00,00,00,00,
7546186,00000040,false,Rx,9,3,B0,01,10,00,00,00,00,00,
7547988,000002B4,false,Rx,9,3,03,00,0A,00,00,00,00,00,
7549742,00000010,false,Rx,9,7,B0,01,10,11,10,0D,00,00,
7553603,00000008,false,Rx,9,7,B0,01,10,0F,FF,07,00,00,
7563873,000000AA,false,Rx,9,2,AA,04,00,00,00,00,00,00,
7566064,00000040,false,Rx,9,3,B0,01,10,00,00,00,00,00,
7567783,000003AC,false,Rx,9,3,03,00,1D,00,00,00,00,00,
7569711,00000010,false,Rx,9,7,B0,01,10,11,10,0D,00,00,
7573551,00000008,false,Rx,9,7,B0,01,10,0F,FF,07,00,00,
7584000,000000AA,false,Rx,9,2,AA,04,00,00,00,00,00,00,
7586192,00000040,false,Rx,9,3,B0,01,10,00,00,00,00,00,
7587820,000003A4,false,Rx,9,3,03,00,2C,00,00,00,00,00,
7589761,00000010,false,Rx,9,7,B0,01,10,11,10,0D,00,00,
7593599,00000008,false,Rx,9,7,B0,01,10,0F,FF,07,00,00,
7604074,000000AA,false,Rx,9,2,AA,04,00,00,00,00,00,00,
7606057,00000040,false,Rx,9,3,B0,01,10,00,00,00,00,00,
7609685,00000010,false,Rx,9,7,B0,01,10,11,10,0D,00,00,
7613626,00000008,false,Rx,9,7,B0,01,10,0F,FF,07,00,00,
7624128,000000AA,false,Rx,9,2,AA,04,00,00,00,00,00,00,
7626192,00000040,false,Rx,9,3,B0,01,10,00,00,00,00,00,
7629303,0000029C,false,Rx,9,3,03,00,1A,00,00,00,00,00,
7630287,00000010,false,Rx,9,7,B0,01,10,11,10,0D,00,00,
7633932,00000008,false,Rx,9,7,B0,01,10,0F,FF,07,00,00,
7644208,000000AA,false,Rx,9,2,AA,04,00,00,00,00,00,00,
7646400,00000040,false,Rx,9,6,B0,01,10,92,FF,FF,00,00,
7648020,00000040,false,Rx,9,8,B0,93,E5,00,14,00,2E,CC,
7649415,000002BC,false,Rx,9,3,03,00,0B,00,00,00,00,00,
7650917,00000010,false,Rx,9,7,B0,01,10,11,10,0D,00,00,
7653903,00000008,false,Rx,9,7,B0,01,10,0F,FF,07,00,00,
7664196,000000AA,false,Rx,9,2,AA,04,00,00,00,00,00,00,
7666440,00000040,false,Rx,9,3,B0,01,10,00,00,00,00,00,
7667980,000002B4,false,Rx,9,3,03,00,0A,00,00,00,00,00,
7669693,00000010,false,Rx,9,7,B0,01,10,11,10,0E,00,00,
7670566,00000010,false,Rx,9,3,B0,0D,00,00,00,00,00,00,
7673764,00000008,false,Rx,9,7,B0,01,10,0F,FF,07,00,00,
7684306,000000AA,false,Rx,9,2,AA,04,00,00,00,00,00,00,
7686548,00000040,false,Rx,9,3,B0,01,20,00,00,00,00,00,
7688745,000003AC,false,Rx,9,3,03,00,1D,00,00,00,00,00,
7689728,00000010,false,Rx,9,7,B0,01,10,11,20,0D,00,00,
7693672,00000008,false,Rx,9,7,B0,01,20,0F,FF,07,00,00,
7704278,000000AA,false,Rx,9,2,AA,04,00,00,00,00,00,00,
7706416,00000040,false,Rx,9,3,B0,01,20,00,00,00,00,00,
7708150,000003A4,false,Rx,9,3,03,00,2C,00,00,00,00,00,
7709863,00000010,false,Rx,9,7,B0,01,20,11,20,0D,00,00,
7713819,00000008,false,Rx,9,7,B0,01,20,0C,BB,0F,FF,00,
7715029,00000008,false,Rx,9,7,B0,0E,00,0D,0E,07,00,00,
7724372,000000AA,false,Rx,9,2,AA,04,00,00,00,00,00,00,
7726392,00000040,false,Rx,9,3,B0,01,20,00,00,00,00,00,
7729815,00000010,false,Rx,9,7,B0,01,20,11,20,0D,00,00,
7733863,00000008,false,Rx,9,7,B0,01,20,0F,FF,07,00,00,
7744463,000000AA,false,Rx,9,2,AA,04,00,00,00,00,00,00,
7746278,00000040,false,Rx,9,3,B0,01,20,00,00,00,00,00,
7749349,0000029C,false,Rx,9,3,03,00,1A,00,00,00,00,00,
7750770,00000010,false,Rx,9,7,B0,01,20,11,20,0D,00,00,
7754082,00000008,false,Rx,9,7,B0,01,20,0F,FF,07,00,00,
7764503,000000AA,false,Rx,9,2,AA,04,00,00,00,00,00,00,
7766324,00000040,false,Rx,9,3,B0,01,20,00,00,00,00,00,
7767947,000002BC,false,Rx,9,3,03,00,0F,00,00,00,00,00,
7769869,00000010,false,Rx,9,7,B0,01,20,11,20,0D,00,00,
7773917,00000008,false,Rx,9,7,B0,01,20,0F,FF,07,00,00,
7784590,000000AA,false,Rx,9,2,AA,04,00,00,00,00,00,00,
7786214,00000040,false,Rx,9,3,B0,01,20,00,00,00,00,00,
7787932,000002B4,false,Rx,9,3,03,00,0A,00,00,00,00,00,
7789859,00000010,false,Rx,9,7,B0,01,20,11,20,0D,00,00,
7793905,00000008,false,Rx,9,7,B0,01,20,0F,FF,07,00,00,
7804460,000000AA,false,Rx,9,2,AA,04,00,00,00,00,00,00,
7806188,00000040,false,Rx,9,3,B0,01,20,00,00,00,00,00,
7807903,000003AC,false,Rx,9,3,03,00,1D,00,00,00,00,00,
7809943,00000010,false,Rx,9,7,B0,01,20,11,20,0D,00,00,
7814041,00000008,false,Rx,9,7,B0,01,20,0F,FF,07,00,00,
7824733,000000AA,false,Rx,9,2,AA,04,00,00,00,00,00,00,
7826305,00000040,false,Rx,9,3,B0,01,20,00,00,00,00,00,
7828030,000003A4,false,Rx,9,3,03,00,2C,00,00,00,00,00,
7829960,00000010,false,Rx,9,7,B0,01,20,11,20,0D,00,00,
7834008,00000008,false,Rx,9,7,B0,01,20,0F,FF,07,00,00,
7834767,00000010,false,Rx,9,4,30,08,00,2F,00,00,00,00,
7835957,00000010,false,Rx,9,4,31,08,00,2E,00,00,00,00,
7836932,00000040,false,Rx,9,3,B0,2F,66,00,00,00,00,00,
7844775,000000AA,false,Rx,9,2,AA,04,00,00,00,00,00,00,
7846637,00000040,false,Rx,9,6,B0,01,20,92,FF,FF,00,00,
7848254,00000040,false,Rx,9,8,B0,93,E5,00,14,00,2F,66,
7851455,00000010,false,Rx,9,7,B0,01,20,11,20,0D,00,00,
7854139,00000008,false,Rx,9,7,B0,01,20,0F,FF,07,00,00,
7864798,000000AA,false,Rx,9,2,AA,04,00,00,00,00,00,00,
7866387,00000040,false,Rx,9,3,B0,01,20,00,00,00,00,00,
7870184,00000010,false,Rx,9,7,B0,01,20,11,20,0E,00,00,
7870949,0000029C,false,Rx,9,3,03,00,1A,00,00,00,00,00,
7871710,00000010,false,Rx,9,3,B0,0D,00,00,00,00,00,00,
7874821,00000008,false,Rx,9,7,B0,01,20,0F,FF,07,00,00,
7884858,000000AA,false,Rx,9,2,AA,04,00,00,00,00,00,00,
7886326,00000040,false,Rx,9,3,B0,01,20,00,00,00,00,00,
7888150,000002BC,false,Rx,9,3,03,00,0F,00,00,00,00,00,
7889925,00000010,false,Rx,9,7,B0,01,20,11,20,0D,00,00,
7893974,00000008,false,Rx,9,7,B0,01,20,0F,FF,07,00,00,
7904877,000000AA,false,Rx,9,2,AA,04,00,00,00,00,00,00,
7906271,00000040,false,Rx,9,3,B0,01,20,00,00,00,00,00,
7907992,000002B4,false,Rx,9,3,03,00,0A,00,00,00,00,00,
7909917,00000010,false,Rx,9,7,B0,01,20,11,20,0D,00,00,
7913859,00000008,false,Rx,9,7,B0,01,20,0C,BB,0F,FF,00,
7915683,00000008,false,Rx,9,7,B0,0E,00,0D,0E,07,00,00,
7924887,000000AA,false,Rx,9,2,AA,04,00,00,00,00,00,00,
7926443,00000040,false,Rx,9,3,B0,01,20,00,00,00,00,00,
7928154,000003AC,false,Rx,9,3,03,00,1D,00,00,00,00,00,
7929891,00000010,false,Rx,9,7,B0,01,20,11,20,0D,00,00,
7933943,00000008,false,Rx,9,7,B0,01,20,0F,FF,07,00,00,
7943372,000000AA,false,Rx,9,2,AA,04,00,00,00,00,00,00,
7946458,00000040,false,Rx,9,3,B0,01,20,00,00,00,00,00,
7948101,000003A4,false,Rx,9,3,03,00,2C,00,00,00,00,00,
7949917,00000010,false,Rx,9,7,B0,01,20,11,20,0D,00,00,
7953969,00000008,false,Rx,9,7,B0,01,20,0F,FF,07,00,00,
7963310,000000AA,false,Rx,9,2,AA,04,00,00,00,00,00,00,
7966393,00000040,false,Rx,9,3,B0,01,20,00,00,00,00,00,
7969967,00000010,false,Rx,9,7,B0,01,20,11,20,0D,00,00,
7973917,00000008,false,Rx,9,7,B0,01,20,0F,FF,07,00,00,
7983368,000000AA,false,Rx,9,2,AA,04,00,00,00,00,00,00,
7986547,00000040,false,Rx,9,3,B0,01,20,00,00,00,00,00,
7989456,0000029C,false,Rx,9,3,03,00,1A,00,00,00,00,00,
7990536,00000010,false,Rx,9,7,B0,01,20,11,20,0D,00,00,
7994602,00000008,false,Rx,9,7,B0,01,20,0F,FF,07,00,00,
8003310,000000AA,false,Rx,9,2,AA,04,00,00,00,00,00,00,
8006386,00000040,false,Rx,9,3,B0,01,20,00,00,00,00,00,
8008034,000002BC,false,Rx,9,3,03,00,0F,00,00,00,00,00,
8010057,00000010,false,Rx,9,7,B0,01,20,11,20,0D,00,00,
8013976,00000008,false,Rx,9,7,B0,01,20,0F,FF,07,00,00,
8023323,000000AA,false,Rx,9,2,AA,04,00,00,00,00,00,00,
8026586,00000040,false,Rx,9,3,B0,01,20,00,00,00,00,00,
8028226,000002B4,false,Rx,9,3,03,00,0A,00,00,00,00,00,
8029943,00000010,false,Rx,9,7,B0,01,20,11,20,0D,00,00,
8033992,00000008,false,Rx,9,7,B0,01,20,0F,FF,07,00,00,
8043334,000000AA,false,Rx,9,2,AA,04,00,00,00,00,00,00,
8046645,00000040,false,Rx,9,6,B0,01,20,92,FF,FF,00,00,
8048256,00000040,false,Rx,9,8,B0,93,E5,00,14,00,2F,66,
8049669,000003AC,false,Rx,9,3,03,00,1D,00,00,00,00,00,
8051490,00000010,false,Rx,9,7,B0,01,20,11,20,0D,00,00,
8054054,00000008,false,Rx,9,7,B0,01,20,0F,FF,07,00,00,
8063398,000000AA,false,Rx,9,2,AA,04,00,00,00,00,00,00,
8066578,00000040,false,Rx,9,3,B0,01,20,00,00,00,00,00,
8068217,000003A4,false,Rx,9,3,03,00,2C,00,00,00,00,00,
8069938,00000010,false,Rx,9,7,B0,01,20,11,20,0E,00,00,
8071124,00000010,false,Rx,9,3,B0,0D,00,00,00,00,00,00,
8074112,00000008,false,Rx,9,7,B0,01,20,0F,FF,07,00,00,
8085338,000000AA,false,Rx,9,2,AA,04,00,00,00,00,00,00,
8086394,00000040,false,Rx,9,3,B0,01,20,00,00,00,00,00,
8089982,00000010,false,Rx,9,7,B0,01,20,11,20,0D,00,00,
8093892,00000008,false,Rx,9,7,B0,01,20,0F,FF,07,00,00,
8105377,000000AA,false,Rx,9,2,AA,04,00,00,00,00,00,00,
8106332,00000040,false,Rx,9,3,B0,01,20,00,00,00,00,00,
8109395,0000029C,false,Rx,9,3,03,00,1A,00,00,00,00,00,
8110920,00000010,false,Rx,9,7,B0,01,20,11,20,0D,00,00,
8114019,00000008,false,Rx,9,7,B0,01,20,0C,BB,0F,FF,00,
8115838,00000008,false,Rx,9,7,B0,0E,00,0D,0E,07,00,00,
8123385,000000AA,false,Rx,9,2,AA,04,00,00,00,00,00,00,
8126561,00000040,false,Rx,9,3,B0,01,20,00,00,00,00,00,
8128200,000002BC,false,Rx,9,3,03,00,0F,00,00,00,00,00,
8129995,00000010,false,Rx,9,7,B0,01,20,11,20,0D,00,00,
8133948,00000008,false,Rx,9,7,B0,01,20,0F,FF,07,00,00,
8143398,000000AA,false,Rx,9,2,AA,04,00,00,00,00,00,00,
8146663,00000040,false,Rx,9,3,B0,01,20,00,00,00,00,00,
8148309,000002B4,false,Rx,9,3,03,00,0A,00,00,00,00,00,
8150027,00000010,false,Rx,9,7,B0,01,20,11,20,0D,00,00,
8154074,00000008,false,Rx,9,7,B0,01,20,0F,FF,07,00,00,
8163393,000000AA,false,Rx,9,2,AA,04,00,00,00,00,00,00,
8166448,00000040,false,Rx,9,3,B0,01,20,00,00,00,00,00,
8168228,000003AC,false,Rx,9,3,03,00,1D,00,00,00,00,00,
8170027,00000010,false,Rx,9,7,B0,01,20,11,20,0D,00,00,
8173994,00000008,false,Rx,9,7,B0,01,20,0F,FF,07,00,00,
8183442,000000AA,false,Rx,9,2,AA,04,00,00,00,00,00,00,
8186419,00000040,false,Rx,9,3,B0,01,20,00,00,00,00,00,
8188248,000003A4,false,Rx,9,3,03,00,2C,00,00,00,00,00,
8189972,00000010,false,Rx,9,7,B0,01,20,11,20,0D,00,00,
8194060,00000008,false,Rx,9,7,B0,01,20,0F,FF,07,00,00,
8203413,000000AA,false,Rx,9,2,AA,04,00,00,00,00,00,00,
8206491,00000040,false,Rx,9,3,B0,01,20,00,00,00,00,00,
8209978,00000010,false,Rx,9,7,B0,01,20,11,20,0D,00,00,
8214005,00000008,false,Rx,9,7,B0,01,20,0F,FF,07,00,00,
8225644,000000AA,false,Rx,9,2,AA,04,00,00,00,00,00,00,
8226567,00000040,false,Rx,9,3,B0,01,20,00,00,00,00,00,
8229512,0000029C,false,Rx,9,3,03,00,1A,00,00,00,00,00,
8230593,00000010,false,Rx,9,7,B0,01,20,11,20,0D,00,00,
8234659,00000008,false,Rx,9,7,B0,01,20,0F,FF,07,00,00,
8235422,00000010,false,Rx,9,4,30,08,00,30,00,00,00,00,
8236292,00000010,false,Rx,9,4,31,08,00,2F,00,00,00,00,
8237584,00000040,false,Rx,9,3,B0,30,99,00,00,00,00,00,
8245719,000000AA,false,Rx,9,2,AA,04,00,00,00,00,00,00,
8246853,00000040,false,Rx,9,6,B0,01,20,92,FF,FF,00,00,
8248416,00000040,false,Rx,9,8,B0,93,E5,00,14,00,30,99,
8249843,000002BC,false,Rx,9,3,03,00,0F,00,00,00,00,00,
8251564,00000010,false,Rx,9,7,B0,01,20,11,20,0D,00,00,
8254553,00000008,false,Rx,9,7,B0,01,20,0F,FF,07,00,00,
8265752,000000AA,false,Rx,9,2,AA,04,00,00,00,00,00,00,
8266579,00000040,false,Rx,9,3,B0,01,20,00,00,00,00,00,
8268300,000002B4,false,Rx,9,3,03,00,02,00,00,00,00,00,
8269909,00000010,false,Rx,9,7,B0,01,20,11,20,0E,00,00,
8271100,00000010,false,Rx,9,3,B0,0D,00,00,00,00,00,00,
8274617,00000008,false,Rx,9,7,B0,01,20,0F,FF,07,00,00,
8283435,000000AA,false,Rx,9,2,AA,04,00,00,00,00,00,00,
8286522,00000040,false,Rx,9,3,B0,01,20,00,00,00,00,00,
8288208,000003AC,false,Rx,9,3,03,00,1D,00,00,00,00,00,
8290023,00000010,false,Rx,9,7,B0,01,20,11,20,0D,00,00,
8294033,00000008,false,Rx,9,7,B0,01,20,0F,FF,07,00,00,
8303529,000000AA,false,Rx,9,2,AA,04,00,00,00,00,00,00,
8306512,00000040,false,Rx,9,3,B0,01,20,00,00,00,00,00,
8308151,000003A4,false,Rx,9,3,03,00,2C,00,00,00,00,00,
8309975,00000010,false,Rx,9,7,B0,01,20,11,20,0D,00,00,
8313911,00000008,false,Rx,9,7,B0,01,20,0C,BB,0F,FF,00,
8315736,00000008,false,Rx,9,7,B0,0E,00,0D,0E,07,00,00,
8323497,000000AA,false,Rx,9,2,AA,04,00,00,00,00,00,00,
8343857,00001000,true,Rx,9,8,00,00,00,52,00,00,1A,3E,
8345271,00001001,true,Rx,9,8,00,00,00,00,00,00,00,00,
8346641,00001002,true,Rx,9,8,00,00,00,00,00,00,00,00,
8326591,00000040,false,Rx,9,3,B0,01,20,00,00,00,00,00,
8330011,00000010,false,Rx,9,7,B0,01,20,11,20,0D,00,00,
8333968,00000008,false,Rx,9,7,B0,01,20,0F,FF,07,00,00,
8348253,000000AA,false,Rx,9,2,AA,04,00,00,00,00,00,00,
8348273,00000040,false,Rx,9,3,B0,01,20,00,00,00,00,00,
8349995,0000029C,false,Rx,9,3,03,00,1A,00,00,00,00,00,
8350564,00000010,false,Rx,9,7,B0,01,20,11,20,0D,00,00,
8354674,00000008,false,Rx,9,7,B0,01,20,0F,FF,07,00,00,
8364349,000000AA,false,Rx,9,2,AA,04,00,00,00,00,00,00,
8366595,00000040,false,Rx,9,3,B0,01,20,00,00,00,00,00,
8368310,000002BC,false,Rx,9,3,03,00,0F,00,00,00,00,00,
8370050,00000010,false,Rx,9,7,B0,01,20,11,20,0D,00,00,
8374096,00000008,false,Rx,9,7,B0,01,20,0F,FF,07,00,00,
8384292,000000AA,false,Rx,9,2,AA,04,00,00,00,00,00,00,
8386538,00000040,false,Rx,9,3,B0,01,20,00,00,00,00,00,
8388253,000002B4,false,Rx,9,3,03,00,02,00,00,00,00,00,
8390169,00000010,false,Rx,9,7,B0,01,20,11,20,0D,00,00,
8394129,00000008,false,Rx,9,7,B0,01,20,0F,FF,07,00,00,
8403552,000000AA,false,Rx,9,2,AA,04,00,00,00,00,00,00,
8406608,00000040,false,Rx,9,3,B0,01,20,00,00,00,00,00,
8408329,000003AC,false,Rx,9,3,03,00,1D,00,00,00,00,00,
8410255,00000010,false,Rx,9,7,B0,01,20,11,20,0D,00,00,
8414136,00000008,false,Rx,9,7,B0,01,20,0F,FF,07,00,00,
8424226,000000AA,false,Rx,9,2,AA,04,00,00,00,00,00,00,
8426469,00000040,false,Rx,9,3,B0,01,20,00,00,00,00,00,
8428187,000003A4,false,Rx,9,3,03,00,2C,00,00,00,00,00,
8430308,00000010,false,Rx,9,7,B0,01,20,11,20,0D,00,00,
8434095,00000008,false,Rx,9,7,B0,01,20,0F,FF,07,00,00,
8443580,000000AA,false,Rx,9,2,AA,04,00,00,00,00,00,00,
8447001,00000040,false,Rx,9,6,B0,01,20,92,FF,FF,00,00,
8448504,00000040,false,Rx,9,8,B0,93,E5,00,14,00,30,99,
8451562,00000010,false,Rx,9,7,B0,01,20,11,20,0D,00,00,
8454582,00000008,false,Rx,9,7,B0,01,20,0F,FF,07,00,00,
8464246,000000AA,false,Rx,9,2,AA,04,00,00,00,00,00,00,
8466494,00000040,false,Rx,9,3,B0,01,20,00,00,00,00,00,
8470434,0000029C,false,Rx,9,3,03,00,1A,00,00,00,00,00,
8470617,00000010,false,Rx,9,7,B0,01,20,11,20,0E,00,00,
8471752,00000010,false,Rx,9,3,B0,0D,00,00,00,00,00,00,
8474845,00000008,false,Rx,9,7,B0,01,20,0F,FF,07,00,00,
8483568,000000AA,false,Rx,9,2,AA,04,00,00,00,00,00,00,
8486553,00000040,false,Rx,9,3,B0,01,20,00,00,00,00,00,
8488270,000002BC,false,Rx,9,3,03,00,0F,00,00,00,00,00,
8490417,00000010,false,Rx,9,7,B0,01,20,11,20,0D,00,00,
8494141,00000008,false,Rx,9,7,B0,01,20,0F,FF,07,00,00,
8503555,000000AA,false,Rx,9,2,AA,04,00,00,00,00,00,00,
8506554,00000040,false,Rx,9,3,B0,01,20,00,00,00,00,00,
8508270,000002B4,false,Rx,9,3,03,00,0A,00,00,00,00,00,
8510616,00000010,false,Rx,9,7,B0,01,20,11,20,0D,00,00,
8514018,00000008,false,Rx,9,7,B0,01,20,0C,BB,0F,FF,00,
8515857,00000008,false,Rx,9,7,B0,0E,00,0D,0E,07,00,00,
8524248,000000AA,false,Rx,9,2,AA,04,00,00,00,00,00,00,
8526497,00000040,false,Rx,9,3,B0,01,20,00,00,00,00,00,
8528214,000003AC,false,Rx,9,3,03,00,1D,00,00,00,00,00,
8530645,00000010,false,Rx,9,7,B0,01,20,11,20,0D,00,00,
8534112,00000008,false,Rx,9,7,B0,01,20,0F,FF,07,00,00,
8543567,000000AA,false,Rx,9,2,AA,04,00,00,00,00,00,00,
8546553,00000040,false,Rx,9,3,B0,01,20,00,00,00,00,00,
8548269,000003A4,false,Rx,9,3,03,00,2C,00,00,00,00,00,
8550687,00000010,false,Rx,9,7,B0,01,20,11,20,0D,00,00,
8554356,00000008,false,Rx,9,7,B0,01,20,0F,FF,07,00,00,
8563631,000000AA,false,Rx,9,2,AA,04,00,00,00,00,00,00,
8566515,00000040,false,Rx,9,3,B0,01,20,00,00,00,00,00,
8570674,00000010,false,Rx,9,7,B0,01,20,11,20,0D,00,00,
8574084,00000008,false,Rx,9,7,B0,01,20,0F,FF,07,00,00,
8584397,000000AA,false,Rx,9,2,AA,04,00,00,00,00,00,00,
8586644,00000040,false,Rx,9,3,B0,01,20,00,00,00,00,00,
8590842,0000029C,false,Rx,9,3,03,00,1A,00,00,00,00,00,
8590870,00000010,false,Rx,9,7,B0,01,20,11,20,0D,00,00,
8594717,00000008,false,Rx,9,7,B0,01,20,0F,FF,07,00,00,
8604513,000000AA,false,Rx,9,2,AA,04,00,00,00,00,00,00,
8606667,00000040,false,Rx,9,3,B0,01,20,00,00,00,00,00,
8608385,000002BC,false,Rx,9,3,03,00,0F,00,00,00,00,00,
8610938,00000010,false,Rx,9,7,B0,01,20,11,20,0D,00,00,
8614098,00000008,false,Rx,9,7,B0,01,20,0F,FF,07,00,00,
8624316,000000AA,false,Rx,9,2,AA,04,00,00,00,00,00,00,
8626564,00000040,false,Rx,9,3,B0,01,20,00,00,00,00,00,
8628280,000002B4,false,Rx,9,3,03,00,0A,00,00,00,00,00,
8630957,00000010,false,Rx,9,7,B0,01,20,11,20,0D,00,00,
8634157,00000008,false,Rx,9,7,B0,01,20,0F,FF,07,00,00,
8634969,00000010,false,Rx,9,4,30,08,00,31,00,00,00,00,
8636157,00000010,false,Rx,9,4,31,08,00,30,00,00,00,00,
8637237,00000040,false,Rx,9,3,B0,31,99,00,00,00,00,00,
8643611,000000AA,false,Rx,9,2,AA,04,00,00,00,00,00,00,
8646917,00000040,false,Rx,9,6,B0,01,20,92,FF,FF,00,00,
8648424,00000040,false,Rx,9,8,B0,93,E5,00,14,00,31,99,
8650988,000003AC,false,Rx,9,3,03,00,1D,00,00,00,00,00,
8651636,00000010,false,Rx,9,7,B0,01,20,11,20,0D,00,00,
8654636,00000008,false,Rx,9,7,B0,01,20,0F,FF,07,00,00,
8663592,000000AA,false,Rx,9,2,AA,04,00,00,00,00,00,00,
8666799,00000040,false,Rx,9,3,B0,01,20,00,00,00,00,00,
8668410,000003A4,false,Rx,9,3,03,00,2C,00,00,00,00,00,
8671160,00000010,false,Rx,9,7,B0,01,20,11,20,0E,00,00,
8671180,00000010,false,Rx,9,3,B0,0D,00,00,00,00,00,00,
8674662,00000008,false,Rx,9,7,B0,01,20,0F,FF,07,00,00,
8684419,000000AA,false,Rx,9,2,AA,04,00,00,00,00,00,00,
8686889,00000040,false,Rx,9,3,B0,01,20,00,00,00,00,00,
8691160,00000010,false,Rx,9,7,B0,01,20,11,20,0D,00,00,
8694096,00000008,false,Rx,9,7,B0,01,20,0F,FF,07,00,00,
8704544,000000AA,false,Rx,9,2,AA,04,00,00,00,00,00,00,
8706711,00000040,false,Rx,9,3,B0,01,20,00,00,00,00,00,
8711248,0000029C,false,Rx,9,3,03,00,1A,00,00,00,00,00,
8711268,00000010,false,Rx,9,7,B0,01,20,11,20,0D,00,00,
8714096,00000008,false,Rx,9,7,B0,01,20,0C,BB,0F,FF,00,
8715953,00000008,false,Rx,9,7,B0,0E,00,0D,0E,07,00,00,
8723627,000000AA,false,Rx,9,2,AA,04,00,00,00,00,00,00,
8726611,00000040,false,Rx,9,3,B0,01,20,00,00,00,00,00,
8728329,000002BC,false,Rx,9,3,03,00,0F,00,00,00,00,00,
8731209,00000010,false,Rx,9,7,B0,01,20,11,20,0D,00,00,
8734146,00000008,false,Rx,9,7,B0,01,20,0F,FF,07,00,00,
8744368,000000AA,false,Rx,9,2,AA,04,00,00,00,00,00,00,
8746609,00000040,false,Rx,9,3,B0,01,20,00,00,00,00,00,
8748334,000002B4,false,Rx,9,3,03,00,02,00,00,00,00,00,
8751214,00000010,false,Rx,9,7,B0,01,20,11,20,0D,00,00,
8754099,00000008,false,Rx,9,7,B0,01,20,0F,FF,07,00,00,
8763758,000000AA,false,Rx,9,2,AA,04,00,00,00,00,00,00,
8766660,00000040,false,Rx,9,3,B0,01,20,00,00,00,00,00,
8768374,000003AC,false,Rx,9,3,03,00,1D,00,00,00,00,00,
8771327,00000010,false,Rx,9,7,B0,01,20,11,20,0D,00,00,
8774160,00000008,false,Rx,9,7,B0,01,20,0F,FF,07,00,00,
8784461,000000AA,false,Rx,9,2,AA,04,00,00,00,00,00,00,
8786707,00000040,false,Rx,9,3,B0,01,20,00,00,00,00,00,
8788424,000003A4,false,Rx,9,3,03,00,2C,00,00,00,00,00,
8791386,00000010,false,Rx,9,7,B0,01,20,11,20,0D,00,00,
8794193,00000008,false,Rx,9,7,B0,01,20,0F,FF,07,00,00,
8803744,000000AA,false,Rx,9,2,AA,04,00,00,00,00,00,00,
8806843,00000040,false,Rx,9,3,B0,01,20,00,00,00,00,00,
8811440,00000010,false,Rx,9,7,B0,01,20,11,20,0D,00,00,
8814060,00000008,false,Rx,9,7,B0,01,20,0F,FF,07,00,00,
8824469,000000AA,false,Rx,9,2,AA,04,00,00,00,00,00,00,
8826717,00000040,false,Rx,9,3,B0,01,20,00,00,00,00,00,
8829664,0000029C,false,Rx,9,3,03,00,1A,00,00,00,00,00,
8831397,00000010,false,Rx,9,7,B0,01,20,11,20,0D,00,00,
8834720,00000008,false,Rx,9,7,B0,01,20,0F,FF,07,00,00,
8843787,000000AA,false,Rx,9,2,AA,04,00,00,00,00,00,00,
8847016,00000040,false,Rx,9,6,B0,01,20,92,FF,FF,00,00,
8848521,00000040,false,Rx,9,8,B0,93,E5,00,14,00,31,99,
8851472,000002BC,false,Rx,9,3,03,00,0F,00,00,00,00,00,
8851504,00000010,false,Rx,9,7,B0,01,20,11,20,0D,00,00,
8854115,00000008,false,Rx,9,7,B0,01,20,0F,FF,07,00,00,
8864414,000000AA,false,Rx,9,2,AA,04,00,00,00,00,00,00,
8866659,00000040,false,Rx,9,3,B0,01,20,00,00,00,00,00,
8868375,000002B4,false,Rx,9,3,03,00,0A,00,00,00,00,00,
8871542,00000010,false,Rx,9,7,B0,01,20,11,20,0E,00,00,
8871562,00000010,false,Rx,9,3,B0,0D,00,00,00,00,00,00,
8874693,00000008,false,Rx,9,7,B0,01,20,0F,FF,07,00,00,
8884542,000000AA,false,Rx,9,2,AA,04,00,00,00,00,00,00,
8886788,00000040,false,Rx,9,3,B0,01,20,00,00,00,00,00,
8888506,000003AC,false,Rx,9,3,03,00,1D,00,00,00,00,00,
8891549,00000010,false,Rx,9,7,B0,01,20,11,20,0D,00,00,
8894620,00000008,false,Rx,9,7,B0,01,20,0F,FF,07,00,00,
8903758,000000AA,false,Rx,9,2,AA,04,00,00,00,00,00,00,
8906770,00000040,false,Rx,9,3,B0,01,20,00,00,00,00,00,
8908491,000003A4,false,Rx,9,3,03,00,2C,00,00,00,00,00,
8911857,00000010,false,Rx,9,7,B0,01,20,11,20,0D,00,00,
8914073,00000008,false,Rx,9,7,B0,01,20,0C,BB,0F,FF,00,
8916007,00000008,false,Rx,9,7,B0,0E,00,0D,0E,07,00,00,
8923764,000000AA,false,Rx,9,2,AA,04,00,00,00,00,00,00,
8926656,00000040,false,Rx,9,3,B0,01,20,00,00,00,00,00,
8930070,00000010,false,Rx,9,7,B0,01,20,11,20,0D,00,00,
8934171,00000008,false,Rx,9,7,B0,01,20,0F,FF,07,00,00,
8943780,000000AA,false,Rx,9,2,AA,04,00,00,00,00,00,00,
8946683,00000040,false,Rx,9,3,B0,01,20,00,00,00,00,00,
8949731,0000029C,false,Rx,9,3,03,00,1A,00,00,00,00,00,
8951836,00000010,false,Rx,9,7,B0,01,20,11,20,0D,00,00,
8954683,00000008,false,Rx,9,7,B0,01,20,0F,FF,07,00,00,
8964456,000000AA,false,Rx,9,2,AA,04,00,00,00,00,00,00,
8966701,00000040,false,Rx,9,3,B0,01,20,00,00,00,00,00,
8968415,000002BC,false,Rx,9,3,03,00,0F,00,00,00,00,00,
8970132,00000010,false,Rx,9,7,B0,01,20,11,20,0D,00,00,
8974297,00000008,false,Rx,9,7,B0,01,20,0F,FF,07,00,00,
8983766,000000AA,false,Rx,9,2,AA,04,00,00,00,00,00,00,
8986863,00000040,false,Rx,9,3,B0,01,20,00,00,00,00,00,
8988582,000002B4,false,Rx,9,3,03,00,0A,00,00,00,00,00,
8990088,00000010,false,Rx,9,7,B0,01,20,11,20,0D,00,00,
8994239,00000008,false,Rx,9,7,B0,01,20,0F,FF,07,00,00,
9003717,000000AA,false,Rx,9,2,AA,04,00,00,00,00,00,00,
9006917,00000040,false,Rx,9,3,B0,01,20,00,00,00,00,00,
9008579,000003AC,false,Rx,9,3,03,00,1D,00,00,00,00,00,
9010093,00000010,false,Rx,9,7,B0,01,20,11,20,0D,00,00,
9014248,00000008,false,Rx,9,7,B0,01,20,0F,FF,07,00,00,
9023828,000000AA,false,Rx,9,2,AA,04,00,00,00,00,00,00,
9026821,00000040,false,Rx,9,3,B0,01,20,00,00,00,00,00,
9028538,000003A4,false,Rx,9,3,03,00,2C,00,00,00,00,00,
9030148,00000010,false,Rx,9,7,B0,01,20,11,20,0D,00,00,
9034185,00000008,false,Rx,9,7,B0,01,20,0F,FF,07,00,00,
9034974,00000010,false,Rx,9,4,30,08,00,32,00,00,00,00,
9036054,00000040,false,Rx,9,3,B0,32,FF,00,00,00,00,00,
9036917,00000010,false,Rx,9,4,31,08,00,31,00,00,00,00,
9043821,000000AA,false,Rx,9,2,AA,04,00,00,00,00,00,00,
9047021,00000040,false,Rx,9,6,B0,01,20,92,FF,FF,00,00,
9048631,00000040,false,Rx,9,8,B0,93,E5,00,14,00,32,FF,
9052120,00000010,false,Rx,9,7,B0,01,20,11,20,0D,00,00,
9054621,00000008,false,Rx,9,7,B0,01,20,0F,FF,07,00,00,
9064545,000000AA,false,Rx,9,2,AA,04,00,00,00,00,00,00,
9066805,00000040,false,Rx,9,3,B0,01,20,00,00,00,00,00,
9069749,0000029C,false,Rx,9,3,03,00,1A,00,00,00,00,00,
9072203,00000010,false,Rx,9,7,B0,01,20,11,20,0E,00,00,
9072238,00000010,false,Rx,9,3,B0,0D,00,00,00,00,00,00,
9074840,00000008,false,Rx,9,7,B0,01,20,0F,FF,07,00,00,
9083762,000000AA,false,Rx,9,2,AA,04,00,00,00,00,00,00,
9086858,00000040,false,Rx,9,3,B0,01,20,00,00,00,00,00,
9088578,000002BC,false,Rx,9,3,03,00,0F,00,00,00,00,00,
9090082,00000010,false,Rx,9,7,B0,01,20,11,20,0D,00,00,
9094282,00000008,false,Rx,9,7,B0,01,20,0F,FF,07,00,00,
9103833,000000AA,false,Rx,9,2,AA,04,00,00,00,00,00,00,
9106941,00000040,false,Rx,9,3,B0,01,20,00,00,00,00,00,
9108656,000002B4,false,Rx,9,3,03,00,02,00,00,00,00,00,
9110162,00000010,false,Rx,9,7,B0,01,20,11,20,0D,00,00,
9114058,00000008,false,Rx,9,7,B0,01,20,0C,BB,0F,FF,00,
9115938,00000008,false,Rx,9,7,B0,0E,00,0D,0E,07,00,00,
9124653,000000AA,false,Rx,9,2,AA,04,00,00,00,00,00,00,
9126897,00000040,false,Rx,9,3,B0,01,20,00,00,00,00,00,
9128617,000003AC,false,Rx,9,3,03,00,1D,00,00,00,00,00,
9130123,00000010,false,Rx,9,7,B0,01,20,11,20,0D,00,00,
9134186,00000008,false,Rx,9,7,B0,01,20,0F,FF,07,00,00,
9143863,000000AA,false,Rx,9,2,AA,04,00,00,00,00,00,00,
9147082,00000040,false,Rx,9,3,B0,01,20,00,00,00,00,00,
9148795,000003A4,false,Rx,9,3,03,00,2C,00,00,00,00,00,
9150091,00000010,false,Rx,9,7,B0,01,20,11,20,0D,00,00,
9154217,00000008,false,Rx,9,7,B0,01,20,0F,FF,07,00,00,
9164725,000000AA,false,Rx,9,2,AA,04,00,00,00,00,00,00,
9166873,00000040,false,Rx,9,3,B0,01,20,00,00,00,00,00,
9170078,00000010,false,Rx,9,7,B0,01,20,11,20,0D,00,00,
9174309,00000008,false,Rx,9,7,B0,01,20,0F,FF,07,00,00,
9184706,000000AA,false,Rx,9,2,AA,04,00,00,00,00,00,00,
9186933,00000040,false,Rx,9,3,B0,01,20,00,00,00,00,00,
9189917,0000029C,false,Rx,9,3,03,00,1A,00,00,00,00,00,
9192434,00000010,false,Rx,9,7,B0,01,20,11,20,0D,00,00,
9194649,00000008,false,Rx,9,7,B0,01,20,0F,FF,07,00,00,
9203893,000000AA,false,Rx,9,2,AA,04,00,00,00,00,00,00,
9206989,00000040,false,Rx,9,3,B0,01,20,00,00,00,00,00,
9208701,000002BC,false,Rx,9,3,03,00,0F,00,00,00,00,00,
9210099,00000010,false,Rx,9,7,B0,01,20,11,20,0D,00,00,
9214764,00000008,false,Rx,9,7,B0,01,20,0F,FF,07,00,00,
9223937,000000AA,false,Rx,9,2,AA,04,00,00,00,00,00,00,
9227043,00000040,false,Rx,9,3,B0,01,20,00,00,00,00,00,
9228758,000002B4,false,Rx,9,3,03,00,02,00,00,00,00,00,
9230159,00000010,false,Rx,9,7,B0,01,20,11,20,0D,00,00,
9234691,00000008,false,Rx,9,7,B0,01,20,0F,FF,07,00,00,
9243849,000000AA,false,Rx,9,2,AA,04,00,00,00,00,00,00,
9247240,00000040,false,Rx,9,6,B0,01,20,92,FF,FF,00,00,
9248752,00000040,false,Rx,9,8,B0,93,E5,00,14,00,32,FF,
9250154,000003AC,false,Rx,9,3,03,00,1D,00,00,00,00,00,
9252651,00000010,false,Rx,9,7,B0,01,20,11,20,0D,00,00,
9254757,00000008,false,Rx,9,7,B0,01,20,0F,FF,07,00,00,
9264758,000000AA,false,Rx,9,2,AA,04,00,00,00,00,00,00,
9267029,00000040,false,Rx,9,3,B0,01,20,00,00,00,00,00,
9268636,000003A4,false,Rx,9,3,03,00,2C,00,00,00,00,00,
9270143,00000010,false,Rx,9,7,B0,01,20,11,20,0E,00,00,
9272742,00000010,false,Rx,9,3,B0,0D,00,00,00,00,00,00,
9274717,00000008,false,Rx,9,7,B0,01,20,0F,FF,07,00,00,
9284726,000000AA,false,Rx,9,2,AA,04,00,00,00,00,00,00,
9286976,00000040,false,Rx,9,3,B0,01,20,00,00,00,00,00,
9290069,00000010,false,Rx,9,7,B0,01,20,11,20,0D,00,00,
9294234,00000008,false,Rx,9,7,B0,01,20,0F,FF,07,00,00,
9304785,000000AA,false,Rx,9,2,AA,04,00,00,00,00,00,00,
9306943,00000040,false,Rx,9,3,B0,01,20,00,00,00,00,00,
9309988,0000029C,false,Rx,9,3,03,00,1A,00,00,00,00,00,
9311069,00000010,false,Rx,9,7,B0,01,20,11,20,0D,00,00,
9314096,00000008,false,Rx,9,7,B0,01,20,0C,BB,0F,FF,00,
9315961,00000008,false,Rx,9,7,B0,0E,00,0D,0E,07,00,00,
9323968,000000AA,false,Rx,9,2,AA,04,00,00,00,00,00,00,
9326962,00000040,false,Rx,9,3,B0,01,20,00,00,00,00,00,
9328677,000002BC,false,Rx,9,3,03,00,0F,00,00,00,00,00,
9330184,00000010,false,Rx,9,7,B0,01,20,11,20,0D,00,00,
9343963,00001000,true,Rx,9,8,00,00,00,53,00,00,1B,69,
9345369,00001001,true,Rx,9,8,00,00,00,00,00,00,00,00,
9346535,00001002,true,Rx,9,8,00,00,00,00,00,00,00,00,
9334707,00000008,false,Rx,9,7,B0,01,20,0F,FF,07,00,00,
9348330,000000AA,false,Rx,9,2,AA,04,00,00,00,00,00,00,
9348350,00000040,false,Rx,9,3,B0,01,20,00,00,00,00,00,
9348542,000002B4,false,Rx,9,3,03,00,0A,00,00,00,00,00,
9350157,00000010,false,Rx,9,7,B0,01,20,11,20,0D,00,00,
9354678,00000008,false,Rx,9,7,B0,01,20,0F,FF,07,00,00,
9363931,000000AA,false,Rx,9,2,AA,04,00,00,00,00,00,00,
9366930,00000040,false,Rx,9,3,B0,01,20,00,00,00,00,00,
9368643,000003AC,false,Rx,9,3,03,00,1D,00,00,00,00,00,
9370187,00000010,false,Rx,9,7,B0,01,20,11,20,0D,00,00,
9374726,00000008,false,Rx,9,7,B0,01,20,0F,FF,07,00,00,
9383896,000000AA,false,Rx,9,2,AA,04,00,00,00,00,00,00,
9386992,00000040,false,Rx,9,3,B0,01,20,00,00,00,00,00,
9388707,000003A4,false,Rx,9,3,03,00,2C,00,00,00,00,00,
9390214,00000010,false,Rx,9,7,B0,01,20,11,20,0D,00,00,
9394663,00000008,false,Rx,9,7,B0,01,20,0F,FF,07,00,00,
9404048,000000AA,false,Rx,9,2,AA,04,00,00,00,00,00,00,
9406866,00000040,false,Rx,9,3,B0,01,20,00,00,00,00,00,
9410074,00000010,false,Rx,9,7,B0,01,20,11,20,0D,00,00,
9414724,00000008,false,Rx,9,7,B0,01,20,0F,FF,07,00,00,
9424063,000000AA,false,Rx,9,2,AA,04,00,00,00,00,00,00,
9427288,00000040,false,Rx,9,3,B0,01,20,00,00,00,00,00,
9430550,00000010,false,Rx,9,7,B0,01,20,11,20,0D,00,00,
9431313,0000029C,false,Rx,9,3,03,00,1A,00,00,00,00,00,
9434792,00000008,false,Rx,9,7,B0,01,20,0F,FF,07,00,00,
9435558,00000010,false,Rx,9,4,30,08,00,33,00,00,00,00,
9436556,00000010,false,Rx,9,4,31,08,00,32,00,00,00,00,
9437778,00000040,false,Rx,9,3,B0,33,B3,00,00,00,00,00,
9443977,000000AA,false,Rx,9,2,AA,04,00,00,00,00,00,00,
9447398,00000040,false,Rx,9,6,B0,01,20,92,FF,FF,00,00,
9448900,00000040,false,Rx,9,8,B0,93,E5,00,14,00,33,B3,
9450406,000002BC,false,Rx,9,3,03,00,0F,00,00,00,00,00,
9453256,00000010,false,Rx,9,7,B0,01,20,11,20,0D,00,00,
9454701,00000008,false,Rx,9,7,B0,01,20,0F,FF,07,00,00,
9464685,000000AA,false,Rx,9,2,AA,04,00,00,00,00,00,00,
9466932,00000040,false,Rx,9,3,B0,01,20,00,00,00,00,00,
9468648,000002B4,false,Rx,9,3,03,00,02,00,00,00,00,00,
9470154,00000010,false,Rx,9,7,B0,01,20,11,20,0E,00,00,
9471341,00000010,false,Rx,9,3,B0,0D,00,00,00,00,00,00,
9474811,00000008,false,Rx,9,7,B0,01,20,0F,FF,07,00,00,
9484859,000000AA,false,Rx,9,2,AA,04,00,00,00,00,00,00,
9487120,00000040,false,Rx,9,3,B0,01,20,00,00,00,00,00,
9488727,000003AC,false,Rx,9,3,03,00,1D,00,00,00,00,00,
9490231,00000010,false,Rx,9,7,B0,01,20,11,20,0D,00,00,
9494654,00000008,false,Rx,9,7,B0,01,20,0F,FF,07,00,00,
9504037,000000AA,false,Rx,9,2,AA,04,00,00,00,00,00,00,
9507131,00000040,false,Rx,9,3,B0,01,20,00,00,00,00,00,
9508843,000003A4,false,Rx,9,3,03,00,2C,00,00,00,00,00,
9510140,00000010,false,Rx,9,7,B0,01,20,11,20,0D,00,00,
9514063,00000008,false,Rx,9,7,B0,01,20,0C,BB,0F,FF,00,
9516052,00000008,false,Rx,9,7,B0,0E,00,0D,0E,07,00,00,
9524723,000000AA,false,Rx,9,2,AA,04,00,00,00,00,00,00,
9526875,00000040,false,Rx,9,3,B0,01,20,00,00,00,00,00,
9530184,00000010,false,Rx,9,7,B0,01,20,11,20,0D,00,00,
9534648,00000008,false,Rx,9,7,B0,01,20,0F,FF,07,00,00,
9544027,000000AA,false,Rx,9,2,AA,04,00,00,00,00,00,00,
9547119,00000040,false,Rx,9,3,B0,01,20,00,00,00,00,00,
9550065,0000029C,false,Rx,9,3,03,00,1A,00,00,00,00,00,
9551146,00000010,false,Rx,9,7,B0,01,20,11,20,0D,00,00,
9554781,00000008,false,Rx,9,7,B0,01,20,0F,FF,07,00,00,
9564908,000000AA,false,Rx,9,2,AA,04,00,00,00,00,00,00,
9567065,00000040,false,Rx,9,3,B0,01,20,00,00,00,00,00,
9568779,000002BC,false,Rx,9,3,03,00,0F,00,00,00,00,00,
9570179,00000010,false,Rx,9,7,B0,01,20,11,20,0D,00,00,
9574645,00000008,false,Rx,9,7,B0,01,20,0F,FF,07,00,00,
9584018,000000AA,false,Rx,9,2,AA,04,00,00,00,00,00,00,
9587113,00000040,false,Rx,9,3,B0,01,20,00,00,00,00,00,
9588828,000002B4,false,Rx,9,3,03,00,02,00,00,00,00,00,
9590230,00000010,false,Rx,9,7,B0,01,20,11,20,0D,00,00,
9594695,00000008,false,Rx,9,7,B0,01,20,0F,FF,07,00,00,
9604112,000000AA,false,Rx,9,2,AA,04,00,00,00,00,00,00,
9607006,00000040,false,Rx,9,3,B0,01,20,00,00,00,00,00,
9608722,000003AC,false,Rx,9,3,03,00,1D,00,00,00,00,00,
9610229,00000010,false,Rx,9,7,B0,01,20,11,20,0D,00,00,
9614688,00000008,false,Rx,9,7,B0,01,20,0F,FF,07,00,00,
9624007,000000AA,false,Rx,9,2,AA,04,00,00,00,00,00,00,
9627033,00000040,false,Rx,9,3,B0,01,20,00,00,00,00,00,
9628753,000003A4,false,Rx,9,3,03,00,2C,00,00,00,00,00,
9630258,00000010,false,Rx,9,7,B0,01,20,11,20,0D,00,00,
9634198,00000008,false,Rx,9,7,B0,01,20,0F,FF,07,00,00,
9644863,000000AA,false,Rx,9,2,AA,04,00,00,00,00,00,00,
9647337,00000040,false,Rx,9,6,B0,01,20,92,FF,FF,00,00,
9648842,00000040,false,Rx,9,8,B0,93,E5,00,14,00,33,B3,
9651725,00000010,false,Rx,9,7,B0,01,20,11,20,0D,00,00,
9654661,00000008,false,Rx,9,7,B0,01,20,0F,FF,07,00,00,
9664771,000000AA,false,Rx,9,2,AA,04,00,00,00,00,00,00,
9667027,00000040,false,Rx,9,3,B0,01,20,00,00,00,00,00,
9670391,00000010,false,Rx,9,7,B0,01,20,11,20,0E,00,00,
9671051,0000029C,false,Rx,9,3,03,00,1A,00,00,00,00,00,
9671811,00000010,false,Rx,9,3,B0,0D,00,00,00,00,00,00,
9674931,00000008,false,Rx,9,7,B0,01,20,0F,FF,07,00,00,
9684155,000000AA,false,Rx,9,2,AA,04,00,00,00,00,00,00,
9687199,00000040,false,Rx,9,3,B0,01,20,00,00,00,00,00,
9688941,000002BC,false,Rx,9,3,03,00,0F,00,00,00,00,00,
9690126,00000010,false,Rx,9,7,B0,01,20,11,20,0D,00,00,
9694683,00000008,false,Rx,9,7,B0,01,20,0F,FF,07,00,00,
9704065,000000AA,false,Rx,9,2,AA,04,00,00,00,00,00,00,
9707159,00000040,false,Rx,9,3,B0,01,20,00,00,00,00,00,
9708873,000002B4,false,Rx,9,3,03,00,0A,00,00,00,00,00,
9710168,00000010,false,Rx,9,7,B0,01,20,11,20,0D,00,00,
9714104,00000008,false,Rx,9,7,B0,01,20,0C,BB,0F,FF,00,
9715953,00000008,false,Rx,9,7,B0,0E,00,0D,0E,07,00,00,
9724095,000000AA,false,Rx,9,2,AA,04,00,00,00,00,00,00,
9727087,00000040,false,Rx,9,3,B0,01,20,00,00,00,00,00,
9728714,000003AC,false,Rx,9,3,03,00,1D,00,00,00,00,00,
9730240,00000010,false,Rx,9,7,B0,01,20,11,20,0D,00,00,
9734719,00000008,false,Rx,9,7,B0,01,20,0F,FF,07,00,00,
9744098,000000AA,false,Rx,9,2,AA,04,00,00,00,00,00,00,
9747212,00000040,false,Rx,9,3,B0,01,20,00,00,00,00,00,
9748828,000003A4,false,Rx,9,3,03,00,2C,00,00,00,00,00,
9750229,00000010,false,Rx,9,7,B0,01,20,11,20,0D,00,00,
9754699,00000008,false,Rx,9,7,B0,01,20,0F,FF,07,00,00,
9764202,000000AA,false,Rx,9,2,AA,04,00,00,00,00,00,00,
9767205,00000040,false,Rx,9,3,B0,01,20,00,00,00,00,00,
9770193,00000010,false,Rx,9,7,B0,01,20,11,20,0D,00,00,
9774299,00000008,false,Rx,9,7,B0,01,20,0F,FF,07,00,00,
9784159,000000AA,false,Rx,9,2,AA,04,00,00,00,00,00,00,
9787256,00000040,false,Rx,9,3,B0,01,20,00,00,00,00,00,
9790520,00000010,false,Rx,9,7,B0,01,20,11,20,0D,00,00,
9791282,0000029C,false,Rx,9,3,03,00,1A,00,00,00,00,00,
9794769,00000008,false,Rx,9,7,B0,01,20,0F,FF,07,00,00,
9804213,000000AA,false,Rx,9,2,AA,04,00,00,00,00,00,00,
9807109,00000040,false,Rx,9,3,B0,01,20,00,00,00,00,00,
9808822,000002BC,false,Rx,9,3,03,00,0F,00,00,00,00,00,
9810224,00000010,false,Rx,9,7,B0,01,20,11,20,0D,00,00,
9814687,00000008,false,Rx,9,7,B0,01,20,0F,FF,07,00,00,
9824169,000000AA,false,Rx,9,2,AA,04,00,00,00,00,00,00,
9827316,00000040,false,Rx,9,3,B0,01,20,00,00,00,00,00,
9829037,000002B4,false,Rx,9,3,03,00,0A,00,00,00,00,00,
9830224,00000010,false,Rx,9,7,B0,01,20,11,20,0D,00,00,
9834478,00000008,false,Rx,9,7,B0,01,20,0F,FF,07,00,00,
9834984,00000010,false,Rx,9,4,30,08,00,34,00,00,00,00,
9835968,00000010,false,Rx,9,4,31,08,00,33,00,00,00,00,
9837050,00000040,false,Rx,9,3,B0,34,4D,00,00,00,00,00,
9844856,000000AA,false,Rx,9,2,AA,04,00,00,00,00,00,00,
9847425,00000040,false,Rx,9,6,B0,01,20,92,FF,FF,00,00,
9849037,00000040,false,Rx,9,8,B0,93,E5,00,14,00,34,4D,
9850435,000003AC,false,Rx,9,3,03,00,1D,00,00,00,00,00,
9851726,00000010,false,Rx,9,7,B0,01,20,11,20,0D,00,00,
9854781,00000008,false,Rx,9,7,B0,01,20,0F,FF,07,00,00,
9864903,000000AA,false,Rx,9,2,AA,04,00,00,00,00,00,00,
9867154,00000040,false,Rx,9,3,B0,01,20,00,00,00,00,00,
9868867,000003A4,false,Rx,9,3,03,00,2C,00,00,00,00,00,
9870164,00000010,false,Rx,9,7,B0,01,20,11,20,0E,00,00,
9871351,00000010,false,Rx,9,3,B0,0D,00,00,00,00,00,00,
9874783,00000008,false,Rx,9,7,B0,01,20,0F,FF,07,00,00,
9884160,000000AA,false,Rx,9,2,AA,04,00,00,00,00,00,00,
9887464,00000040,false,Rx,9,3,B0,01,20,00,00,00,00,00,
9890237,00000010,false,Rx,9,7,B0,01,20,11,20,0D,00,00,
9894736,00000008,false,Rx,9,7,B0,01,20,0F,FF,07,00,00,
9904198,000000AA,false,Rx,9,2,AA,04,00,00,00,00,00,00,
9907116,00000040,false,Rx,9,3,B0,01,20,00,00,00,00,00,
9910485,00000010,false,Rx,9,7,B0,01,20,11,20,0D,00,00,
9911247,0000029C,false,Rx,9,3,03,00,1A,00,00,00,00,00,
9914678,00000008,false,Rx,9,7,B0,01,20,0C,BB,0F,FF,00,
9915977,00000008,false,Rx,9,7,B0,0E,00,0D,0E,07,00,00,
9924954,000000AA,false,Rx,9,2,AA,04,00,00,00,00,00,00,
9927108,00000040,false,Rx,9,3,B0,01,20,00,00,00,00,00,
9928820,000002BC,false,Rx,9,3,03,00,0F,00,00,00,00,00,
9930289,00000010,false,Rx,9,7,B0,01,20,11,20,0D,00,00,
9934855,00000008,false,Rx,9,7,B0,01,20,0F,FF,07,00,00,
9944218,000000AA,false,Rx,9,2,AA,04,00,00,00,00,00,00,
9947115,00000040,false,Rx,9,3,B0,01,20,00,00,00,00,00,
9948828,000002B4,false,Rx,9,3,03,00,02,00,00,00,00,00,
9950230,00000010,false,Rx,9,7,B0,01,20,11,20,0D,00,00,
9954872,00000008,false,Rx,9,7,B0,01,20,0F,FF,07,00,00,
9964239,000000AA,false,Rx,9,2,AA,04,00,00,00,00,00,00,
9967343,00000040,false,Rx,9,3,B0,01,20,00,00,00,00,00,
9968955,000003AC,false,Rx,9,3,03,00,1D,00,00,00,00,00,
9970141,00000010,false,Rx,9,7,B0,01,20,11,20,0D,00,00,
9974893,00000008,false,Rx,9,7,B0,01,20,0F,FF,07,00,00,
9985042,000000AA,false,Rx,9,2,AA,04,00,00,00,00,00,00,
9987289,00000040,false,Rx,9,3,B0,01,20,00,00,00,00,00,
9989008,000003A4,false,Rx,9,3,03,00,2C,00,00,00,00,00,
9990193,00000010,false,Rx,9,7,B0,01,20,11,20,0D,00,00,
9994869,00000008,false,Rx,9,7,B0,01,20,0F,FF,07,00,00,
10004200,000000AA,false,Rx,9,2,AA,04,00,00,00,00,00,00,
10007205,00000040,false,Rx,9,3,B0,01,20,00,00,00,00,00,
10010189,00000010,false,Rx,9,7,B0,01,20,11,20,0D,00,00,
10014990,00000008,false,Rx,9,7,B0,01,20,0F,FF,07,00,00,
10024237,000000AA,false,Rx,9,2,AA,04,00,00,00,00,00,00,
10027445,00000040,false,Rx,9,3,B0,01,20,00,00,00,00,00,
10030707,00000010,false,Rx,9,7,B0,01,20,11,20,0D,00,00,
10031472,0000029C,false,Rx,9,3,03,00,1A,00,00,00,00,00,
10035143,00000008,false,Rx,9,7,B0,01,20,0F,FF,07,00,00,
10044305,000000AA,false,Rx,9,2,AA,04,00,00,00,00,00,00,
10047521,00000040,false,Rx,9,6,B0,01,20,92,FF,FF,00,00,
10049132,00000040,false,Rx,9,8,B0,93,E5,00,14,00,34,4D,
10050531,000002BC,false,Rx,9,3,03,00,0F,00,00,00,00,00,
10051716,00000010,false,Rx,9,7,B0,01,20,11,20,0D,00,00,
10055214,00000008,false,Rx,9,7,B0,01,20,0F,FF,07,00,00,
10064197,000000AA,false,Rx,9,2,AA,04,00,00,00,00,00,00,
10067400,00000040,false,Rx,9,3,B0,01,20,00,00,00,00,00,
10069119,000002B4,false,Rx,9,3,03,00,0A,00,00,00,00,00,
10070200,00000010,false,Rx,9,7,B0,01,20,11,20,0E,00,00,
10071385,00000010,false,Rx,9,3,B0,0D,00,00,00,00,00,00,
10075296,00000008,false,Rx,9,7,B0,01,20,0F,FF,07,00,00,
10085085,000000AA,false,Rx,9,2,AA,04,00,00,00,00,00,00,
10087344,00000040,false,Rx,9,3,B0,01,20,00,00,00,00,00,
10089062,000003AC,false,Rx,9,3,03,00,1D,00,00,00,00,00,
10090248,00000010,false,Rx,9,7,B0,01,20,11,20,0D,00,00,
10095259,00000008,false,Rx,9,7,B0,01,20,0F,FF,07,00,00,
10104279,000000AA,false,Rx,9,2,AA,04,00,00,00,00,00,00,
10107385,00000040,false,Rx,9,3,B0,01,20,00,00,00,00,00,
10109103,000003A4,false,Rx,9,3,03,00,2C,00,00,00,00,00,
10110184,00000010,false,Rx,9,7,B0,01,20,11,20,0D,00,00,
10115372,00000008,false,Rx,9,7,B0,01,20,0C,BB,0F,FF,00,
10115963,00000008,false,Rx,9,7,B0,0E,00,0D,0E,07,00,00,
10125123,000000AA,false,Rx,9,2,AA,04,00,00,00,00,00,00,
10127277,00000040,false,Rx,9,3,B0,01,20,00,00,00,00,00,
10130265,00000010,false,Rx,9,7,B0,01,20,11,20,0D,00,00,
10135574,00000008,false,Rx,9,7,B0,01,20,0F,FF,07,00,00,
10144250,000000AA,false,Rx,9,2,AA,04,00,00,00,00,00,00,
10147344,00000040,false,Rx,9,3,B0,01,20,00,00,00,00,00,
10150610,00000010,false,Rx,9,7,B0,01,20,11,20,0D,00,00,
10151372,0000029C,false,Rx,9,3,03,00,1A,00,00,00,00,00,
10155458,00000008,false,Rx,9,7,B0,01,20,0F,FF,07,00,00,
10165059,000000AA,false,Rx,9,2,AA,04,00,00,00,00,00,00,
10167216,00000040,false,Rx,9,3,B0,01,20,00,00,00,00,00,
10168932,000002BC,false,Rx,9,3,03,00,0F,00,00,00,00,00,
10170326,00000010,false,Rx,9,7,B0,01,20,11,20,0D,00,00,
10175614,00000008,false,Rx,9,7,B0,01,20,0F,FF,07,00,00,
10184276,000000AA,false,Rx,9,2,AA,04,00,00,00,00,00,00,
10187264,00000040,false,Rx,9,3,B0,01,20,00,00,00,00,00,
10189120,000002B4,false,Rx,9,3,03,00,0A,00,00,00,00,00,
10190326,00000010,false,Rx,9,7,B0,01,20,11,20,0D,00,00,
10195598,00000008,false,Rx,9,7,B0,01,20,0F,FF,07,00,00,
10204363,000000AA,false,Rx,9,2,AA,04,00,00,00,00,00,00,
10207353,00000040,false,Rx,9,3,B0,01,20,00,00,00,00,00,
10209074,000003AC,false,Rx,9,3,03,00,1D,00,00,00,00,00,
10210259,00000010,false,Rx,9,7,B0,01,20,11,20,0D,00,00,
10215607,00000008,false,Rx,9,7,B0,01,20,0F,FF,07,00,00,
10224302,000000AA,false,Rx,9,2,AA,04,00,00,00,00,00,00,
10227308,00000040,false,Rx,9,3,B0,01,20,00,00,00,00,00,
10229028,000003A4,false,Rx,9,3,03,00,2C,00,00,00,00,00,
10230214,00000010,false,Rx,9,7,B0,01,20,11,20,0D,00,00,
10235728,00000008,false,Rx,9,7,B0,01,20,0F,FF,07,00,00,
10235747,00000010,false,Rx,9,4,30,08,00,35,00,00,00,00,
10236023,00000010,false,Rx,9,4,31,08,00,34,00,00,00,00,
10236687,00000040,false,Rx,9,3,B0,35,BF,00,00,00,00,00,
10245031,000000AA,false,Rx,9,2,AA,04,00,00,00,00,00,00,
10247597,00000040,false,Rx,9,6,B0,01,20,92,FF,FF,00,00,
10249211,00000040,false,Rx,9,8,B0,93,E5,00,14,00,35,BF,
10250820,00000010,false,Rx,9,7,B0,01,20,11,20,0D,00,00,
10255782,00000008,false,Rx,9,7,B0,01,20,0F,FF,07,00,00,
10264371,000000AA,false,Rx,9,2,AA,04,00,00,00,00,00,00,
10267485,00000040,false,Rx,9,3,B0,01,20,00,00,00,00,00,
10270303,00000010,false,Rx,9,7,B0,01,20,11,20,0E,00,00,
10271069,0000029C,false,Rx,9,3,03,00,1A,00,00,00,00,00,
10271725,00000010,false,Rx,9,3,B0,0D,00,00,00,00,00,00,
10275865,00000008,false,Rx,9,7,B0,01,20,0F,FF,07,00,00,
10285187,000000AA,false,Rx,9,2,AA,04,00,00,00,00,00,00,
10287440,00000040,false,Rx,9,3,B0,01,20,00,00,00,00,00,
10289157,000002BC,false,Rx,9,3,03,00,0F,00,00,00,00,00,
10290238,00000010,false,Rx,9,7,B0,01,20,11,20,0D,00,00,
10294179,00000008,false,Rx,9,7,B0,01,20,0F,FF,07,00,00,
10305064,000000AA,false,Rx,9,2,AA,04,00,00,00,00,00,00,
10307331,00000040,false,Rx,9,3,B0,01,20,00,00,00,00,00,
10309048,000002B4,false,Rx,9,3,03,00,02,00,00,00,00,00,
10310231,00000010,false,Rx,9,7,B0,01,20,11,20,0D,00,00,
10314066,00000008,false,Rx,9,7,B0,01,20,0C,BB,0F,FF,00,
10316011,00000008,false,Rx,9,7,B0,0E,00,0D,0E,07,00,00,
10324408,000000AA,false,Rx,9,2,AA,04,00,00,00,00,00,00,
10327293,00000040,false,Rx,9,3,B0,01,20,00,00,00,00,00,
10329013,000003AC,false,Rx,9,3,03,00,1D,00,00,00,00,00,
10330305,00000010,false,Rx,9,7,B0,01,20,11,20,0D,00,00,
10334143,00000008,false,Rx,9,7,B0,01,20,0F,FF,07,00,00,
10344006,00001000,true,Rx,9,8,00,00,00,54,00,00,1C,93,
10345373,00001001,true,Rx,9,8,00,00,00,00,00,00,00,00,
10346711,00001002,true,Rx,9,8,00,00,00,00,00,00,00,00,
10348344,000000AA,false,Rx,9,2,AA,04,00,00,00,00,00,00,
10348364,00000040,false,Rx,9,3,B0,01,20,00,00,00,00,00,
10349088,000003A4,false,Rx,9,3,03,00,2C,00,00,00,00,00,
10350278,00000010,false,Rx,9,7,B0,01,20,11,20,0D,00,00,
10354145,00000008,false,Rx,9,7,B0,01,20,0F,FF,07,00,00,
10364418,000000AA,false,Rx,9,2,AA,04,00,00,00,00,00,00,
10367427,00000040,false,Rx,9,3,B0,01,20,00,00,00,00,00,
10370203,00000010,false,Rx,9,7,B0,01,20,11,20,0D,00,00,
10374150,00000008,false,Rx,9,7,B0,01,20,0F,FF,07,00,00,
10384442,000000AA,false,Rx,9,2,AA,04,00,00,00,00,00,00,
10387358,00000040,false,Rx,9,3,B0,01,20,00,00,00,00,00,
10390727,00000010,false,Rx,9,7,B0,01,20,11,20,0D,00,00,
10391385,0000029C,false,Rx,9,3,03,00,1A,00,00,00,00,00,
10396235,00000008,false,Rx,9,7,B0,01,20,0F,FF,07,00,00,
10405153,000000AA,false,Rx,9,2,AA,04,00,00,00,00,00,00,
10407297,00000040,false,Rx,9,3,B0,01,20,00,00,00,00,00,
10409022,000002BC,false,Rx,9,3,03,00,0F,00,00,00,00,00,
10410208,00000010,false,Rx,9,7,B0,01,20,11,20,0D,00,00,
10414680,00000008,false,Rx,9,7,B0,01,20,0F,FF,07,00,00,
10424436,000000AA,false,Rx,9,2,AA,04,00,00,00,00,00,00,
10427564,00000040,false,Rx,9,3,B0,01,20,00,00,00,00,00,
10429175,000002B4,false,Rx,9,3,03,00,02,00,00,00,00,00,
10430253,00000010,false,Rx,9,7,B0,01,20,11,20,0D,00,00,
10434623,00000008,false,Rx,9,7,B0,01,20,0F,FF,07,00,00,
10444507,000000AA,false,Rx,9,2,AA,04,00,00,00,00,00,00,
10447871,00000040,false,Rx,9,6,B0,01,20,92,FF,FF,00,00,
10449394,00000040,false,Rx,9,8,B0,93,E5,00,14,00,35,BF,
10450793,00000010,false,Rx,9,7,B0,01,20,11,20,0D,00,00,
10451557,000003AC,false,Rx,9,3,03,00,1D,00,00,00,00,00,
10454648,00000008,false,Rx,9,7,B0,01,20,0F,FF,07,00,00,
10464404,000000AA,false,Rx,9,2,AA,04,00,00,00,00,00,00,
10467528,00000040,false,Rx,9,3,B0,01,20,00,00,00,00,00,
10469245,000003A4,false,Rx,9,3,03,00,2C,00,00,00,00,00,
10470220,00000010,false,Rx,9,7,B0,01,20,11,20,0E,00,00,
10471406,00000010,false,Rx,9,3,B0,0D,00,00,00,00,00,00,
10474817,00000008,false,Rx,9,7,B0,01,20,0F,FF,07,00,00,
10484465,000000AA,false,Rx,9,2,AA,04,00,00,00,00,00,00,
10487378,00000040,false,Rx,9,3,B0,01,20,00,00,00,00,00,
10490262,00000010,false,Rx,9,7,B0,01,20,11,20,0D,00,00,
10494626,00000008,false,Rx,9,7,B0,01,20,0F,FF,07,00,00,
10505144,000000AA,false,Rx,9,2,AA,04,00,00,00,00,00,00,
10507415,00000040,false,Rx,9,3,B0,01,20,00,00,00,00,00,
10510779,00000010,false,Rx,9,7,B0,01,20,11,20,0D,00,00,
10511436,0000029C,false,Rx,9,3,03,00,1A,00,00,00,00,00,
10514656,00000008,false,Rx,9,7,B0,01,20,0C,BB,0F,FF,00,
10516491,00000008,false,Rx,9,7,B0,0E,00,0D,0E,07,00,00,
10525196,000000AA,false,Rx,9,2,AA,04,00,00,00,00,00,00,
10527345,00000040,false,Rx,9,3,B0,01,20,00,00,00,00,00,
10529065,000002BC,false,Rx,9,3,03,00,0F,00,00,00,00,00,
10530251,00000010,false,Rx,9,7,B0,01,20,11,20,0D,00,00,
10534193,00000008,false,Rx,9,7,B0,01,20,0F,FF,07,00,00,
10544449,000000AA,false,Rx,9,2,AA,04,00,00,00,00,00,00,
10547353,00000040,false,Rx,9,3,B0,01,20,00,00,00,00,00,
10549104,000002B4,false,Rx,9,3,03,00,0A,00,00,00,00,00,
10550297,00000010,false,Rx,9,7,B0,01,20,11,20,0D,00,00,
10554659,00000008,false,Rx,9,7,B0,01,20,0F,FF,07,00,00,
10564526,000000AA,false,Rx,9,2,AA,04,00,00,00,00,00,00,
10567427,00000040,false,Rx,9,3,B0,01,20,00,00,00,00,00,
10569143,000003AC,false,Rx,9,3,03,00,1D,00,00,00,00,00,
10570329,00000010,false,Rx,9,7,B0,01,20,11,20,0D,00,00,
10574695,00000008,false,Rx,9,7,B0,01,20,0F,FF,07,00,00,
10584477,000000AA,false,Rx,9,2,AA,04,00,00,00,00,00,00,
10587483,00000040,false,Rx,9,3,B0,01,20,00,00,00,00,00,
10589199,000003A4,false,Rx,9,3,03,00,2C,00,00,00,00,00,
10590280,00000010,false,Rx,9,7,B0,01,20,11,20,0D,00,00,
10594648,00000008,false,Rx,9,7,B0,01,20,0F,FF,07,00,00,
10605223,000000AA,false,Rx,9,2,AA,04,00,00,00,00,00,00,
10607398,00000040,false,Rx,9,3,B0,01,20,00,00,00,00,00,
10610279,00000010,false,Rx,9,7,B0,01,20,11,20,0D,00,00,
10614644,00000008,false,Rx,9,7,B0,01,20,0F,FF,07,00,00,
10625232,000000AA,false,Rx,9,2,AA,04,00,00,00,00,00,00,
10627499,00000040,false,Rx,9,3,B0,01,20,00,00,00,00,00,
10630761,00000010,false,Rx,9,7,B0,01,20,11,20,0D,00,00,
10631526,0000029C,false,Rx,9,3,03,00,1A,00,00,00,00,00,
10634744,00000008,false,Rx,9,7,B0,01,20,0F,FF,07,00,00,
10636966,00000010,false,Rx,9,4,31,08,00,35,00,00,00,00,
10644557,000000AA,false,Rx,9,2,AA,04,00,00,00,00,00,00,
10647906,00000040,false,Rx,9,6,B0,01,20,92,FF,FF,00,00,
10649212,00000040,false,Rx,9,6,B0,93,E5,00,14,00,00,00,
10650634,000002BC,false,Rx,9,3,03,00,0F,00,00,00,00,00,
10651722,00000010,false,Rx,9,7,B0,01,20,11,20,0D,00,00,
10654712,00000008,false,Rx,9,7,B0,01,20,0F,FF,07,00,00,
10664535,000000AA,false,Rx,9,2,AA,04,00,00,00,00,00,00,
10667656,00000040,false,Rx,9,3,B0,01,20,00,00,00,00,00,
10669268,000002B4,false,Rx,9,3,03,00,02,00,00,00,00,00,
10670348,00000010,false,Rx,9,7,B0,01,20,11,20,0E,00,00,
10671536,00000010,false,Rx,9,3,B0,0D,00,00,00,00,00,00,
10674839,00000008,false,Rx,9,7,B0,01,20,0F,FF,07,00,00,
10685410,000000AA,false,Rx,9,2,AA,04,00,00,00,00,00,00,
10687492,00000040,false,Rx,9,3,B0,01,20,00,00,00,00,00,
10689119,000003AC,false,Rx,9,3,03,00,1D,00,00,00,00,00,
10690305,00000010,false,Rx,9,7,B0,01,20,11,20,0D,00,00,
10694672,00000008,false,Rx,9,7,B0,01,20,0F,FF,07,00,00,
10704599,000000AA,false,Rx,9,2,AA,04,00,00,00,00,00,00,
10707518,00000040,false,Rx,9,3,B0,01,20,00,00,00,00,00,
10709130,000003A4,false,Rx,9,3,03,00,2C,00,00,00,00,00,
10710316,00000010,false,Rx,9,7,B0,01,20,11,20,0D,00,00,
10714048,00000008,false,Rx,9,7,B0,01,20,0C,BB,0F,FF,00,
10717124,00000008,false,Rx,9,7,B0,0E,00,0D,0E,07,00,00,
10724589,000000AA,false,Rx,9,2,AA,04,00,00,00,00,00,00,
10727590,00000040,false,Rx,9,3,B0,01,20,00,00,00,00,00,
10730364,00000010,false,Rx,9,7,B0,01,20,11,20,0D,00,00,
10734626,00000008,false,Rx,9,7,B0,01,20,0F,FF,07,00,00,
10745314,000000AA,false,Rx,9,2,AA,04,00,00,00,00,00,00,
10747406,00000040,false,Rx,9,3,B0,01,20,00,00,00,00,00,
10750733,00000010,false,Rx,9,7,B0,01,20,11,20,0D,00,00,
10751391,0000029C,false,Rx,9,3,03,00,1A,00,00,00,00,00,
10754749,00000008,false,Rx,9,7,B0,01,20,0F,FF,07,00,00,
10764558,000000AA,false,Rx,9,2,AA,04,00,00,00,00,00,00,
10767464,00000040,false,Rx,9,3,B0,01,20,00,00,00,00,00,
10769180,000002BC,false,Rx,9,3,03,00,0F,00,00,00,00,00,
10770364,00000010,false,Rx,9,7,B0,01,20,11,20,0D,00,00,
10774202,00000008,false,Rx,9,7,B0,01,20,0F,FF,07,00,00,
10784572,000000AA,false,Rx,9,2,AA,04,00,00,00,00,00,00,
10787489,00000040,false,Rx,9,3,B0,01,20,00,00,00,00,00,
10789204,000002B4,false,Rx,9,3,03,00,02,00,00,00,00,00,
10790285,00000010,false,Rx,9,7,B0,01,20,11,20,0D,00,00,
10794225,00000008,false,Rx,9,7,B0,01,20,0F,FF,07,00,00,
10805348,000000AA,false,Rx,9,2,AA,04,00,00,00,00,00,00,
10807409,00000040,false,Rx,9,3,B0,01,20,00,00,00,00,00,
10809126,000003AC,false,Rx,9,3,03,00,1D,00,00,00,00,00,
10810309,00000010,false,Rx,9,7,B0,01,20,11,20,0D,00,00,
10814247,00000008,false,Rx,9,7,B0,01,20,0F,FF,07,00,00,
10824557,000000AA,false,Rx,9,2,AA,04,00,00,00,00,00,00,
10827461,00000040,false,Rx,9,3,B0,01,20,00,00,00,00,00,
10829283,000003A4,false,Rx,9,3,03,00,2C,00,00,00,00,00,
10830364,00000010,false,Rx,9,7,B0,01,20,11,20,0D,00,00,
10834203,00000008,false,Rx,9,7,B0,01,20,0F,FF,07,00,00,
10845302,000000AA,false,Rx,9,2,AA,04,00,00,00,00,00,00,
10847779,00000040,false,Rx,9,6,B0,01,20,92,FF,FF,00,00,
10849074,00000040,false,Rx,9,6,B0,93,E5,00,14,00,00,00,
10851380,00000010,false,Rx,9,7,B0,01,20,11,20,0D,00,00,
10854698,00000008,false,Rx,9,7,B0,01,20,0F,FF,07,00,00,
10864584,000000AA,false,Rx,9,2,AA,04,00,00,00,00,00,00,
10867496,00000040,false,Rx,9,3,B0,01,20,00,00,00,00,00,
10870421,00000010,false,Rx,9,7,B0,01,20,11,20,0E,00,00,
10871187,0000029C,false,Rx,9,3,03,00,1A,00,00,00,00,00,
10871841,00000010,false,Rx,9,3,B0,0D,00,00,00,00,00,00,
10874978,00000008,false,Rx,9,7,B0,01,20,0F,FF,07,00,00,
10884610,000000AA,false,Rx,9,2,AA,04,00,00,00,00,00,00,
10887512,00000040,false,Rx,9,3,B0,01,20,00,00,00,00,00,
10889230,000002BC,false,Rx,9,3,03,00,0F,00,00,00,00,00,
10890310,00000010,false,Rx,9,7,B0,01,20,11,20,0D,00,00,
10894674,00000008,false,Rx,9,7,B0,01,20,0F,FF,07,00,00,
10905383,000000AA,false,Rx,9,2,AA,04,00,00,00,00,00,00,
10907501,00000040,false,Rx,9,3,B0,01,20,00,00,00,00,00,
10909218,000002B4,false,Rx,9,3,03,00,0A,00,00,00,00,00,
10910298,00000010,false,Rx,9,7,B0,01,20,11,20,0D,00,00,
10914027,00000008,false,Rx,9,7,B0,01,20,0C,BB,0F,FF,00,
10915957,00000008,false,Rx,9,7,B0,0E,00,0D,0E,07,00,00,
10924651,000000AA,false,Rx,9,2,AA,04,00,00,00,00,00,00,
10927447,00000040,false,Rx,9,3,B0,01,20,00,00,00,00,00,
10929164,000003AC,false,Rx,9,3,03,00,1D,00,00,00,00,00,
10930351,00000010,false,Rx,9,7,B0,01,20,11,20,0D,00,00,
10934617,00000008,false,Rx,9,7,B0,01,20,0F,FF,07,00,00,
10944664,000000AA,false,Rx,9,2,AA,04,00,00,00,00,00,00,
10947451,00000040,false,Rx,9,3,B0,01,20,00,00,00,00,00,
10949273,000003A4,false,Rx,9,3,03,00,2C,00,00,00,00,00,
10950352,00000010,false,Rx,9,7,B0,01,20,11,20,0D,00,00,
10954242,00000008,false,Rx,9,7,B0,01,20,0F,FF,07,00,00,
10964715,000000AA,false,Rx,9,2,AA,04,00,00,00,00,00,00,
10967512,00000040,false,Rx,9,3,B0,01,20,00,00,00,00,00,
10970394,00000010,false,Rx,9,7,B0,01,20,11,20,0D,00,00,
10974656,00000008,false,Rx,9,7,B0,01,20,0F,FF,07,00,00,
10984707,000000AA,false,Rx,9,2,AA,04,00,00,00,00,00,00,
10987626,00000040,false,Rx,9,3,B0,01,20,00,00,00,00,00,
10990550,00000010,false,Rx,9,7,B0,01,20,11,20,0D,00,00,
10991313,0000029C,false,Rx,9,3,03,00,1A,00,00,00,00,00,
10994869,00000008,false,Rx,9,7,B0,01,20,0F,FF,07,00,00,
11004710,000000AA,false,Rx,9,2,AA,04,00,00,00,00,00,00,
11007828,00000040,false,Rx,9,3,B0,01,20,00,00,00,00,00,
11009548,000002BC,false,Rx,9,3,03,00,0F,00,00,00,00,00,
11010523,00000010,false,Rx,9,7,B0,01,20,11,20,0D,00,00,
11014252,00000008,false,Rx,9,7,B0,01,20,0F,FF,07,00,00,
11024732,000000AA,false,Rx,9,2,AA,04,00,00,00,00,00,00,
11027648,00000040,false,Rx,9,3,B0,01,20,00,00,00,00,00,
11029364,000002B4,false,Rx,9,3,03,00,0A,00,00,00,00,00,
11030341,00000010,false,Rx,9,7,B0,01,20,11,20,0D,00,00,
11034707,00000008,false,Rx,9,7,B0,01,20,0F,FF,07,00,00,
11044696,000000AA,false,Rx,9,2,AA,04,00,00,00,00,00,00,
11047917,00000040,false,Rx,9,6,B0,01,20,92,FF,FF,00,00,
11049213,00000040,false,Rx,9,6,B0,93,E5,00,14,00,00,00,
11050609,000003AC,false,Rx,9,3,03,00,1D,00,00,00,00,00,
11051690,00000010,false,Rx,9,7,B0,01,20,11,20,0D,00,00,
11054782,00000008,false,Rx,9,7,B0,01,20,0F,FF,07,00,00,
11064754,000000AA,false,Rx,9,2,AA,04,00,00,00,00,00,00,
11067763,00000040,false,Rx,9,3,B0,01,20,00,00,00,00,00,
11069483,000003A4,false,Rx,9,3,03,00,2C,00,00,00,00,00,
11070458,00000010,false,Rx,9,7,B0,01,20,11,20,0E,00,00,
11071643,00000010,false,Rx,9,3,B0,0D,00,00,00,00,00,00,
11074841,00000008,false,Rx,9,7,B0,01,20,0F,FF,07,00,00,
11085520,000000AA,false,Rx,9,2,AA,04,00,00,00,00,00,00,
11087685,00000040,false,Rx,9,3,B0,01,20,00,00,00,00,00,
11090353,00000010,false,Rx,9,7,B0,01,20,11,20,0D,00,00,
11094722,00000008,false,Rx,9,7,B0,01,20,0F,FF,07,00,00,
11104718,000000AA,false,Rx,9,2,AA,04,00,00,00,00,00,00,
11107633,00000040,false,Rx,9,3,B0,01,20,00,00,00,00,00,
11110557,00000010,false,Rx,9,7,B0,01,20,11,20,0D,00,00,
11111215,0000029C,false,Rx,9,3,03,00,1A,00,00,00,00,00,
11114667,00000008,false,Rx,9,7,B0,01,20,0C,BB,0F,FF,00,
11116069,00000008,false,Rx,9,7,B0,0E,00,0D,0E,07,00,00,
11124699,000000AA,false,Rx,9,2,AA,04,00,00,00,00,00,00,
11127607,00000040,false,Rx,9,3,B0,01,20,00,00,00,00,00,
11129323,000002BC,false,Rx,9,3,03,00,0F,00,00,00,00,00,
11130404,00000010,false,Rx,9,7,B0,01,20,11,20,0D,00,00,
11134666,00000008,false,Rx,9,7,B0,01,20,0F,FF,07,00,00,
11145479,000000AA,false,Rx,9,2,AA,04,00,00,00,00,00,00,
11147543,00000040,false,Rx,9,3,B0,01,20,00,00,00,00,00,
11149259,000002B4,false,Rx,9,3,03,00,02,00,00,00,00,00,
11150340,00000010,false,Rx,9,7,B0,01,20,11,20,0D,00,00,
11154180,00000008,false,Rx,9,7,B0,01,20,0F,FF,07,00,00,
11164770,000000AA,false,Rx,9,2,AA,04,00,00,00,00,00,00,
11167669,00000040,false,Rx,9,3,B0,01,20,00,00,00,00,00,
11169280,000003AC,false,Rx,9,3,03,00,1D,00,00,00,00,00,
11170359,00000010,false,Rx,9,7,B0,01,20,11,20,0D,00,00,
11174726,00000008,false,Rx,9,7,B0,01,20,0F,FF,07,00,00,
11184805,000000AA,false,Rx,9,2,AA,04,00,00,00,00,00,00,
11187819,00000040,false,Rx,9,3,B0,01,20,00,00,00,00,00,
11189451,000003A4,false,Rx,9,3,03,00,2C,00,00,00,00,00,
11190532,00000010,false,Rx,9,7,B0,01,20,11,20,0D,00,00,
11194262,00000008,false,Rx,9,7,B0,01,20,0F,FF,07,00,00,
11204756,000000AA,false,Rx,9,2,AA,04,00,00,00,00,00,00,
11207669,00000040,false,Rx,9,3,B0,01,20,00,00,00,00,00,
11210336,00000010,false,Rx,9,7,B0,01,20,11,20,0D,00,00,
11214701,00000008,false,Rx,9,7,B0,01,20,0F,FF,07,00,00,
11224817,000000AA,false,Rx,9,2,AA,04,00,00,00,00,00,00,
11227836,00000040,false,Rx,9,3,B0,01,20,00,00,00,00,00,
11230656,00000010,false,Rx,9,7,B0,01,20,11,20,0D,00,00,
11231419,0000029C,false,Rx,9,3,03,00,1A,00,00,00,00,00,
11234869,00000008,false,Rx,9,7,B0,01,20,0F,FF,07,00,00,
11244837,000000AA,false,Rx,9,2,AA,04,00,00,00,00,00,00,
11247995,00000040,false,Rx,9,6,B0,01,20,92,FF,FF,00,00,
11249292,00000040,false,Rx,9,6,B0,93,E5,00,14,00,00,00,
11250899,00000010,false,Rx,9,7,B0,01,20,11,20,0D,00,00,
11251664,000002BC,false,Rx,9,3,03,00,0F,00,00,00,00,00,
11254758,00000008,false,Rx,9,7,B0,01,20,0F,FF,07,00,00,
11264888,000000AA,false,Rx,9,2,AA,04,00,00,00,00,00,00,
11267837,00000040,false,Rx,9,3,B0,01,20,00,00,00,00,00,
11269584,000002B4,false,Rx,9,3,03,00,0A,00,00,00,00,00,
11270559,00000010,false,Rx,9,7,B0,01,20,11,20,0E,00,00,
11271641,00000010,false,Rx,9,3,B0,0D,00,00,00,00,00,00,
11274839,00000008,false,Rx,9,7,B0,01,20,0F,FF,07,00,00,
11285523,000000AA,false,Rx,9,2,AA,04,00,00,00,00,00,00,
11287695,00000040,false,Rx,9,3,B0,01,20,00,00,00,00,00,
11289411,000003AC,false,Rx,9,3,03,00,1D,00,00,00,00,00,
11290491,00000010,false,Rx,9,7,B0,01,20,11,20,0D,00,00,
11294644,00000008,false,Rx,9,7,B0,01,20,0F,FF,07,00,00,
11304837,000000AA,false,Rx,9,2,AA,04,00,00,00,00,00,00,
11307849,00000040,false,Rx,9,3,B0,01,20,00,00,00,00,00,
11309569,000003A4,false,Rx,9,3,03,00,2C,00,00,00,00,00,
11310543,00000010,false,Rx,9,7,B0,01,20,11,20,0D,00,00,
11314062,00000008,false,Rx,9,7,B0,01,20,0C,BB,0F,FF,00,
11315992,00000008,false,Rx,9,7,B0,0E,00,0D,0E,07,00,00,
11325621,000000AA,false,Rx,9,2,AA,04,00,00,00,00,00,00,
11327792,00000040,false,Rx,9,3,B0,01,20,00,00,00,00,00,
11330464,00000010,false,Rx,9,7,B0,01,20,11,20,0D,00,00,
11334722,00000008,false,Rx,9,7,B0,01,20,0F,FF,07,00,00,
11344012,00001000,true,Rx,9,8,00,00,00,55,00,00,1D,B4,
11345400,00001001,true,Rx,9,8,00,00,00,00,00,00,00,00,
11346752,00001002,true,Rx,9,8,00,00,00,00,00,00,00,00,
11348394,000000AA,false,Rx,9,2,AA,04,00,00,00,00,00,00,
11348413,00000040,false,Rx,9,3,B0,01,20,00,00,00,00,00,
11350739,00000010,false,Rx,9,7,B0,01,20,11,20,0D,00,00,
11351270,0000029C,false,Rx,9,3,03,00,1A,00,00,00,00,00,
11354859,00000008,false,Rx,9,7,B0,01,20,0F,FF,07,00,00,
11364887,000000AA,false,Rx,9,2,AA,04,00,00,00,00,00,00,
11367786,00000040,false,Rx,9,3,B0,01,20,00,00,00,00,00,
11369458,000002BC,false,Rx,9,3,03,00,0F,00,00,00,00,00,
11370538,00000010,false,Rx,9,7,B0,01,20,11,20,0D,00,00,
11374269,00000008,false,Rx,9,7,B0,01,20,0F,FF,07,00,00,
11385614,000000AA,false,Rx,9,2,AA,04,00,00,00,00,00,00,
11387682,00000040,false,Rx,9,3,B0,01,20,00,00,00,00,00,
11389397,000002B4,false,Rx,9,3,03,00,0A,00,00,00,00,00,
11390480,00000010,false,Rx,9,7,B0,01,20,11,20,0D,00,00,
11394211,00000008,false,Rx,9,7,B0,01,20,0F,FF,07,00,00,
11404920,000000AA,false,Rx,9,2,AA,04,00,00,00,00,00,00,
11407889,00000040,false,Rx,9,3,B0,01,20,00,00,00,00,00,
11409504,000003AC,false,Rx,9,3,03,00,1D,00,00,00,00,00,
11410584,00000010,false,Rx,9,7,B0,01,20,11,20,0D,00,00,
11414736,00000008,false,Rx,9,7,B0,01,20,0F,FF,07,00,00,
11424829,000000AA,false,Rx,9,2,AA,04,00,00,00,00,00,00,
11427957,00000040,false,Rx,9,3,B0,01,20,00,00,00,00,00,
11429567,000003A4,false,Rx,9,3,03,00,2C,00,00,00,00,00,
11430648,00000010,false,Rx,9,7,B0,01,20,11,20,0D,00,00,
11434695,00000008,false,Rx,9,7,B0,01,20,0F,FF,07,00,00,
11444951,000000AA,false,Rx,9,2,AA,04,00,00,00,00,00,00,
11448083,00000040,false,Rx,9,6,B0,01,20,92,FF,FF,00,00,
11449374,00000040,false,Rx,9,6,B0,93,E5,00,14,00,00,00,
11450989,00000010,false,Rx,9,7,B0,01,20,11,20,0D,00,00,
11454187,00000008,false,Rx,9,7,B0,01,20,0F,FF,07,00,00,
11465714,000000AA,false,Rx,9,2,AA,04,00,00,00,00,00,00,
11467891,00000040,false,Rx,9,3,B0,01,20,00,00,00,00,00,
11470748,00000010,false,Rx,9,7,B0,01,20,11,20,0E,00,00,
11471512,0000029C,false,Rx,9,3,03,00,1A,00,00,00,00,00,
11472169,00000010,false,Rx,9,3,B0,0D,00,00,00,00,00,00,
11474992,00000008,false,Rx,9,7,B0,01,20,0F,FF,07,00,00,
11484864,000000AA,false,Rx,9,2,AA,04,00,00,00,00,00,00,
11487882,00000040,false,Rx,9,3,B0,01,20,00,00,00,00,00,
11489601,000002BC,false,Rx,9,3,03,00,0F,00,00,00,00,00,
11490683,00000010,false,Rx,9,7,B0,01,20,11,20,0D,00,00,
11494731,00000008,false,Rx,9,7,B0,01,20,0F,FF,07,00,00,
11504964,000000AA,false,Rx,9,2,AA,04,00,00,00,00,00,00,
11507974,00000040,false,Rx,9,3,B0,01,20,00,00,00,00,00,
11509582,000002B4,false,Rx,9,3,03,00,02,00,00,00,00,00,
11510662,00000010,false,Rx,9,7,B0,01,20,11,20,0D,00,00,
11514074,00000008,false,Rx,9,7,B0,01,20,0C,BB,0F,FF,00,
11516004,00000008,false,Rx,9,7,B0,0E,00,0D,0E,07,00,00,
11524903,000000AA,false,Rx,9,2,AA,04,00,00,00,00,00,00,
11527817,00000040,false,Rx,9,3,B0,01,20,00,00,00,00,00,
11529535,000003AC,false,Rx,9,3,03,00,1D,00,00,00,00,00,
11530617,00000010,false,Rx,9,7,B0,01,20,11,20,0D,00,00,
11534666,00000008,false,Rx,9,7,B0,01,20,0F,FF,07,00,00,
11545660,000000AA,false,Rx,9,2,AA,04,00,00,00,00,00,00,
11547717,00000040,false,Rx,9,3,B0,01,20,00,00,00,00,00,
11549435,000003A4,false,Rx,9,3,03,00,2C,00,00,00,00,00,
11550515,00000010,false,Rx,9,7,B0,01,20,11,20,0D,00,00,
11554671,00000008,false,Rx,9,7,B0,01,20,0F,FF,07,00,00,
11564943,000000AA,false,Rx,9,2,AA,04,00,00,00,00,00,00,
11567850,00000040,false,Rx,9,3,B0,01,20,00,00,00,00,00,
11570462,00000010,false,Rx,9,7,B0,01,20,11,20,0D,00,00,
11574227,00000008,false,Rx,9,7,B0,01,20,0F,FF,07,00,00,
11585613,000000AA,false,Rx,9,2,AA,04,00,00,00,00,00,00,
11587785,00000040,false,Rx,9,3,B0,01,20,00,00,00,00,00,
11590711,00000010,false,Rx,9,7,B0,01,20,11,20,0D,00,00,
11591369,0000029C,false,Rx,9,3,03,00,1A,00,00,00,00,00,
11594821,00000008,false,Rx,9,7,B0,01,20,0F,FF,07,00,00,
11604998,000000AA,false,Rx,9,2,AA,04,00,00,00,00,00,00,
11607800,00000040,false,Rx,9,3,B0,01,20,00,00,00,00,00,
11609517,000002BC,false,Rx,9,3,03,00,0F,00,00,00,00,00,
11610596,00000010,false,Rx,9,7,B0,01,20,11,20,0D,00,00,
11614746,00000008,false,Rx,9,7,B0,01,20,0F,FF,07,00,00,
11624952,000000AA,false,Rx,9,2,AA,04,00,00,00,00,00,00,
11628079,00000040,false,Rx,9,3,B0,01,20,00,00,00,00,00,
11629792,000002B4,false,Rx,9,3,03,00,02,00,00,00,00,00,
11630767,00000010,false,Rx,9,7,B0,01,20,11,20,0D,00,00,
11634706,00000008,false,Rx,9,7,B0,01,20,0F,FF,07,00,00,
11645739,000000AA,false,Rx,9,2,AA,04,00,00,00,00,00,00,
11648124,00000040,false,Rx,9,6,B0,01,20,92,FF,FF,00,00,
11649523,00000040,false,Rx,9,6,B0,93,E5,00,14,00,00,00,
11651031,00000010,false,Rx,9,7,B0,01,20,11,20,0D,00,00,
11651685,000003AC,false,Rx,9,3,03,00,1D,00,00,00,00,00,
11654777,00000008,false,Rx,9,7,B0,01,20,0F,FF,07,00,00,
11665049,000000AA,false,Rx,9,2,AA,04,00,00,00,00,00,00,
11667854,00000040,false,Rx,9,3,B0,01,20,00,00,00,00,00,
11669574,000003A4,false,Rx,9,3,03,00,2C,00,00,00,00,00,
11670610,00000010,false,Rx,9,7,B0,01,20,11,20,0E,00,00,
11671698,00000010,false,Rx,9,3,B0,0D,00,00,00,00,00,00,
11674824,00000008,false,Rx,9,7,B0,01,20,0F,FF,07,00,00,
11684999,000000AA,false,Rx,9,2,AA,04,00,00,00,00,00,00,
11687909,00000040,false,Rx,9,3,B0,01,20,00,00,00,00,00,
11690557,00000010,false,Rx,9,7,B0,01,20,11,20,0D,00,00,
11694728,00000008,false,Rx,9,7,B0,01,20,0F,FF,07,00,00,
11704971,000000AA,false,Rx,9,2,AA,04,00,00,00,00,00,00,
11707872,00000040,false,Rx,9,3,B0,01,20,00,00,00,00,00,
11710798,00000010,false,Rx,9,7,B0,01,20,11,20,0D,00,00,
11711458,0000029C,false,Rx,9,3,03,00,1A,00,00,00,00,00,
11714698,00000008,false,Rx,9,7,B0,01,20,0C,BB,0F,FF,00,
11715994,00000008,false,Rx,9,7,B0,0E,00,0D,0E,07,00,00,
11725036,000000AA,false,Rx,9,2,AA,04,00,00,00,00,00,00,
11727869,00000040,false,Rx,9,3,B0,01,20,00,00,00,00,00,
11729588,000002BC,false,Rx,9,3,03,00,0F,00,00,00,00,00,
11730564,00000010,false,Rx,9,7,B0,01,20,11,20,0D,00,00,
11734717,00000008,false,Rx,9,7,B0,01,20,0F,FF,07,00,00,
11745791,000000AA,false,Rx,9,2,AA,04,00,00,00,00,00,00,
11747784,00000040,false,Rx,9,3,B0,01,20,00,00,00,00,00,
11749506,000002B4,false,Rx,9,3,03,00,0A,00,00,00,00,00,
11750587,00000010,false,Rx,9,7,B0,01,20,11,20,0D,00,00,
11754741,00000008,false,Rx,9,7,B0,01,20,0F,FF,07,00,00,
11765748,000000AA,false,Rx,9,2,AA,04,00,00,00,00,00,00,
11767959,00000040,false,Rx,9,3,B0,01,20,00,00,00,00,00,
11769578,000003AC,false,Rx,9,3,03,00,1D,00,00,00,00,00,
11770656,00000010,false,Rx,9,7,B0,01,20,11,20,0D,00,00,
11774769,00000008,false,Rx,9,7,B0,01,20,0F,FF,07,00,00,
11785744,000000AA,false,Rx,9,2,AA,04,00,00,00,00,00,00,
11787895,00000040,false,Rx,9,3,B0,01,20,00,00,00,00,00,
11789611,000003A4,false,Rx,9,3,03,00,2C,00,00,00,00,00,
11790587,00000010,false,Rx,9,7,B0,01,20,11,20,0D,00,00,
11794211,00000008,false,Rx,9,7,B0,01,20,0F,FF,07,00,00,
11805108,000000AA,false,Rx,9,2,AA,04,00,00,00,00,00,00,
11807917,00000040,false,Rx,9,3,B0,01,20,00,00,00,00,00,
11810485,00000010,false,Rx,9,7,B0,01,20,11,20,0D,00,00,
11814744,00000008,false,Rx,9,7,B0,01,20,0F,FF,07,00,00,
11825028,000000AA,false,Rx,9,2,AA,04,00,00,00,00,00,00,
11827943,00000040,false,Rx,9,3,B0,01,20,00,00,00,00,00,
11830858,00000010,false,Rx,9,7,B0,01,20,11,20,0D,00,00,
11831517,0000029C,false,Rx,9,3,03,00,1A,00,00,00,00,00,
11834863,00000008,false,Rx,9,7,B0,01,20,0F,FF,07,00,00,
11845023,000000AA,false,Rx,9,2,AA,04,00,00,00,00,00,00,
11848248,00000040,false,Rx,9,6,B0,01,20,92,FF,FF,00,00,
11849543,00000040,false,Rx,9,6,B0,93,E5,00,14,00,00,00,
11851048,00000010,false,Rx,9,7,B0,01,20,11,20,0D,00,00,
11851809,000002BC,false,Rx,9,3,03,00,0F,00,00,00,00,00,
11854798,00000008,false,Rx,9,7,B0,01,20,0F,FF,07,00,00,
11865793,000000AA,false,Rx,9,2,AA,04,00,00,00,00,00,00,
11867969,00000040,false,Rx,9,3,B0,01,20,00,00,00,00,00,
11869683,000002B4,false,Rx,9,3,03,00,02,00,00,00,00,00,
11870656,00000010,false,Rx,9,7,B0,01,20,11,20,0E,00,00,
11871736,00000010,false,Rx,9,3,B0,0D,00,00,00,00,00,00,
11874830,00000008,false,Rx,9,7,B0,01,20,0F,FF,07,00,00,
11885103,000000AA,false,Rx,9,2,AA,04,00,00,00,00,00,00,
11888013,00000040,false,Rx,9,3,B0,01,20,00,00,00,00,00,
11889728,000003AC,false,Rx,9,3,03,00,1D,00,00,00,00,00,
11890704,00000010,false,Rx,9,7,B0,01,20,11,20,0D,00,00,
11894648,00000008,false,Rx,9,7,B0,01,20,0F,FF,07,00,00,
11905827,000000AA,false,Rx,9,2,AA,04,00,00,00,00,00,00,
11907998,00000040,false,Rx,9,3,B0,01,20,00,00,00,00,00,
11909607,000003A4,false,Rx,9,3,03,00,2C,00,00,00,00,00,
11910687,00000010,false,Rx,9,7,B0,01,20,11,20,0D,00,00,
11914099,00000008,false,Rx,9,7,B0,01,20,0C,BB,0F,FF,00,
11915917,00000008,false,Rx,9,7,B0,0E,00,0D,0E,07,00,00,
11925808,000000AA,false,Rx,9,2,AA,04,00,00,00,00,00,00,
11927854,00000040,false,Rx,9,3,B0,01,20,00,00,00,00,00,
11930524,00000010,false,Rx,9,7,B0,01,20,11,20,0D,00,00,
11934677,00000008,false,Rx,9,7,B0,01,20,0F,FF,07,00,00,
11945117,000000AA,false,Rx,9,2,AA,04,00,00,00,00,00,00,
11947917,00000040,false,Rx,9,3,B0,01,20,00,00,00,00,00,
11950842,00000010,false,Rx,9,7,B0,01,20,11,20,0D,00,00,
11951607,0000029C,false,Rx,9,3,03,00,1A,00,00,00,00,00,
11954847,00000008,false,Rx,9,7,B0,01,20,0F,FF,07,00,00,
11965097,000000AA,false,Rx,9,2,AA,04,00,00,00,00,00,00,
11968027,00000040,false,Rx,9,3,B0,01,20,00,00,00,00,00,
11969741,000002BC,false,Rx,9,3,03,00,0F,00,00,00,00,00,
11970717,00000010,false,Rx,9,7,B0,01,20,11,20,0D,00,00,
11974658,00000008,false,Rx,9,7,B0,01,20,0F,FF,07,00,00,
11985143,000000AA,false,Rx,9,2,AA,04,00,00,00,00,00,00,
11987951,00000040,false,Rx,9,3,B0,01,20,00,00,00,00,00,
11989667,000002B4,false,Rx,9,3,03,00,02,00,00,00,00,00,
11990748,00000010,false,Rx,9,7,B0,01,20,11,20,0D,00,00,
11994689,00000008,false,Rx,9,7,B0,01,20,0F,FF,07,00,00,
12005161,000000AA,false,Rx,9,2,AA,04,00,00,00,00,00,00,
12007964,00000040,false,Rx,9,3,B0,01,20,00,00,00,00,00,
12009680,000003AC,false,Rx,9,3,03,00,1D,00,00,00,00,00,
12010761,00000010,false,Rx,9,7,B0,01,20,11,20,0D,00,00,
12014280,00000008,false,Rx,9,7,B0,01,20,0F,FF,07,00,00,
12025086,000000AA,false,Rx,9,2,AA,04,00,00,00,00,00,00,
12028004,00000040,false,Rx,9,3,B0,01,20,00,00,00,00,00,
12029717,000003A4,false,Rx,9,3,03,00,2C,00,00,00,00,00,
12030798,00000010,false,Rx,9,7,B0,01,20,11,20,0D,00,00,
12034741,00000008,false,Rx,9,7,B0,01,20,0F,FF,07,00,00,
12045128,000000AA,false,Rx,9,2,AA,04,00,00,00,00,00,00,
12048353,00000040,false,Rx,9,6,B0,01,20,92,FF,FF,00,00,
12049648,00000040,false,Rx,9,6,B0,93,E5,00,14,00,00,00,
12051048,00000010,false,Rx,9,7,B0,01,20,11,20,0D,00,00,
12054248,00000008,false,Rx,9,7,B0,01,20,0F,FF,07,00,00,
12065878,000000AA,false,Rx,9,2,AA,04,00,00,00,00,00,00,
12068042,00000040,false,Rx,9,3,B0,01,20,00,00,00,00,00,
12070966,00000010,false,Rx,9,7,B0,01,20,11,20,0E,00,00,
12071623,0000029C,false,Rx,9,3,03,00,1A,00,00,00,00,00,
12072385,00000010,false,Rx,9,3,B0,0D,00,00,00,00,00,00,
12074994,00000008,false,Rx,9,7,B0,01,20,0F,FF,07,00,00,
12085837,000000AA,false,Rx,9,2,AA,04,00,00,00,00,00,00,
12088128,00000040,false,Rx,9,3,B0,01,20,00,00,00,00,00,
12089754,000002BC,false,Rx,9,3,03,00,0F,00,00,00,00,00,
12090833,00000010,false,Rx,9,7,B0,01,20,11,20,0D,00,00,
12094672,00000008,false,Rx,9,7,B0,01,20,0F,FF,07,00,00,
12105879,000000AA,false,Rx,9,2,AA,04,00,00,00,00,00,00,
12108048,00000040,false,Rx,9,3,B0,01,20,00,00,00,00,00,
12109761,000002B4,false,Rx,9,3,03,00,0A,00,00,00,00,00,
12110842,00000010,false,Rx,9,7,B0,01,20,11,20,0D,00,00,
12114151,00000008,false,Rx,9,7,B0,01,20,0C,BB,0F,FF,00,
12115976,00000008,false,Rx,9,7,B0,0E,00,0D,0E,07,00,00,
12125221,000000AA,false,Rx,9,2,AA,04,00,00,00,00,00,00,
12128064,00000040,false,Rx,9,3,B0,01,20,00,00,00,00,00,
12129783,000003AC,false,Rx,9,3,03,00,1D,00,00,00,00,00,
12130758,00000010,false,Rx,9,7,B0,01,20,11,20,0D,00,00,
12134700,00000008,false,Rx,9,7,B0,01,20,0F,FF,07,00,00,
12145910,000000AA,false,Rx,9,2,AA,04,00,00,00,00,00,00,
12147981,00000040,false,Rx,9,3,B0,01,20,00,00,00,00,00,
12149695,000003A4,false,Rx,9,3,03,00,2C,00,00,00,00,00,
12150776,00000010,false,Rx,9,7,B0,01,20,11,20,0D,00,00,
12154193,00000008,false,Rx,9,7,B0,01,20,0F,FF,07,00,00,
12165215,000000AA,false,Rx,9,2,AA,04,00,00,00,00,00,00,
12168121,00000040,false,Rx,9,3,B0,01,20,00,00,00,00,00,
12170577,00000010,false,Rx,9,7,B0,01,20,11,20,0D,00,00,
12174728,00000008,false,Rx,9,7,B0,01,20,0F,FF,07,00,00,
12185871,000000AA,false,Rx,9,2,AA,04,00,00,00,00,00,00,
12188074,00000040,false,Rx,9,3,B0,01,20,00,00,00,00,00,
12190971,00000010,false,Rx,9,7,B0,01,20,11,20,0D,00,00,
12191626,0000029C,false,Rx,9,3,03,00,1A,00,00,00,00,00,
12194866,00000008,false,Rx,9,7,B0,01,20,0F,FF,07,00,00,
12205221,000000AA,false,Rx,9,2,AA,04,00,00,00,00,00,00,
12208248,00000040,false,Rx,9,3,B0,01,20,00,00,00,00,00,
12209858,000002BC,false,Rx,9,3,03,00,0F,00,00,00,00,00,
12210943,00000010,false,Rx,9,7,B0,01,20,11,20,0D,00,00,
12214247,00000008,false,Rx,9,7,B0,01,20,0F,FF,07,00,00,
12225195,000000AA,false,Rx,9,2,AA,04,00,00,00,00,00,00,
12228214,00000040,false,Rx,9,3,B0,01,20,00,00,00,00,00,
12229932,000002B4,false,Rx,9,3,03,00,0A,00,00,00,00,00,
12231010,00000010,false,Rx,9,7,B0,01,20,11,20,0D,00,00,
12234737,00000008,false,Rx,9,7,B0,01,20,0F,FF,07,00,00,
12245985,000000AA,false,Rx,9,2,AA,04,00,00,00,00,00,00,
12248388,00000040,false,Rx,9,6,B0,01,20,92,FF,FF,00,00,
12249790,00000040,false,Rx,9,6,B0,93,E5,00,14,00,00,00,
12251083,00000010,false,Rx,9,7,B0,01,20,11,20,0D,00,00,
12251844,000003AC,false,Rx,9,3,03,00,1D,00,00,00,00,00,
12254833,00000008,false,Rx,9,7,B0,01,20,0F,FF,07,00,00,
12265953,000000AA,false,Rx,9,2,AA,04,00,00,00,00,00,00,
12268165,00000040,false,Rx,9,3,B0,01,20,00,00,00,00,00,
12269779,000003A4,false,Rx,9,3,03,00,2C,00,00,00,00,00,
12270859,00000010,false,Rx,9,7,B0,01,20,11,20,0E,00,00,
12271833,00000010,false,Rx,9,3,B0,0D,00,00,00,00,00,00,
12274822,00000008,false,Rx,9,7,B0,01,20,0F,FF,07,00,00,
12285253,000000AA,false,Rx,9,2,AA,04,00,00,00,00,00,00,
12288164,00000040,false,Rx,9,3,B0,01,20,00,00,00,00,00,
12290543,00000010,false,Rx,9,7,B0,01,20,11,20,0D,00,00,
12294704,00000008,false,Rx,9,7,B0,01,20,0F,FF,07,00,00,
12305241,000000AA,false,Rx,9,2,AA,04,00,00,00,00,00,00,
12308147,00000040,false,Rx,9,3,B0,01,20,00,00,00,00,00,
12310517,00000010,false,Rx,9,7,B0,01,20,11,20,0D,00,00,
12311280,0000029C,false,Rx,9,3,03,00,1A,00,00,00,00,00,
12314858,00000008,false,Rx,9,7,B0,01,20,0C,BB,0F,FF,00,
12316049,00000008,false,Rx,9,7,B0,0E,00,0D,0E,07,00,00,
12325240,000000AA,false,Rx,9,2,AA,04,00,00,00,00,00,00,
12328156,00000040,false,Rx,9,3,B0,01,20,00,00,00,00,00,
12329868,000002BC,false,Rx,9,3,03,00,0F,00,00,00,00,00,
12330954,00000010,false,Rx,9,7,B0,01,20,11,20,0D,00,00,
12334683,00000008,false,Rx,9,7,B0,01,20,0F,FF,07,00,00,
12344373,00001000,true,Rx,9,8,00,00,00,56,00,00,1E,D9,
12345834,00001001,true,Rx,9,8,00,00,00,00,00,00,00,00,
12347198,00001002,true,Rx,9,8,00,00,00,00,00,00,00,00,
12348915,000000AA,false,Rx,9,2,AA,04,00,00,00,00,00,00,
12349833,00000040,false,Rx,9,3,B0,01,23,00,00,00,00,00,
12350742,00000010,false,Rx,9,7,B0,01,20,11,20,0D,00,00,
12352677,000002B4,false,Rx,9,3,03,00,02,00,00,00,00,00,
12354817,00000008,false,Rx,9,7,B0,01,20,0F,FF,07,00,00,
12366798,000000AA,false,Rx,9,2,AA,04,00,00,00,00,00,00,
12368751,00000040,false,Rx,9,3,B0,01,23,00,00,00,00,00,
12370577,000003AC,false,Rx,9,3,03,00,1D,00,00,00,00,00,
12372082,00000010,false,Rx,9,7,B0,01,20,11,23,0D,00,00,
12374749,00000008,false,Rx,9,7,B0,01,20,0F,FF,07,00,00,
12376890,00000008,false,Rx,9,4,30,02,00,0B,00,00,00,00,
12378187,00000010,false,Rx,9,3,B0,0B,00,00,00,00,00,00,
12385305,000000AA,false,Rx,9,2,AA,04,00,00,00,00,00,00,
12389011,00000040,false,Rx,9,3,B0,01,23,00,00,00,00,00,
12389994,00000010,false,Rx,9,7,B0,01,20,11,23,0D,00,00,
12390969,00000010,false,Rx,9,3,B0,0B,00,00,00,00,00,00,
12391789,000003A4,false,Rx,9,3,03,00,2C,00,00,00,00,00,
12394271,00000008,false,Rx,9,7,B0,01,20,0F,FF,07,00,00,
12395042,00000010,false,Rx,9,4,30,08,00,10,00,00,00,00,
12396120,00000040,false,Rx,9,4,B0,90,8B,80,00,00,00,00,
12405269,000000AA,false,Rx,9,2,AA,04,00,00,00,00,00,00,
12409166,00000040,false,Rx,9,6,B0,01,23,90,8B,80,00,00,
12410153,00000010,false,Rx,9,7,B0,01,20,11,23,0D,00,00,
12411025,00000010,false,Rx,9,3,B0,0B,00,00,00,00,00,00,
12414859,00000008,false,Rx,9,7,B0,01,20,0F,FF,07,00,00,
12425266,000000AA,false,Rx,9,2,AA,04,00,00,00,00,00,00,
12429132,00000040,false,Rx,9,6,B0,01,23,90,8D,80,00,00,
12430211,00000010,false,Rx,9,7,B0,01,20,11,23,0D,00,00,
12431418,00000010,false,Rx,9,3,B0,0B,00,00,00,00,00,00,
12432969,0000029C,false,Rx,9,3,03,00,1A,00,00,00,00,00,
12434915,00000008,false,Rx,9,7,B0,01,20,0F,FF,07,00,00,
12445289,000000AA,false,Rx,9,2,AA,04,00,00,00,00,00,00,
12449469,00000040,false,Rx,9,6,B0,01,23,90,8E,7E,00,00,
12450551,00000010,false,Rx,9,7,B0,01,20,11,23,0D,00,00,
12451631,00000040,false,Rx,9,7,B0,92,FF,FF,93,E5,00,00,
12452289,00000010,false,Rx,9,3,B0,0B,00,00,00,00,00,00,
12453054,00000040,false,Rx,9,3,B0,14,00,00,00,00,00,00,
12454559,000002BC,false,Rx,9,3,03,00,0F,00,00,00,00,00,
12455849,00000008,false,Rx,9,7,B0,01,23,0F,FF,07,00,00,
